Time [s],Packet ID,MOSI,MISO
2.631836187500000,0,0x00,0x01
2.631927562500000,0,0x00,0x02
2.632018937500000,0,0x00,0x7C
2.632110000000000,0,0x00,0x0E
2.632216750000000,0,0x00,0xFF
2.632313500000000,0,0x55,0xFF
2.632410250000000,0,0x04,0xFF
2.632507937500000,0,0x00,0xFF
2.632604687500000,0,0x00,0xFF
2.632701437500000,0,0x7E,0xFF
2.632815500000000,0,0x91,0xFF
3.935724500000000,1,0x00,0x07
3.935815875000000,1,0x00,0x02
3.935907625000000,1,0x00,0xDA
3.935998687500000,1,0x00,0xA4
3.936105437500000,1,0x00,0xFF
3.936202125000000,1,0x55,0xFF
3.936298875000000,1,0x0B,0xFF
3.936396625000000,1,0x00,0xFF
3.936493375000000,1,0x00,0xFF
3.936590750000000,1,0x10,0xFF
3.936688125000000,1,0x00,0xFF
3.936785562500000,1,0x00,0xFF
3.936882937500000,1,0x00,0xFF
3.936980375000000,1,0x03,0xFF
3.937077750000000,1,0x00,0xFF
3.937174500000000,1,0x00,0xFF
3.937271187500000,1,0x46,0xFF
3.937368312500000,1,0xD9,0xFF
3.938826625000000,2,0x00,0x10
3.938918000000000,2,0x00,0x06
3.939009750000000,2,0x00,0x10
3.939101125000000,2,0x00,0x00
3.939192875000000,2,0x00,0x00
3.939283937500000,2,0x00,0x00
3.939375312500000,2,0x00,0xB6
3.939466750000000,2,0x00,0xC2
3.939573437500000,2,0x00,0xFF
3.939670187500000,2,0x55,0xFF
3.939767625000000,2,0x04,0xFF
3.939865312500000,2,0x00,0xFF
3.939962062500000,2,0x00,0xFF
3.940058812500000,2,0x7E,0xFF
3.940172875000000,2,0x91,0xFF
3.943017187500000,3,0x00,0x10
3.943108562500000,3,0x00,0x06
3.943200312500000,3,0x00,0xFF
3.943291687500000,3,0x00,0x0F
3.943383062500000,3,0x00,0x00
3.943474812500000,3,0x00,0x00
3.943566187500000,3,0x00,0x83
3.943657625000000,3,0x00,0xBE
3.943764312500000,3,0x00,0xFF
3.943861062500000,3,0x55,0xFF
3.943957500000000,3,0x04,0xFF
3.944055187500000,3,0x00,0xFF
3.944151937500000,3,0x00,0xFF
3.944248687500000,3,0x7E,0xFF
3.944362750000000,3,0x91,0xFF
3.945834125000000,4,0x00,0x0C
3.945925500000000,4,0x00,0x13
3.946016875000000,4,0x00,0x01
3.946107937500000,4,0x00,0x00
3.946199375000000,4,0x00,0x00
3.946291062500000,4,0x00,0x00
3.946391500000000,4,0x00,0x00
3.946482875000000,4,0x00,0x00
3.946574250000000,4,0x00,0x00
3.946666000000000,4,0x00,0x00
3.946757062500000,4,0x00,0x00
3.946848437500000,4,0x00,0x00
3.946940187500000,4,0x00,0x00
3.947031250000000,4,0x00,0x00
3.947123000000000,4,0x00,0x00
3.947214375000000,4,0x00,0x00
3.947306125000000,4,0x00,0x00
3.947397500000000,4,0x00,0x00
3.947489250000000,4,0x00,0x00
3.947580312500000,4,0x00,0x2F
3.947671687500000,4,0x00,0x89
3.947778437500000,4,0x00,0xFF
3.947875187500000,4,0x55,0xFF
3.947971875000000,4,0x04,0xFF
3.948069937500000,4,0x00,0xFF
3.948166687500000,4,0x00,0xFF
3.948263437500000,4,0x7E,0xFF
3.948377500000000,4,0x91,0xFF
3.951824562500000,5,0x00,0x12
3.951915937500000,5,0x00,0x02
3.952007687500000,5,0x00,0x5C
3.952098750000000,5,0x00,0x58
3.952205812500000,5,0x00,0xFF
3.952302562500000,5,0x55,0xFF
3.952399250000000,5,0x0E,0xFF
3.952497000000000,5,0x00,0xFF
3.952593750000000,5,0x00,0xFF
3.952691125000000,5,0x1A,0xFF
3.952788562500000,5,0x00,0xFF
3.952885937500000,5,0x00,0xFF
3.952983000000000,5,0x00,0xFF
3.953080375000000,5,0x00,0xFF
3.953177812500000,5,0x14,0xFF
3.953275187500000,5,0x01,0xFF
3.953372625000000,5,0x04,0xFF
3.953470000000000,5,0x03,0xFF
3.953567375000000,5,0x00,0xFF
3.953663812500000,5,0xFB,0xFF
3.953760875000000,5,0x34,0xFF
3.955187875000000,6,0x00,0x0F
3.955279250000000,6,0x00,0x0C
3.955370312500000,6,0x00,0x1A
3.955462062500000,6,0x00,0x00
3.955553437500000,6,0x00,0x00
3.955645187500000,6,0x00,0x00
3.955736562500000,6,0x00,0x00
3.955828312500000,6,0x00,0x0A
3.955928375000000,6,0x00,0x01
3.956020062500000,6,0x00,0x10
3.956111125000000,6,0x00,0x03
3.956202875000000,6,0x00,0x00
3.956293937500000,6,0x00,0xAE
3.956385312500000,6,0x00,0x42
3.956492062500000,6,0x00,0xFF
3.956588812500000,6,0x55,0xFF
3.956685875000000,6,0x04,0xFF
3.956783625000000,6,0x00,0xFF
3.956880375000000,6,0x00,0xFF
3.956977062500000,6,0x7E,0xFF
3.957091187500000,6,0x91,0xFF
3.958427062500000,7,0x00,0x02
3.958518500000000,7,0x00,0x10
3.958609875000000,7,0x00,0x01
3.958701250000000,7,0x00,0x07
3.958792687500000,7,0x00,0x02
3.958884062500000,7,0x00,0x00
3.958975437500000,7,0x00,0x00
3.959067187500000,7,0x00,0x00
3.959158250000000,7,0x00,0x00
3.959249625000000,7,0x00,0x00
3.959341375000000,7,0x00,0x00
3.959432437500000,7,0x00,0x00
3.959524187500000,7,0x00,0x00
3.959615562500000,7,0x00,0x00
3.959706937500000,7,0x00,0x01
3.959798375000000,7,0x00,0x00
3.959889750000000,7,0x00,0x5B
3.959981125000000,7,0x00,0xE0
3.960087875000000,7,0x00,0xFF
3.960184625000000,7,0x55,0xFF
3.960281375000000,7,0x04,0xFF
3.960379062500000,7,0x00,0xFF
3.960475812500000,7,0x00,0xFF
3.961571875000000,7,0x7E,0xFF
3.961686000000000,7,0x91,0xFF
7.931561062500000,8,0x00,0x07
7.931652437500000,8,0x00,0x02
7.931743875000000,8,0x00,0xDA
7.931835250000000,8,0x00,0xA4
7.931942000000000,8,0x00,0xFF
7.932038750000000,8,0x55,0xFF
7.932135437500000,8,0x0B,0xFF
7.932233500000000,8,0x00,0xFF
7.932330250000000,8,0x00,0xFF
7.932427687500000,8,0x20,0xFF
7.932525062500000,8,0x00,0xFF
7.932622437500000,8,0x00,0xFF
7.932719875000000,8,0x00,0xFF
7.932817250000000,8,0x03,0xFF
7.932914687500000,8,0x00,0xFF
7.933012062500000,8,0x00,0xFF
7.933108437500000,8,0xCB,0xFF
7.933205500000000,8,0x80,0xFF
7.934694187500000,9,0x00,0x10
7.934785625000000,9,0x00,0x06
7.934877312500000,9,0x00,0x20
7.934968750000000,9,0x00,0x00
7.935060437500000,9,0x00,0x00
7.935151875000000,9,0x00,0x00
7.935243562500000,9,0x00,0x5F
7.935334625000000,9,0x00,0xEE
7.935441375000000,9,0x00,0xFF
7.935538125000000,9,0x55,0xFF
7.935635187500000,9,0x04,0xFF
7.935732937500000,9,0x00,0xFF
7.936832375000000,9,0x00,0xFF
7.936928750000000,9,0x7E,0xFF
7.937043187500000,9,0x91,0xFF
7.938883750000000,10,0x00,0x12
7.938975125000000,10,0x00,0x02
7.939066875000000,10,0x00,0x5C
7.939157937500000,10,0x00,0x58
7.939265000000000,10,0x00,0xFF
7.939361750000000,10,0x55,0xFF
7.939458812500000,10,0x0E,0xFF
7.939556562500000,10,0x00,0xFF
7.939653312500000,10,0x00,0xFF
7.939750687500000,10,0x1A,0xFF
7.939848062500000,10,0x00,0xFF
7.939944500000000,10,0x00,0xFF
7.940041875000000,10,0x00,0xFF
7.940138937500000,10,0x00,0xFF
7.940236375000000,10,0x0A,0xFF
7.940333750000000,10,0x01,0xFF
7.940430812500000,10,0x10,0xFF
7.940528187500000,10,0x03,0xFF
7.940625625000000,10,0x00,0xFF
7.940722000000000,10,0xAA,0xFF
7.940819062500000,10,0x60,0xFF
7.942245062500000,11,0x00,0x0F
7.942336437500000,11,0x00,0x0C
7.942428187500000,11,0x00,0x17
7.942519562500000,11,0x00,0x00
7.942698062500000,11,0x00,0x00
7.942789750000000,11,0x00,0x00
7.942880812500000,11,0x00,0x00
7.942972562500000,11,0x00,0x0A
7.943063937500000,11,0x00,0x01
7.943155687500000,11,0x00,0x10
7.943246750000000,11,0x00,0x03
7.943338125000000,11,0x00,0x00
7.943429875000000,11,0x00,0x95
7.943520937500000,11,0x00,0xCA
7.943627687500000,11,0x00,0xFF
7.943724437500000,11,0x55,0xFF
7.943821125000000,11,0x04,0xFF
7.943918875000000,11,0x00,0xFF
7.944015625000000,11,0x00,0xFF
7.944112375000000,11,0x7E,0xFF
7.944226437500000,11,0x91,0xFF
7.945562312500000,12,0x00,0x02
7.945653750000000,12,0x00,0x10
7.945744812500000,12,0x00,0x01
7.946838875000000,12,0x00,0x07
7.946930250000000,12,0x00,0x02
7.947021687500000,12,0x00,0x00
7.947113375000000,12,0x00,0x00
7.947204812500000,12,0x00,0x00
7.947296187500000,12,0x00,0x00
7.947387562500000,12,0x00,0x00
7.947479312500000,12,0x00,0x00
7.947570687500000,12,0x00,0x00
7.947662125000000,12,0x00,0x00
7.947753500000000,12,0x00,0x00
7.947844875000000,12,0x00,0x01
7.947936625000000,12,0x00,0x00
7.948028000000000,12,0x00,0x5B
7.948119437500000,12,0x00,0xE0
7.948226187500000,12,0x00,0xFF
7.948322562500000,12,0x55,0xFF
7.948419312500000,12,0x04,0xFF
7.948517687500000,12,0x00,0xFF
7.948614437500000,12,0x00,0xFF
7.948711187500000,12,0x7E,0xFF
7.948825250000000,12,0x91,0xFF
9.934393312499999,13,0x00,0x07
9.934484749999999,13,0x00,0x02
9.934576437500001,13,0x00,0xDA
9.934676500000000,13,0x00,0xA4
9.934783250000001,13,0x00,0xFF
9.934880000000000,13,0x55,0xFF
9.935003437500001,13,0x0B,0xFF
9.935101124999999,13,0x00,0xFF
9.935197875000000,13,0x00,0xFF
9.935295312499999,13,0x01,0xFF
9.935392374999999,13,0x00,0xFF
9.935489437499999,13,0x00,0xFF
9.935586125000000,13,0x00,0xFF
9.935683562500000,13,0x03,0xFF
9.935780937500001,13,0x00,0xFF
9.935878375000000,13,0x00,0xFF
9.936001437500000,13,0x5C,0xFF
9.936098500000000,13,0x56,0xFF
9.937569187499999,14,0x00,0x10
9.937660562500000,14,0x00,0x06
9.937752312500001,14,0x00,0x01
9.937852687500000,14,0x00,0x00
9.937961749999999,14,0x00,0x00
9.938053187500000,14,0x00,0x00
9.938144562500000,14,0x00,0xA5
9.938235937500000,14,0x00,0xAF
9.938342687500000,14,0x00,0xFF
9.938439437500000,14,0x55,0xFF
9.939538875000000,14,0x04,0xFF
9.939636625000000,14,0x00,0xFF
9.939733312500000,14,0x00,0xFF
9.939830375000000,14,0x7E,0xFF
9.939944499999999,14,0x91,0xFF
9.941510562500000,15,0x00,0x08
9.941601937500000,15,0x00,0x03
9.941693000000001,15,0x00,0x00
9.941784374999999,15,0x00,0x6E
9.941875812499999,15,0x00,0x30
9.941991187499999,15,0x00,0xFF
9.942087937500000,15,0x55,0xFF
9.942184687499999,15,0x2C,0xFF
9.942282437499999,15,0x00,0xFF
9.942379125000000,15,0x00,0xFF
9.942476562500000,15,0x00,0xFF
9.942573937500001,15,0x00,0xFF
9.942671312500000,15,0x00,0xFF
9.942768750000001,15,0x00,0xFF
9.942866125000000,15,0x00,0xFF
9.942971562500000,15,0x02,0xFF
9.943068937500000,15,0xFF,0xFF
9.943166375000001,15,0xFF,0xFF
9.943263750000000,15,0xFF,0xFF
9.943361124999999,15,0xFF,0xFF
9.943458562500000,15,0xFF,0xFF
9.943555625000000,15,0xFF,0xFF
9.943652999999999,15,0xFF,0xFF
9.943750437500000,15,0xFF,0xFF
9.943847812500000,15,0x41,0xFF
9.943945187500001,15,0x00,0xFF
9.944041937500000,15,0x00,0xFF
9.944139375000001,15,0x00,0xFF
9.944236750000000,15,0x00,0xFF
9.944334124999999,15,0x00,0xFF
9.944431562500000,15,0x00,0xFF
9.944528937499999,15,0x00,0xFF
9.944626000000000,15,0x00,0xFF
9.944723437500000,15,0x05,0xFF
9.944820812500000,15,0x68,0xFF
9.944918187500001,15,0x0F,0xFF
9.945032625000000,15,0x08,0xFF
9.945130000000001,15,0x46,0xFF
9.945227437500000,15,0xF7,0xFF
9.945324500000000,15,0x23,0xFF
9.945421874999999,15,0x00,0xFF
9.945519312500000,15,0x85,0xFF
9.945615999999999,15,0x08,0xFF
9.945713437500000,15,0x46,0xFF
9.945810812500000,15,0x68,0xFF
9.945908250000000,15,0x0F,0xFF
9.946022312500000,15,0x05,0xFF
9.946119687500000,15,0x17,0xFF
9.946217125000000,15,0x00,0xFF
9.946314500000000,15,0x6A,0xFF
9.946410937500000,15,0x75,0xFF
9.946508000000000,15,0x4D,0xFF
11.918302625000001,16,0x00,0x07
11.918394062500001,16,0x00,0x02
11.918485437499999,16,0x00,0xDA
11.918576500000000,16,0x00,0xA4
11.918683562500000,16,0x00,0xFF
11.918780312499999,16,0x55,0xFF
11.918877374999999,16,0x0B,0xFF
11.918975124999999,16,0x00,0xFF
11.919071812500000,16,0x00,0xFF
11.919169249999999,16,0x20,0xFF
11.919266625000001,16,0x00,0xFF
11.919364062500000,16,0x00,0xFF
11.919461437500001,16,0x00,0xFF
11.919558812500000,16,0x03,0xFF
11.919656249999999,16,0x00,0xFF
11.919753625000000,16,0x00,0xFF
11.919850374999999,16,0xCB,0xFF
11.919947437499999,16,0x80,0xFF
11.922438124999999,17,0x00,0x10
11.922529562499999,17,0x00,0x06
11.922621250000001,17,0x00,0x20
11.922712312500000,17,0x00,0x00
11.922804062499999,17,0x00,0x00
11.922895125000000,17,0x00,0x00
11.922986874999999,17,0x00,0x5F
11.923077937500000,17,0x00,0xEE
11.923184624999999,17,0x00,0xFF
11.923281375000000,17,0x55,0xFF
11.923378437500000,17,0x04,0xFF
11.923476187500000,17,0x00,0xFF
11.923572937499999,17,0x00,0xFF
11.923669625000000,17,0x7E,0xFF
11.923783750000000,17,0x91,0xFF
11.925624312500000,18,0x00,0x12
11.925715750000000,18,0x00,0x02
11.925807125000000,18,0x00,0x5C
11.925898187500000,18,0x00,0x58
11.926004937500000,18,0x00,0xFF
11.926101624999999,18,0x55,0xFF
11.926198749999999,18,0x0E,0xFF
11.926296812500000,18,0x00,0xFF
11.926393500000000,18,0x00,0xFF
11.926490937500001,18,0x17,0xFF
11.926588312500000,18,0x00,0xFF
11.926685750000001,18,0x00,0xFF
11.926782812500001,18,0x00,0xFF
11.926880187500000,18,0x00,0xFF
11.926977562499999,18,0x0A,0xFF
11.927075000000000,18,0x01,0xFF
11.927172062500000,18,0x10,0xFF
11.927269437500000,18,0x03,0xFF
11.927366875000001,18,0x00,0xFF
11.927463250000001,18,0x91,0xFF
11.927560312500001,18,0xE8,0xFF
11.928985937500000,19,0x00,0x0F
11.929077375000000,19,0x00,0x0C
11.929169062500000,19,0x00,0x14
11.929260125000001,19,0x00,0x00
11.929351562500001,19,0x00,0x00
11.929442937499999,19,0x00,0x00
11.929534312500000,19,0x00,0x00
11.929625750000000,19,0x00,0x0A
11.929717125000000,19,0x00,0x01
11.929808500000000,19,0x00,0x10
11.929900249999999,19,0x00,0x03
11.929991312500000,19,0x00,0x00
11.930082687500001,19,0x00,0x5A
11.930174125000001,19,0x00,0x7B
11.930280874999999,19,0x00,0xFF
11.930377562500000,19,0x55,0xFF
11.930474312499999,19,0x04,0xFF
11.930572375000001,19,0x00,0xFF
11.930669125000000,19,0x00,0xFF
11.930765875000001,19,0x7E,0xFF
11.930879937500000,19,0x91,0xFF
11.933217500000000,20,0x00,0x02
11.933308937500000,20,0x00,0x10
11.933400625000001,20,0x00,0x01
11.933492062499999,20,0x00,0x07
11.933583750000000,20,0x00,0x02
11.933675187500000,20,0x00,0x00
11.933766250000000,20,0x00,0x00
11.933857937499999,20,0x00,0x00
11.933949374999999,20,0x00,0x00
11.934040749999999,20,0x00,0x00
11.934132500000000,20,0x00,0x00
11.934223875000001,20,0x00,0x00
11.934315625000000,20,0x00,0x00
11.934406687499999,20,0x00,0x00
11.934498062499999,20,0x00,0x01
11.934598500000000,20,0x00,0x00
11.934689875000000,20,0x00,0x5B
11.934781250000000,20,0x00,0xE0
11.934888000000001,20,0x00,0xFF
11.934984750000000,20,0x55,0xFF
11.935081500000001,20,0x04,0xFF
11.935179562500000,20,0x00,0xFF
11.935276249999999,20,0x00,0xFF
11.935373000000000,20,0x7E,0xFF
11.935487062500000,20,0x91,0xFF
15.904726374999999,21,0x00,0x07
15.904817812499999,21,0x00,0x02
15.904909187499999,21,0x00,0xDA
15.905000250000001,21,0x00,0xA4
15.905106999999999,21,0x00,0xFF
15.905203687500000,21,0x55,0xFF
15.905300812500000,21,0x0B,0xFF
15.905399187500000,21,0x00,0xFF
15.905495937500000,21,0x00,0xFF
15.905592625000001,21,0x20,0xFF
15.905690062500000,21,0x00,0xFF
15.905787437500001,21,0x00,0xFF
15.905884875000000,21,0x00,0xFF
15.905982249999999,21,0x03,0xFF
15.906079625000000,21,0x00,0xFF
15.906177062499999,21,0x00,0xFF
15.906273437499999,21,0xCB,0xFF
15.906370500000000,21,0x80,0xFF
15.908862250000000,22,0x00,0x10
15.908953625000001,22,0x00,0x06
15.909045000000001,22,0x00,0x20
15.909136437500001,22,0x00,0x00
15.909227812499999,22,0x00,0x00
15.909319187500000,22,0x00,0x00
15.909410937500001,22,0x00,0x5F
15.909502000000000,22,0x00,0xEE
15.909608750000000,22,0x00,0xFF
15.909705437500000,22,0x55,0xFF
15.909802187500000,22,0x04,0xFF
15.909899937500001,22,0x00,0xFF
15.909996687500000,22,0x00,0xFF
15.910093375000001,22,0x7E,0xFF
15.910207500000000,22,0x91,0xFF
15.912048062500000,23,0x00,0x12
15.912148125000000,23,0x00,0x02
15.912239562500000,23,0x00,0x5C
15.912330624999999,23,0x00,0x58
15.912437312500000,23,0x00,0xFF
15.912534062500001,23,0x55,0xFF
15.912630812500000,23,0x0E,0xFF
15.912728562500000,23,0x00,0xFF
15.912825249999999,23,0x00,0xFF
15.912922687500000,23,0x14,0xFF
15.913020062499999,23,0x00,0xFF
15.913117437500000,23,0x00,0xFF
15.913214875000000,23,0x00,0xFF
15.913312250000001,23,0x00,0xFF
15.913409687500000,23,0x0A,0xFF
15.913507062500001,23,0x01,0xFF
15.913604437500000,23,0x10,0xFF
15.913701874999999,23,0x03,0xFF
15.913799250000000,23,0x00,0xFF
15.913895687500000,23,0x5E,0xFF
15.913992750000000,23,0x59,0xFF
15.915418062500001,24,0x00,0x0F
15.915509437500001,24,0x00,0x0C
15.915600500000000,24,0x00,0x11
15.915692249999999,24,0x00,0x00
15.915783625000000,24,0x00,0x00
15.915875375000001,24,0x00,0x00
15.915966750000001,24,0x00,0x00
15.916058124999999,24,0x00,0x0A
15.916149875000000,24,0x00,0x01
15.916240937500000,24,0x00,0x10
15.916332687500001,24,0x00,0x03
15.917426437500000,24,0x00,0x00
15.917517500000001,24,0x00,0x2A
15.917608875000001,24,0x00,0xB9
15.917715625000000,24,0x00,0xFF
15.917812375000000,24,0x55,0xFF
15.917909750000000,24,0x04,0xFF
15.918007500000000,24,0x00,0xFF
15.918104187499999,24,0x00,0xFF
15.918200937500000,24,0x7E,0xFF
15.918315000000000,24,0x91,0xFF
15.919698312500000,25,0x00,0x02
15.919789687500000,25,0x00,0x10
15.919880750000001,25,0x00,0x01
15.919972187500001,25,0x00,0x07
15.920063562499999,25,0x00,0x02
15.920155312500000,25,0x00,0x00
15.920246687500001,25,0x00,0x00
15.920338062500001,25,0x00,0x00
15.920429812500000,25,0x00,0x00
15.920521187500000,25,0x00,0x00
15.920612937500000,25,0x00,0x00
15.920704312500000,25,0x00,0x00
15.920796062499999,25,0x00,0x00
15.920887125000000,25,0x00,0x00
15.920978500000000,25,0x00,0x01
15.921069937500000,25,0x00,0x00
15.921161312500001,25,0x00,0x5B
15.921252687499999,25,0x00,0xE0
15.921359437500000,25,0x00,0xFF
15.921456187500000,25,0x55,0xFF
15.921552875000000,25,0x04,0xFF
15.921650625000000,25,0x00,0xFF
15.921747375000001,25,0x00,0xFF
15.921844125000000,25,0x7E,0xFF
15.921958187500000,25,0x91,0xFF
19.891064437499999,26,0x00,0x07
19.891155812499999,26,0x00,0x02
19.891246875000000,26,0x00,0xDA
19.891338312500000,26,0x00,0xA4
19.891445000000001,26,0x00,0xFF
19.891541749999998,26,0x55,0xFF
19.891638499999999,26,0x0B,0xFF
19.892738562500000,26,0x00,0xFF
19.892835312500001,26,0x00,0xFF
19.892933062499999,26,0x20,0xFF
19.893030437499998,26,0x00,0xFF
19.893127812500001,26,0x00,0xFF
19.893225250000000,26,0x00,0xFF
19.893322312500000,26,0x03,0xFF
19.893419687500000,26,0x00,0xFF
19.893517124999999,26,0x00,0xFF
19.893613500000001,26,0xCB,0xFF
19.893710562500001,26,0x80,0xFF
19.895200249999998,27,0x00,0x10
19.895291624999999,27,0x00,0x06
19.895382687500000,27,0x00,0x20
19.895474437499999,27,0x00,0x00
19.895565812499999,27,0x00,0x00
19.895657562499999,27,0x00,0x00
19.895748625000000,27,0x00,0x5F
19.895840000000000,27,0x00,0xEE
19.895946750000000,27,0x00,0xFF
19.896043500000001,27,0x55,0xFF
19.896140249999998,27,0x04,0xFF
19.896237937500000,27,0x00,0xFF
19.896335062500000,27,0x00,0xFF
19.896431437499999,27,0x7E,0xFF
19.896545812500001,27,0x91,0xFF
19.898386437500001,28,0x00,0x12
19.898477812500001,28,0x00,0x02
19.898569250000001,28,0x00,0x5C
19.898660312499999,28,0x00,0x58
19.898766999999999,28,0x00,0xFF
19.898863750000000,28,0x55,0xFF
19.898960500000001,28,0x0E,0xFF
19.899058562499999,28,0x00,0xFF
19.899155312500000,28,0x00,0xFF
19.899252687499999,28,0x11,0xFF
19.899350062500002,28,0x00,0xFF
19.899447500000001,28,0x00,0xFF
19.899544875000000,28,0x00,0xFF
19.899642312499999,28,0x00,0xFF
19.899739687499999,28,0x0A,0xFF
19.899837062500001,28,0x01,0xFF
19.899934500000001,28,0x10,0xFF
19.900031875000000,28,0x03,0xFF
19.900129312499999,28,0x00,0xFF
19.900225687500001,28,0x2E,0xFF
19.900322750000001,28,0x9B,0xFF
19.902749437499999,29,0x00,0x0F
19.902840812499999,29,0x00,0x0C
19.902932562499998,29,0x00,0x0E
19.903023937499999,29,0x00,0x00
19.903115312499999,29,0x00,0x00
19.903206749999999,29,0x00,0x00
19.903298124999999,29,0x00,0x00
19.903398500000002,29,0x00,0x0A
19.903489937500002,29,0x00,0x01
19.903581312499998,29,0x00,0x10
19.903681750000001,29,0x00,0x03
19.903773125000001,29,0x00,0x00
19.903864875000000,29,0x00,0x0D
19.903956250000000,29,0x00,0x7B
19.904063000000001,29,0x00,0xFF
19.904159687500002,29,0x55,0xFF
19.904256437499999,29,0x04,0xFF
19.904354187500001,29,0x00,0xFF
19.904451250000001,29,0x00,0xFF
19.904547624999999,29,0x7E,0xFF
19.904662062500002,29,0x91,0xFF
19.905998000000000,30,0x00,0x02
19.906089375000001,30,0x00,0x10
19.906181125000000,30,0x00,0x01
19.906272500000000,30,0x00,0x07
19.906364249999999,30,0x00,0x02
19.906455625000000,30,0x00,0x00
19.906547000000000,30,0x00,0x00
