Time [s],Packet ID,MOSI,MISO
2.631836187500000,0,0x00,0x01
2.631927562500000,0,0x00,0x02
2.632018937500000,0,0x00,0x7C
2.632110000000000,0,0x00,0x0E
2.632216750000000,0,0x00,0xFF
2.632313500000000,0,0x55,0xFF
2.632410250000000,0,0x04,0xFF
2.632507937500000,0,0x00,0xFF
2.632604687500000,0,0x00,0xFF
2.632701437500000,0,0x7E,0xFF
2.632815500000000,0,0x91,0xFF
3.935724500000000,1,0x00,0x07
3.935815875000000,1,0x00,0x02
3.935907625000000,1,0x00,0xDA
3.935998687500000,1,0x00,0xA4
3.936105437500000,1,0x00,0xFF
3.936202125000000,1,0x55,0xFF
3.936298875000000,1,0x0B,0xFF
3.936396625000000,1,0x00,0xFF
3.936493375000000,1,0x00,0xFF
3.936590750000000,1,0x10,0xFF
3.936688125000000,1,0x00,0xFF
3.936785562500000,1,0x00,0xFF
3.936882937500000,1,0x00,0xFF
3.936980375000000,1,0x03,0xFF
3.937077750000000,1,0x00,0xFF
3.937174500000000,1,0x00,0xFF
3.937271187500000,1,0x46,0xFF
3.937368312500000,1,0xD9,0xFF
3.938826625000000,2,0x00,0x10
3.938918000000000,2,0x00,0x06
3.939009750000000,2,0x00,0x10
3.939101125000000,2,0x00,0x00
3.939192875000000,2,0x00,0x00
3.939283937500000,2,0x00,0x00
3.939375312500000,2,0x00,0xB6
3.939466750000000,2,0x00,0xC2
3.939573437500000,2,0x00,0xFF
3.939670187500000,2,0x55,0xFF
3.939767625000000,2,0x04,0xFF
3.939865312500000,2,0x00,0xFF
3.939962062500000,2,0x00,0xFF
3.940058812500000,2,0x7E,0xFF
3.940172875000000,2,0x91,0xFF
3.943017187500000,3,0x00,0x10
3.943108562500000,3,0x00,0x06
3.943200312500000,3,0x00,0xFF
3.943291687500000,3,0x00,0x0F
3.943383062500000,3,0x00,0x00
3.943474812500000,3,0x00,0x00
3.943566187500000,3,0x00,0x83
3.943657625000000,3,0x00,0xBE
3.943764312500000,3,0x00,0xFF
3.943861062500000,3,0x55,0xFF
3.943957500000000,3,0x04,0xFF
3.944055187500000,3,0x00,0xFF
3.944151937500000,3,0x00,0xFF
3.944248687500000,3,0x7E,0xFF
3.944362750000000,3,0x91,0xFF
3.945834125000000,4,0x00,0x0C
3.945925500000000,4,0x00,0x13
3.946016875000000,4,0x00,0x01
3.946107937500000,4,0x00,0x00
3.946199375000000,4,0x00,0x00
3.946291062500000,4,0x00,0x00
3.946391500000000,4,0x00,0x00
3.946482875000000,4,0x00,0x00
3.946574250000000,4,0x00,0x00
3.946666000000000,4,0x00,0x00
3.946757062500000,4,0x00,0x00
3.946848437500000,4,0x00,0x00
3.946940187500000,4,0x00,0x00
3.947031250000000,4,0x00,0x00
3.947123000000000,4,0x00,0x00
3.947214375000000,4,0x00,0x00
3.947306125000000,4,0x00,0x00
3.947397500000000,4,0x00,0x00
3.947489250000000,4,0x00,0x00
3.947580312500000,4,0x00,0x2F
3.947671687500000,4,0x00,0x89
3.947778437500000,4,0x00,0xFF
3.947875187500000,4,0x55,0xFF
3.947971875000000,4,0x04,0xFF
3.948069937500000,4,0x00,0xFF
3.948166687500000,4,0x00,0xFF
3.948263437500000,4,0x7E,0xFF
3.948377500000000,4,0x91,0xFF
3.951824562500000,5,0x00,0x12
3.951915937500000,5,0x00,0x02
3.952007687500000,5,0x00,0x5C
3.952098750000000,5,0x00,0x58
3.952205812500000,5,0x00,0xFF
3.952302562500000,5,0x55,0xFF
3.952399250000000,5,0x0E,0xFF
3.952497000000000,5,0x00,0xFF
3.952593750000000,5,0x00,0xFF
3.952691125000000,5,0x1A,0xFF
3.952788562500000,5,0x00,0xFF
3.952885937500000,5,0x00,0xFF
3.952983000000000,5,0x00,0xFF
3.953080375000000,5,0x00,0xFF
3.953177812500000,5,0x14,0xFF
3.953275187500000,5,0x01,0xFF
3.953372625000000,5,0x04,0xFF
3.953470000000000,5,0x03,0xFF
3.953567375000000,5,0x00,0xFF
3.953663812500000,5,0xFB,0xFF
3.953760875000000,5,0x34,0xFF
3.955187875000000,6,0x00,0x0F
3.955279250000000,6,0x00,0x0C
3.955370312500000,6,0x00,0x1A
3.955462062500000,6,0x00,0x00
3.955553437500000,6,0x00,0x00
3.955645187500000,6,0x00,0x00
3.955736562500000,6,0x00,0x00
3.955828312500000,6,0x00,0x0A
3.955928375000000,6,0x00,0x01
3.956020062500000,6,0x00,0x10
3.956111125000000,6,0x00,0x03
3.956202875000000,6,0x00,0x00
3.956293937500000,6,0x00,0xAE
3.956385312500000,6,0x00,0x42
3.956492062500000,6,0x00,0xFF
3.956588812500000,6,0x55,0xFF
3.956685875000000,6,0x04,0xFF
3.956783625000000,6,0x00,0xFF
3.956880375000000,6,0x00,0xFF
3.956977062500000,6,0x7E,0xFF
3.957091187500000,6,0x91,0xFF
3.958427062500000,7,0x00,0x02
3.958518500000000,7,0x00,0x10
3.958609875000000,7,0x00,0x01
3.958701250000000,7,0x00,0x07
3.958792687500000,7,0x00,0x02
3.958884062500000,7,0x00,0x00
3.958975437500000,7,0x00,0x00
3.959067187500000,7,0x00,0x00
3.959158250000000,7,0x00,0x00
3.959249625000000,7,0x00,0x00
3.959341375000000,7,0x00,0x00
3.959432437500000,7,0x00,0x00
3.959524187500000,7,0x00,0x00
3.959615562500000,7,0x00,0x00
3.959706937500000,7,0x00,0x01
3.959798375000000,7,0x00,0x00
3.959889750000000,7,0x00,0x5B
3.959981125000000,7,0x00,0xE0
3.960087875000000,7,0x00,0xFF
3.960184625000000,7,0x55,0xFF
3.960281375000000,7,0x04,0xFF
3.960379062500000,7,0x00,0xFF
3.960475812500000,7,0x00,0xFF
3.961571875000000,7,0x7E,0xFF
3.961686000000000,7,0x91,0xFF
7.931561062500000,8,0x00,0x07
7.931652437500000,8,0x00,0x02
7.931743875000000,8,0x00,0xDA
7.931835250000000,8,0x00,0xA4
7.931942000000000,8,0x00,0xFF
7.932038750000000,8,0x55,0xFF
7.932135437500000,8,0x0B,0xFF
7.932233500000000,8,0x00,0xFF
7.932330250000000,8,0x00,0xFF
7.932427687500000,8,0x20,0xFF
7.932525062500000,8,0x00,0xFF
7.932622437500000,8,0x00,0xFF
7.932719875000000,8,0x00,0xFF
7.932817250000000,8,0x03,0xFF
7.932914687500000,8,0x00,0xFF
7.933012062500000,8,0x00,0xFF
7.933108437500000,8,0xCB,0xFF
7.933205500000000,8,0x80,0xFF
7.934694187500000,9,0x00,0x10
7.934785625000000,9,0x00,0x06
7.934877312500000,9,0x00,0x20
7.934968750000000,9,0x00,0x00
7.935060437500000,9,0x00,0x00
7.935151875000000,9,0x00,0x00
7.935243562500000,9,0x00,0x5F
7.935334625000000,9,0x00,0xEE
7.935441375000000,9,0x00,0xFF
7.935538125000000,9,0x55,0xFF
7.935635187500000,9,0x04,0xFF
7.935732937500000,9,0x00,0xFF
7.936832375000000,9,0x00,0xFF
7.936928750000000,9,0x7E,0xFF
7.937043187500000,9,0x91,0xFF
7.938883750000000,10,0x00,0x12
7.938975125000000,10,0x00,0x02
7.939066875000000,10,0x00,0x5C
7.939157937500000,10,0x00,0x58
7.939265000000000,10,0x00,0xFF
7.939361750000000,10,0x55,0xFF
7.939458812500000,10,0x0E,0xFF
7.939556562500000,10,0x00,0xFF
7.939653312500000,10,0x00,0xFF
7.939750687500000,10,0x1A,0xFF
7.939848062500000,10,0x00,0xFF
7.939944500000000,10,0x00,0xFF
7.940041875000000,10,0x00,0xFF
7.940138937500000,10,0x00,0xFF
7.940236375000000,10,0x0A,0xFF
7.940333750000000,10,0x01,0xFF
7.940430812500000,10,0x10,0xFF
7.940528187500000,10,0x03,0xFF
7.940625625000000,10,0x00,0xFF
7.940722000000000,10,0xAA,0xFF
7.940819062500000,10,0x60,0xFF
7.942245062500000,11,0x00,0x0F
7.942336437500000,11,0x00,0x0C
7.942428187500000,11,0x00,0x17
7.942519562500000,11,0x00,0x00
7.942698062500000,11,0x00,0x00
7.942789750000000,11,0x00,0x00
7.942880812500000,11,0x00,0x00
7.942972562500000,11,0x00,0x0A
7.943063937500000,11,0x00,0x01
7.943155687500000,11,0x00,0x10
7.943246750000000,11,0x00,0x03
7.943338125000000,11,0x00,0x00
7.943429875000000,11,0x00,0x95
7.943520937500000,11,0x00,0xCA
7.943627687500000,11,0x00,0xFF
7.943724437500000,11,0x55,0xFF
7.943821125000000,11,0x04,0xFF
7.943918875000000,11,0x00,0xFF
7.944015625000000,11,0x00,0xFF
7.944112375000000,11,0x7E,0xFF
7.944226437500000,11,0x91,0xFF
7.945562312500000,12,0x00,0x02
7.945653750000000,12,0x00,0x10
7.945744812500000,12,0x00,0x01
7.946838875000000,12,0x00,0x07
7.946930250000000,12,0x00,0x02
7.947021687500000,12,0x00,0x00
7.947113375000000,12,0x00,0x00
7.947204812500000,12,0x00,0x00
7.947296187500000,12,0x00,0x00
7.947387562500000,12,0x00,0x00
7.947479312500000,12,0x00,0x00
7.947570687500000,12,0x00,0x00
7.947662125000000,12,0x00,0x00
7.947753500000000,12,0x00,0x00
7.947844875000000,12,0x00,0x01
7.947936625000000,12,0x00,0x00
7.948028000000000,12,0x00,0x5B
7.948119437500000,12,0x00,0xE0
7.948226187500000,12,0x00,0xFF
7.948322562500000,12,0x55,0xFF
7.948419312500000,12,0x04,0xFF
7.948517687500000,12,0x00,0xFF
7.948614437500000,12,0x00,0xFF
7.948711187500000,12,0x7E,0xFF
7.948825250000000,12,0x91,0xFF
9.934393312499999,13,0x00,0x07
9.934484749999999,13,0x00,0x02
9.934576437500001,13,0x00,0xDA
9.934676500000000,13,0x00,0xA4
9.934783250000001,13,0x00,0xFF
9.934880000000000,13,0x55,0xFF
9.935003437500001,13,0x0B,0xFF
9.935101124999999,13,0x00,0xFF
9.935197875000000,13,0x00,0xFF
9.935295312499999,13,0x01,0xFF
9.935392374999999,13,0x00,0xFF
9.935489437499999,13,0x00,0xFF
9.935586125000000,13,0x00,0xFF
9.935683562500000,13,0x03,0xFF
9.935780937500001,13,0x00,0xFF
9.935878375000000,13,0x00,0xFF
9.936001437500000,13,0x5C,0xFF
9.936098500000000,13,0x56,0xFF
9.937569187499999,14,0x00,0x10
9.937660562500000,14,0x00,0x06
9.937752312500001,14,0x00,0x01
9.937852687500000,14,0x00,0x00
9.937961749999999,14,0x00,0x00
9.938053187500000,14,0x00,0x00
9.938144562500000,14,0x00,0xA5
9.938235937500000,14,0x00,0xAF
9.938342687500000,14,0x00,0xFF
9.938439437500000,14,0x55,0xFF
9.939538875000000,14,0x04,0xFF
9.939636625000000,14,0x00,0xFF
9.939733312500000,14,0x00,0xFF
9.939830375000000,14,0x7E,0xFF
9.939944499999999,14,0x91,0xFF
9.941510562500000,15,0x00,0x08
9.941601937500000,15,0x00,0x03
9.941693000000001,15,0x00,0x00
9.941784374999999,15,0x00,0x6E
9.941875812499999,15,0x00,0x30
9.941991187499999,15,0x00,0xFF
9.942087937500000,15,0x55,0xFF
9.942184687499999,15,0x2C,0xFF
9.942282437499999,15,0x00,0xFF
9.942379125000000,15,0x00,0xFF
9.942476562500000,15,0x00,0xFF
9.942573937500001,15,0x00,0xFF
9.942671312500000,15,0x00,0xFF
9.942768750000001,15,0x00,0xFF
9.942866125000000,15,0x00,0xFF
9.942971562500000,15,0x02,0xFF
9.943068937500000,15,0xFF,0xFF
9.943166375000001,15,0xFF,0xFF
9.943263750000000,15,0xFF,0xFF
9.943361124999999,15,0xFF,0xFF
9.943458562500000,15,0xFF,0xFF
9.943555625000000,15,0xFF,0xFF
9.943652999999999,15,0xFF,0xFF
9.943750437500000,15,0xFF,0xFF
9.943847812500000,15,0x41,0xFF
9.943945187500001,15,0x00,0xFF
9.944041937500000,15,0x00,0xFF
9.944139375000001,15,0x00,0xFF
9.944236750000000,15,0x00,0xFF
9.944334124999999,15,0x00,0xFF
9.944431562500000,15,0x00,0xFF
9.944528937499999,15,0x00,0xFF
9.944626000000000,15,0x00,0xFF
9.944723437500000,15,0x05,0xFF
9.944820812500000,15,0x68,0xFF
9.944918187500001,15,0x0F,0xFF
9.945032625000000,15,0x08,0xFF
9.945130000000001,15,0x46,0xFF
9.945227437500000,15,0xF7,0xFF
9.945324500000000,15,0x23,0xFF
9.945421874999999,15,0x00,0xFF
9.945519312500000,15,0x85,0xFF
9.945615999999999,15,0x08,0xFF
9.945713437500000,15,0x46,0xFF
9.945810812500000,15,0x68,0xFF
9.945908250000000,15,0x0F,0xFF
9.946022312500000,15,0x05,0xFF
9.946119687500000,15,0x17,0xFF
9.946217125000000,15,0x00,0xFF
9.946314500000000,15,0x6A,0xFF
9.946410937500000,15,0x75,0xFF
9.946508000000000,15,0x4D,0xFF
11.918302625000001,16,0x00,0x07
11.918394062500001,16,0x00,0x02
11.918485437499999,16,0x00,0xDA
11.918576500000000,16,0x00,0xA4
11.918683562500000,16,0x00,0xFF
11.918780312499999,16,0x55,0xFF
11.918877374999999,16,0x0B,0xFF
11.918975124999999,16,0x00,0xFF
11.919071812500000,16,0x00,0xFF
11.919169249999999,16,0x20,0xFF
11.919266625000001,16,0x00,0xFF
11.919364062500000,16,0x00,0xFF
11.919461437500001,16,0x00,0xFF
11.919558812500000,16,0x03,0xFF
11.919656249999999,16,0x00,0xFF
11.919753625000000,16,0x00,0xFF
11.919850374999999,16,0xCB,0xFF
11.919947437499999,16,0x80,0xFF
11.922438124999999,17,0x00,0x10
11.922529562499999,17,0x00,0x06
11.922621250000001,17,0x00,0x20
11.922712312500000,17,0x00,0x00
11.922804062499999,17,0x00,0x00
11.922895125000000,17,0x00,0x00
11.922986874999999,17,0x00,0x5F
11.923077937500000,17,0x00,0xEE
11.923184624999999,17,0x00,0xFF
11.923281375000000,17,0x55,0xFF
11.923378437500000,17,0x04,0xFF
11.923476187500000,17,0x00,0xFF
11.923572937499999,17,0x00,0xFF
11.923669625000000,17,0x7E,0xFF
11.923783750000000,17,0x91,0xFF
11.925624312500000,18,0x00,0x12
11.925715750000000,18,0x00,0x02
11.925807125000000,18,0x00,0x5C
11.925898187500000,18,0x00,0x58
11.926004937500000,18,0x00,0xFF
11.926101624999999,18,0x55,0xFF
11.926198749999999,18,0x0E,0xFF
11.926296812500000,18,0x00,0xFF
11.926393500000000,18,0x00,0xFF
11.926490937500001,18,0x17,0xFF
11.926588312500000,18,0x00,0xFF
11.926685750000001,18,0x00,0xFF
11.926782812500001,18,0x00,0xFF
11.926880187500000,18,0x00,0xFF
11.926977562499999,18,0x0A,0xFF
11.927075000000000,18,0x01,0xFF
11.927172062500000,18,0x10,0xFF
11.927269437500000,18,0x03,0xFF
11.927366875000001,18,0x00,0xFF
11.927463250000001,18,0x91,0xFF
11.927560312500001,18,0xE8,0xFF
11.928985937500000,19,0x00,0x0F
11.929077375000000,19,0x00,0x0C
11.929169062500000,19,0x00,0x14
11.929260125000001,19,0x00,0x00
11.929351562500001,19,0x00,0x00
11.929442937499999,19,0x00,0x00
11.929534312500000,19,0x00,0x00
11.929625750000000,19,0x00,0x0A
11.929717125000000,19,0x00,0x01
11.929808500000000,19,0x00,0x10
11.929900249999999,19,0x00,0x03
11.929991312500000,19,0x00,0x00
11.930082687500001,19,0x00,0x5A
11.930174125000001,19,0x00,0x7B
11.930280874999999,19,0x00,0xFF
11.930377562500000,19,0x55,0xFF
11.930474312499999,19,0x04,0xFF
11.930572375000001,19,0x00,0xFF
11.930669125000000,19,0x00,0xFF
11.930765875000001,19,0x7E,0xFF
11.930879937500000,19,0x91,0xFF
11.933217500000000,20,0x00,0x02
11.933308937500000,20,0x00,0x10
11.933400625000001,20,0x00,0x01
11.933492062499999,20,0x00,0x07
11.933583750000000,20,0x00,0x02
11.933675187500000,20,0x00,0x00
11.933766250000000,20,0x00,0x00
11.933857937499999,20,0x00,0x00
11.933949374999999,20,0x00,0x00
11.934040749999999,20,0x00,0x00
11.934132500000000,20,0x00,0x00
11.934223875000001,20,0x00,0x00
11.934315625000000,20,0x00,0x00
11.934406687499999,20,0x00,0x00
11.934498062499999,20,0x00,0x01
11.934598500000000,20,0x00,0x00
11.934689875000000,20,0x00,0x5B
11.934781250000000,20,0x00,0xE0
11.934888000000001,20,0x00,0xFF
11.934984750000000,20,0x55,0xFF
11.935081500000001,20,0x04,0xFF
11.935179562500000,20,0x00,0xFF
11.935276249999999,20,0x00,0xFF
11.935373000000000,20,0x7E,0xFF
11.935487062500000,20,0x91,0xFF
15.904726374999999,21,0x00,0x07
15.904817812499999,21,0x00,0x02
15.904909187499999,21,0x00,0xDA
15.905000250000001,21,0x00,0xA4
15.905106999999999,21,0x00,0xFF
15.905203687500000,21,0x55,0xFF
15.905300812500000,21,0x0B,0xFF
15.905399187500000,21,0x00,0xFF
15.905495937500000,21,0x00,0xFF
15.905592625000001,21,0x20,0xFF
15.905690062500000,21,0x00,0xFF
15.905787437500001,21,0x00,0xFF
15.905884875000000,21,0x00,0xFF
15.905982249999999,21,0x03,0xFF
15.906079625000000,21,0x00,0xFF
15.906177062499999,21,0x00,0xFF
15.906273437499999,21,0xCB,0xFF
15.906370500000000,21,0x80,0xFF
15.908862250000000,22,0x00,0x10
15.908953625000001,22,0x00,0x06
15.909045000000001,22,0x00,0x20
15.909136437500001,22,0x00,0x00
15.909227812499999,22,0x00,0x00
15.909319187500000,22,0x00,0x00
15.909410937500001,22,0x00,0x5F
15.909502000000000,22,0x00,0xEE
15.909608750000000,22,0x00,0xFF
15.909705437500000,22,0x55,0xFF
15.909802187500000,22,0x04,0xFF
15.909899937500001,22,0x00,0xFF
15.909996687500000,22,0x00,0xFF
15.910093375000001,22,0x7E,0xFF
15.910207500000000,22,0x91,0xFF
15.912048062500000,23,0x00,0x12
15.912148125000000,23,0x00,0x02
15.912239562500000,23,0x00,0x5C
15.912330624999999,23,0x00,0x58
15.912437312500000,23,0x00,0xFF
15.912534062500001,23,0x55,0xFF
15.912630812500000,23,0x0E,0xFF
15.912728562500000,23,0x00,0xFF
15.912825249999999,23,0x00,0xFF
15.912922687500000,23,0x14,0xFF
15.913020062499999,23,0x00,0xFF
15.913117437500000,23,0x00,0xFF
15.913214875000000,23,0x00,0xFF
15.913312250000001,23,0x00,0xFF
15.913409687500000,23,0x0A,0xFF
15.913507062500001,23,0x01,0xFF
15.913604437500000,23,0x10,0xFF
15.913701874999999,23,0x03,0xFF
15.913799250000000,23,0x00,0xFF
15.913895687500000,23,0x5E,0xFF
15.913992750000000,23,0x59,0xFF
15.915418062500001,24,0x00,0x0F
15.915509437500001,24,0x00,0x0C
15.915600500000000,24,0x00,0x11
15.915692249999999,24,0x00,0x00
15.915783625000000,24,0x00,0x00
15.915875375000001,24,0x00,0x00
15.915966750000001,24,0x00,0x00
15.916058124999999,24,0x00,0x0A
15.916149875000000,24,0x00,0x01
15.916240937500000,24,0x00,0x10
15.916332687500001,24,0x00,0x03
15.917426437500000,24,0x00,0x00
15.917517500000001,24,0x00,0x2A
15.917608875000001,24,0x00,0xB9
15.917715625000000,24,0x00,0xFF
15.917812375000000,24,0x55,0xFF
15.917909750000000,24,0x04,0xFF
15.918007500000000,24,0x00,0xFF
15.918104187499999,24,0x00,0xFF
15.918200937500000,24,0x7E,0xFF
15.918315000000000,24,0x91,0xFF
15.919698312500000,25,0x00,0x02
15.919789687500000,25,0x00,0x10
15.919880750000001,25,0x00,0x01
15.919972187500001,25,0x00,0x07
15.920063562499999,25,0x00,0x02
15.920155312500000,25,0x00,0x00
15.920246687500001,25,0x00,0x00
15.920338062500001,25,0x00,0x00
15.920429812500000,25,0x00,0x00
15.920521187500000,25,0x00,0x00
15.920612937500000,25,0x00,0x00
15.920704312500000,25,0x00,0x00
15.920796062499999,25,0x00,0x00
15.920887125000000,25,0x00,0x00
15.920978500000000,25,0x00,0x01
15.921069937500000,25,0x00,0x00
15.921161312500001,25,0x00,0x5B
15.921252687499999,25,0x00,0xE0
15.921359437500000,25,0x00,0xFF
15.921456187500000,25,0x55,0xFF
15.921552875000000,25,0x04,0xFF
15.921650625000000,25,0x00,0xFF
15.921747375000001,25,0x00,0xFF
15.921844125000000,25,0x7E,0xFF
15.921958187500000,25,0x91,0xFF
19.891064437499999,26,0x00,0x07
19.891155812499999,26,0x00,0x02
19.891246875000000,26,0x00,0xDA
19.891338312500000,26,0x00,0xA4
19.891445000000001,26,0x00,0xFF
19.891541749999998,26,0x55,0xFF
19.891638499999999,26,0x0B,0xFF
19.892738562500000,26,0x00,0xFF
19.892835312500001,26,0x00,0xFF
19.892933062499999,26,0x20,0xFF
19.893030437499998,26,0x00,0xFF
19.893127812500001,26,0x00,0xFF
19.893225250000000,26,0x00,0xFF
19.893322312500000,26,0x03,0xFF
19.893419687500000,26,0x00,0xFF
19.893517124999999,26,0x00,0xFF
19.893613500000001,26,0xCB,0xFF
19.893710562500001,26,0x80,0xFF
19.895200249999998,27,0x00,0x10
19.895291624999999,27,0x00,0x06
19.895382687500000,27,0x00,0x20
19.895474437499999,27,0x00,0x00
19.895565812499999,27,0x00,0x00
19.895657562499999,27,0x00,0x00
19.895748625000000,27,0x00,0x5F
19.895840000000000,27,0x00,0xEE
19.895946750000000,27,0x00,0xFF
19.896043500000001,27,0x55,0xFF
19.896140249999998,27,0x04,0xFF
19.896237937500000,27,0x00,0xFF
19.896335062500000,27,0x00,0xFF
19.896431437499999,27,0x7E,0xFF
19.896545812500001,27,0x91,0xFF
19.898386437500001,28,0x00,0x12
19.898477812500001,28,0x00,0x02
19.898569250000001,28,0x00,0x5C
19.898660312499999,28,0x00,0x58
19.898766999999999,28,0x00,0xFF
19.898863750000000,28,0x55,0xFF
19.898960500000001,28,0x0E,0xFF
19.899058562499999,28,0x00,0xFF
19.899155312500000,28,0x00,0xFF
19.899252687499999,28,0x11,0xFF
19.899350062500002,28,0x00,0xFF
19.899447500000001,28,0x00,0xFF
19.899544875000000,28,0x00,0xFF
19.899642312499999,28,0x00,0xFF
19.899739687499999,28,0x0A,0xFF
19.899837062500001,28,0x01,0xFF
19.899934500000001,28,0x10,0xFF
19.900031875000000,28,0x03,0xFF
19.900129312499999,28,0x00,0xFF
19.900225687500001,28,0x2E,0xFF
19.900322750000001,28,0x9B,0xFF
19.902749437499999,29,0x00,0x0F
19.902840812499999,29,0x00,0x0C
19.902932562499998,29,0x00,0x0E
19.903023937499999,29,0x00,0x00
19.903115312499999,29,0x00,0x00
19.903206749999999,29,0x00,0x00
19.903298124999999,29,0x00,0x00
19.903398500000002,29,0x00,0x0A
19.903489937500002,29,0x00,0x01
19.903581312499998,29,0x00,0x10
19.903681750000001,29,0x00,0x03
19.903773125000001,29,0x00,0x00
19.903864875000000,29,0x00,0x0D
19.903956250000000,29,0x00,0x7B
19.904063000000001,29,0x00,0xFF
19.904159687500002,29,0x55,0xFF
19.904256437499999,29,0x04,0xFF
19.904354187500001,29,0x00,0xFF
19.904451250000001,29,0x00,0xFF
19.904547624999999,29,0x7E,0xFF
19.904662062500002,29,0x91,0xFF
19.905998000000000,30,0x00,0x02
19.906089375000001,30,0x00,0x10
19.906181125000000,30,0x00,0x01
19.906272500000000,30,0x00,0x07
19.906364249999999,30,0x00,0x02
19.906455625000000,30,0x00,0x00
19.906547000000000,30,0x00,0x00
19.906638749999999,30,0x00,0x00
19.906730124999999,30,0x00,0x00
19.906821874999999,30,0x00,0x00
19.906912937500000,30,0x00,0x00
19.907004687499999,30,0x00,0x00
19.907096062499999,30,0x00,0x00
19.907187437499999,30,0x00,0x00
19.907278874999999,30,0x00,0x01
19.907370250000000,30,0x00,0x00
19.907461999999999,30,0x00,0x5B
19.907553062500000,30,0x00,0xE0
19.907659750000001,30,0x00,0xFF
19.907756500000001,30,0x55,0xFF
19.907853249999999,30,0x04,0xFF
19.907951312500000,30,0x00,0xFF
19.908048375000000,30,0x00,0xFF
19.908144750000002,30,0x7E,0xFF
19.908259187500001,30,0x91,0xFF
23.878584000000000,31,0x00,0x07
23.878675375000000,31,0x00,0x02
23.878767125000000,31,0x00,0xDA
23.878858187500001,31,0x00,0xA4
23.878965250000000,31,0x00,0xFF
23.879062000000001,31,0x55,0xFF
23.879158687499999,31,0x0B,0xFF
23.879256437500000,31,0x00,0xFF
23.879353500000001,31,0x00,0xFF
23.879450875000000,31,0x20,0xFF
23.879548312499999,31,0x00,0xFF
23.879645687499998,31,0x00,0xFF
23.879743125000001,31,0x00,0xFF
23.879840500000000,31,0x03,0xFF
23.879937875000000,31,0x00,0xFF
23.880035312499999,31,0x00,0xFF
23.880131687500000,31,0xCB,0xFF
23.880228750000001,31,0x80,0xFF
23.881718124999999,32,0x00,0x10
23.881809499999999,32,0x00,0x06
23.881900562500000,32,0x00,0x20
23.881992000000000,32,0x00,0x00
23.882083687500000,32,0x00,0x00
23.882174750000001,32,0x00,0x00
23.882266187500001,32,0x00,0x5F
23.882357562500001,32,0x00,0xEE
23.882464312500002,32,0x00,0xFF
23.882560999999999,32,0x55,0xFF
23.882657750000000,32,0x04,0xFF
23.882755499999998,32,0x00,0xFF
23.882852249999999,32,0x00,0xFF
23.882948937500000,32,0x7E,0xFF
23.883063062500000,32,0x91,0xFF
23.886058750000000,33,0x00,0x12
23.886150125000000,33,0x00,0x02
23.886241562500000,33,0x00,0x5C
23.886332625000001,33,0x00,0x58
23.886439687500001,33,0x00,0xFF
23.886536437499998,33,0x55,0xFF
23.886633124999999,33,0x0E,0xFF
23.886730875000001,33,0x00,0xFF
23.886827624999999,33,0x00,0xFF
23.886925000000002,33,0x0E,0xFF
23.887022437500001,33,0x00,0xFF
23.888118500000001,33,0x00,0xFF
23.888215875000000,33,0x00,0xFF
23.888313312499999,33,0x00,0xFF
23.888410687499999,33,0x0A,0xFF
23.888508062500001,33,0x01,0xFF
23.888605500000001,33,0x10,0xFF
23.888702875000000,33,0x03,0xFF
23.888800312499999,33,0x00,0xFF
23.888896687500001,33,0x09,0xFF
23.888993750000001,33,0x59,0xFF
23.890416375000001,34,0x00,0x0F
23.890507812500001,34,0x00,0x0C
23.890598874999998,34,0x00,0x17
23.890690562500001,34,0x00,0x00
23.890781624999999,34,0x00,0x00
23.890873062499999,34,0x00,0x00
23.890964437499999,34,0x00,0x00
23.891055812499999,34,0x00,0x0A
23.891146875000000,34,0x00,0x01
23.891238625000000,34,0x00,0x02
23.891330000000000,34,0x00,0x03
23.891421437500000,34,0x00,0x00
23.891512812500000,34,0x00,0x96
23.891604187500000,34,0x00,0xE7
23.891710937500001,34,0x00,0xFF
23.891807687499998,34,0x55,0xFF
23.891904437499999,34,0x04,0xFF
23.892002125000001,34,0x00,0xFF
23.892098874999999,34,0x00,0xFF
23.892195624999999,34,0x7E,0xFF
23.892309687499999,34,0x91,0xFF
23.893788000000001,35,0x00,0x03
23.893879437500001,35,0x00,0x1C
23.893971125000000,35,0x00,0x01
23.894062187500001,35,0x00,0x17
23.894153625000001,35,0x00,0xFF
23.894245312500001,35,0x00,0xFF
23.894345437500000,35,0x00,0x00
23.894436812500000,35,0x00,0x07
23.894528562500000,35,0x00,0x07
23.894619937500000,35,0x00,0x00
23.894711312500000,35,0x00,0x00
23.894803062499999,35,0x00,0x00
23.894894125000000,35,0x00,0x23
23.894985500000001,35,0x00,0x10
23.895076937500001,35,0x00,0x11
23.895168312500001,35,0x00,0x82
23.895259687500001,35,0x00,0x06
23.895351125000001,35,0x00,0xF7
23.895442812500001,35,0x00,0x23
23.895534250000001,35,0x00,0x00
23.895625312500002,35,0x00,0x05
23.895716687499998,35,0x00,0x68
23.895808062499999,35,0x00,0x0F
23.895899812500002,35,0x00,0x08
23.895991187500002,35,0x00,0x46
23.896082937500001,35,0x00,0xF7
23.896173999999998,35,0x00,0x23
23.896265750000001,35,0x00,0x00
23.896357125000002,35,0x00,0x5E
23.896448500000002,35,0x00,0x41
23.896555249999999,35,0x00,0xFF
23.896652000000000,35,0x55,0xFF
23.896749062500000,35,0x04,0xFF
23.896846812500002,35,0x00,0xFF
23.896943499999999,35,0x00,0xFF
23.897040250000000,35,0x7E,0xFF
23.898136312500000,35,0x91,0xFF
26.823197875000002,36,0x00,0x07
26.823289312499998,36,0x00,0x02
26.823380687499998,36,0x00,0xDA
26.823471750000000,36,0x00,0xA4
26.823578812499999,36,0x00,0xFF
26.823675562500000,36,0x55,0xFF
26.823772312500001,36,0x0B,0xFF
26.823869999999999,36,0x00,0xFF
26.823966750000000,36,0x00,0xFF
26.824064187499999,36,0x20,0xFF
26.824161562499999,36,0x00,0xFF
26.824258937500002,36,0x00,0xFF
26.824356375000001,36,0x00,0xFF
26.824453437500001,36,0x03,0xFF
26.824550812500000,36,0x00,0xFF
26.824648249999999,36,0x00,0xFF
26.824744625000001,36,0xCB,0xFF
26.824841687500001,36,0x80,0xFF
26.826331062500000,37,0x00,0x10
26.826431437499998,37,0x00,0x06
26.826523187500001,37,0x00,0x20
26.826614249999999,37,0x00,0x00
26.826714312499998,37,0x00,0x00
26.826806000000001,37,0x00,0x00
26.826897062499999,37,0x00,0x5F
26.826988499999999,37,0x00,0xEE
26.827095249999999,37,0x00,0xFF
26.827191625000001,37,0x55,0xFF
26.827288374999998,37,0x04,0xFF
26.827386062500000,37,0x00,0xFF
26.827482812500001,37,0x00,0xFF
26.827579562499999,37,0x7E,0xFF
26.827693624999998,37,0x91,0xFF
26.829852750000001,38,0x00,0x12
26.829944187500001,38,0x00,0x02
26.830035875000000,38,0x00,0x5C
26.830126937500001,38,0x00,0x58
26.830234062500001,38,0x00,0xFF
26.830330750000002,38,0x55,0xFF
26.830427499999999,38,0x0E,0xFF
26.830525250000001,38,0x00,0xFF
26.830621937499998,38,0x00,0xFF
26.830719375000001,38,0x17,0xFF
26.830816750000000,38,0x00,0xFF
26.830914187499999,38,0x00,0xFF
26.832013562499998,38,0x00,0xFF
26.832111000000001,38,0x00,0xFF
26.832208375000000,38,0x0A,0xFF
26.832305812500000,38,0x01,0xFF
26.832403187499999,38,0x02,0xFF
26.832500562500002,38,0x03,0xFF
26.832598000000001,38,0x00,0xFF
26.832694687499998,38,0x92,0xFF
26.832791812499998,38,0xC5,0xFF
26.834216750000000,39,0x00,0x0F
26.834308125000000,39,0x00,0x0C
26.834399874999999,39,0x00,0x17
26.834491249999999,39,0x00,0x00
26.834582999999999,39,0x00,0x00
26.834674374999999,39,0x00,0x00
26.834766125000002,39,0x00,0x00
26.834857187499999,39,0x00,0x0A
26.834948937499998,39,0x00,0x01
26.835039999999999,39,0x00,0x02
26.835131375000000,39,0x00,0x03
26.835223124999999,39,0x00,0x00
26.835314499999999,39,0x00,0x96
26.835405874999999,39,0x00,0xE7
26.835512625000000,39,0x00,0xFF
26.835609375000001,39,0x55,0xFF
26.835706125000002,39,0x04,0xFF
26.835804499999998,39,0x00,0xFF
26.835901249999999,39,0x00,0xFF
26.835999000000001,39,0x7E,0xFF
26.836113062500001,39,0x91,0xFF
26.837591374999999,40,0x00,0x03
26.837682812499999,40,0x00,0x1C
26.837774499999998,40,0x00,0x01
26.837865562499999,40,0x00,0x17
26.837956999999999,40,0x00,0xFF
26.838048375000000,40,0x00,0xFF
26.838140124999999,40,0x00,0x00
26.838231187500000,40,0x00,0x07
26.838322562500000,40,0x00,0x07
26.838414312499999,40,0x00,0x00
26.838505375000000,40,0x00,0x00
26.838597062500000,40,0x00,0x00
26.838688125000001,40,0x00,0x23
26.838779875000000,40,0x00,0x10
26.838871250000000,40,0x00,0x11
26.838962312500001,40,0x00,0x82
26.839054062500001,40,0x00,0x06
26.839145125000002,40,0x00,0xF7
26.839236875000001,40,0x00,0x23
26.839327937499998,40,0x00,0x00
26.839419625000001,40,0x00,0x05
26.839511062500002,40,0x00,0x68
26.839602437500002,40,0x00,0x0F
26.839694187500001,40,0x00,0x08
26.839785562500001,40,0x00,0x46
26.839877312500001,40,0x00,0xF7
26.839968687500001,40,0x00,0x23
26.840060062500001,40,0x00,0x00
26.840151812500000,40,0x00,0x5E
26.840242875000001,40,0x00,0x41
26.840349625000002,40,0x00,0xFF
26.840446312499999,40,0x55,0xFF
26.840543062500000,40,0x04,0xFF
26.840640812499998,40,0x00,0xFF
26.840737562499999,40,0x00,0xFF
26.840834250000000,40,0x7E,0xFF
26.840948375000000,40,0x91,0xFF
30.755611312500001,41,0x00,0x07
30.755702750000001,41,0x00,0x02
30.755794125000001,41,0x00,0xDA
30.755885187499999,41,0x00,0xA4
30.755992249999998,41,0x00,0xFF
30.756088999999999,41,0x55,0xFF
30.757187750000000,41,0x0B,0xFF
30.757285812500001,41,0x00,0xFF
30.757382875000001,41,0x00,0xFF
30.757480250000000,41,0x20,0xFF
30.757577000000001,41,0x00,0xFF
30.757674375000001,41,0x00,0xFF
30.757771812500000,41,0x00,0xFF
30.757869187499999,41,0x03,0xFF
30.757966625000002,41,0x00,0xFF
30.758064000000001,41,0x00,0xFF
30.758160374999999,41,0xCB,0xFF
30.758257499999999,41,0x80,0xFF
30.759746812500001,42,0x00,0x10
30.759838187500002,42,0x00,0x06
30.759929249999999,42,0x00,0x20
30.760020687499999,42,0x00,0x00
30.760112374999999,42,0x00,0x00
30.760203437500000,42,0x00,0x00
30.760294875000000,42,0x00,0x5F
30.760386250000000,42,0x00,0xEE
30.760493000000000,42,0x00,0xFF
30.760589750000001,42,0x55,0xFF
30.760686437499999,42,0x04,0xFF
30.760784187500001,42,0x00,0xFF
30.760880937500001,42,0x00,0xFF
30.760977687499999,42,0x7E,0xFF
30.761091749999999,42,0x91,0xFF
30.763250875000001,43,0x00,0x12
30.763342250000001,43,0x00,0x02
30.763434000000000,43,0x00,0x5C
30.763525062500001,43,0x00,0x58
30.763632125000001,43,0x00,0xFF
30.763728875000002,43,0x55,0xFF
30.763825937499998,43,0x0E,0xFF
30.763923687500000,43,0x00,0xFF
30.764020375000001,43,0x00,0xFF
30.764117812500000,43,0x17,0xFF
30.764215187500000,43,0x00,0xFF
30.764312624999999,43,0x00,0xFF
30.764410000000002,43,0x00,0xFF
30.764507375000001,43,0x00,0xFF
30.764604812500000,43,0x0A,0xFF
30.764702187499999,43,0x01,0xFF
30.764799624999998,43,0x02,0xFF
30.764897000000001,43,0x03,0xFF
30.764994375000001,43,0x00,0xFF
30.765090812499999,43,0x92,0xFF
30.765187874999999,43,0xC5,0xFF
30.767615187499999,44,0x00,0x0F
30.767706562499999,44,0x00,0x0C
30.767797625000000,44,0x00,0x17
30.767889374999999,44,0x00,0x00
30.767980750000000,44,0x00,0x00
30.768072187500000,44,0x00,0x00
30.768163874999999,44,0x00,0x00
30.768254937500000,44,0x00,0x0A
30.768346375000000,44,0x00,0x01
30.768438062500000,44,0x00,0x02
30.768529125000001,44,0x00,0x03
30.768620562500001,44,0x00,0x00
30.768712250000000,44,0x00,0x96
30.768803312500001,44,0x00,0xE7
30.768910062500002,44,0x00,0xFF
30.769006812499999,44,0x55,0xFF
30.769103562500000,44,0x04,0xFF
30.769201249999998,44,0x00,0xFF
30.769297999999999,44,0x00,0xFF
30.769394750000000,44,0x7E,0xFF
30.769508812500000,44,0x91,0xFF
30.770987125000001,45,0x00,0x03
30.771078562500001,45,0x00,0x1C
30.771169937500002,45,0x00,0x01
30.771261312499998,45,0x00,0x17
30.771353062500001,45,0x00,0xFF
30.771444124999999,45,0x00,0xFF
30.771535499999999,45,0x00,0x00
30.771627250000002,45,0x00,0x07
30.771718624999998,45,0x00,0x07
30.771810062499998,45,0x00,0x00
30.771901437499999,45,0x00,0x00
30.771992500000000,45,0x00,0x00
30.772084249999999,45,0x00,0x23
30.772175624999999,45,0x00,0x10
30.772267374999998,45,0x00,0x11
30.772358749999999,45,0x00,0x82
30.772450500000001,45,0x00,0x06
30.772541875000002,45,0x00,0xF7
30.772633625000001,45,0x00,0x23
30.772725000000001,45,0x00,0x00
30.772816750000000,45,0x00,0x05
30.772908125000001,45,0x00,0x68
30.772999875000000,45,0x00,0x0F
30.773091250000000,45,0x00,0x08
30.773182625000000,45,0x00,0x46
30.773274375000000,45,0x00,0xF7
30.773365437500001,45,0x00,0x23
30.773456812500001,45,0x00,0x00
30.773548250000001,45,0x00,0x5E
30.773639625000001,45,0x00,0x41
30.773746375000002,45,0x00,0xFF
30.773843124999999,45,0x55,0xFF
30.773939812500000,45,0x04,0xFF
30.774037562499998,45,0x00,0xFF
30.774134312499999,45,0x00,0xFF
30.774231062500000,45,0x7E,0xFF
30.774345125000000,45,0x91,0xFF
34.688795499999998,46,0x00,0x07
34.688886875000001,46,0x00,0x02
34.688977937499999,46,0x00,0xDA
34.689069375000003,46,0x00,0xA4
34.689176062500003,46,0x00,0xFF
34.689272812500000,46,0x55,0xFF
34.689369562499998,46,0x0B,0xFF
34.689467312500000,46,0x00,0xFF
34.689563999999997,46,0x00,0xFF
34.689661437500000,46,0x20,0xFF
34.689758812500003,46,0x00,0xFF
34.689855874999999,46,0x00,0xFF
34.689952937500003,46,0x00,0xFF
34.690050374999998,46,0x03,0xFF
34.690147750000001,46,0x00,0xFF
34.690245187499997,46,0x00,0xFF
34.690341562500002,46,0xCB,0xFF
34.690437937500000,46,0x80,0xFF
34.692929624999998,47,0x00,0x10
34.693021062500002,47,0x00,0x06
34.693112437499998,47,0x00,0x20
34.693203500000003,47,0x00,0x00
34.693295249999998,47,0x00,0x00
34.693386312500003,47,0x00,0x00
34.693477999999999,47,0x00,0x5F
34.693569062500003,47,0x00,0xEE
34.693675812499997,47,0x00,0xFF
34.693772562500001,47,0x55,0xFF
34.693869312499999,47,0x04,0xFF
34.693967000000001,47,0x00,0xFF
34.694063749999998,47,0x00,0xFF
34.694160500000002,47,0x7E,0xFF
34.694274562499999,47,0x91,0xFF
34.696433374999998,48,0x00,0x12
34.696524750000002,48,0x00,0x02
34.696616187499998,48,0x00,0x5C
34.696707250000003,48,0x00,0x58
34.696814000000003,48,0x00,0xFF
34.696910687500001,48,0x55,0xFF
34.697007749999997,48,0x0E,0xFF
34.697106187499998,48,0x00,0xFF
34.697202875000002,48,0x00,0xFF
34.697300312499998,48,0x17,0xFF
34.697397687500001,48,0x00,0xFF
34.697494124999999,48,0x00,0xFF
34.697591500000001,48,0x00,0xFF
34.697688874999997,48,0x00,0xFF
34.697786312500000,48,0x0A,0xFF
34.697883687500003,48,0x01,0xFF
34.697980749999999,48,0x02,0xFF
34.698078187500002,48,0x03,0xFF
34.698175562499998,48,0x00,0xFF
34.698271937500003,48,0x92,0xFF
34.698369062499999,48,0xC5,0xFF
34.699794312500003,49,0x00,0x0F
34.699885750000000,49,0x00,0x0C
34.699976812499997,49,0x00,0x17
34.700068500000000,49,0x00,0x00
34.700159937499997,49,0x00,0x00
34.700251312500001,49,0x00,0x00
34.700351687500003,49,0x00,0x00
34.700443125000000,49,0x00,0x0A
34.700534812500003,49,0x00,0x01
34.700625875000000,49,0x00,0x02
34.700717625000003,49,0x00,0x03
34.700808687500000,49,0x00,0x00
34.700900437500003,49,0x00,0x96
34.700991500000001,49,0x00,0xE7
34.701098250000001,49,0x00,0xFF
34.701194937499999,49,0x55,0xFF
34.701291687500003,49,0x04,0xFF
34.701389437499998,49,0x00,0xFF
34.702488812500000,49,0x00,0xFF
34.702585249999998,49,0x7E,0xFF
34.702699625000001,49,0x91,0xFF
34.704178312499998,50,0x00,0x03
34.704269750000002,50,0x00,0x1C
34.704360812499999,50,0x00,0x01
34.704452187500003,50,0x00,0x17
34.704543937499999,50,0x00,0xFF
34.704635000000003,50,0x00,0xFF
34.704726375000000,50,0x00,0x00
34.704818125000003,50,0x00,0x07
34.704909187500000,50,0x00,0x07
34.705000875000003,50,0x00,0x00
34.705091937500001,50,0x00,0x00
34.705183374999997,50,0x00,0x00
34.705274750000001,50,0x00,0x23
34.705366124999998,50,0x00,0x10
34.705457562500001,50,0x00,0x11
34.705549249999997,50,0x00,0x82
34.705640687500001,50,0x00,0x06
34.705732062499997,50,0x00,0xF7
34.705823812500000,50,0x00,0x23
34.705915187499997,50,0x00,0x00
34.706006562500001,50,0x00,0x05
34.706098312500004,50,0x00,0x68
34.706189375000001,50,0x00,0x0F
34.706280749999998,50,0x00,0x08
34.706372500000001,50,0x00,0x46
34.706463562499998,50,0x00,0xF7
34.706554937500002,50,0x00,0x23
34.706646687499997,50,0x00,0x00
34.706737750000002,50,0x00,0x5E
34.706829124999999,50,0x00,0x41
34.706935874999999,50,0x00,0xFF
34.707032624999997,50,0x55,0xFF
34.707129312500001,50,0x04,0xFF
34.707227062500003,50,0x00,0xFF
34.707323812500000,50,0x00,0xFF
34.707421562500002,50,0x7E,0xFF
34.707535624999998,50,0x91,0xFF
38.622932874999996,51,0x00,0x07
38.623024250000000,51,0x00,0x02
38.623115312499998,51,0x00,0xDA
38.623206687500002,51,0x00,0xA4
38.623313437500002,51,0x00,0xFF
38.623410187499999,51,0x55,0xFF
38.623506874999997,51,0x0B,0xFF
38.623604624999999,51,0x00,0xFF
38.623701375000003,51,0x00,0xFF
38.623798749999999,51,0x20,0xFF
38.623896187500002,51,0x00,0xFF
38.623993562499997,51,0x00,0xFF
38.624090937500000,51,0x00,0xFF
38.624188375000003,51,0x03,0xFF
38.624285749999999,51,0x00,0xFF
38.624383187500001,51,0x00,0xFF
38.624479562499999,51,0xCB,0xFF
38.624575937499998,51,0x80,0xFF
38.626065312500003,52,0x00,0x10
38.626156687500000,52,0x00,0x06
38.626248124999996,52,0x00,0x20
38.626339500000000,52,0x00,0x00
38.626430874999997,52,0x00,0x00
38.626522625000000,52,0x00,0x00
38.626613687499997,52,0x00,0x5F
38.627868874999997,52,0x00,0xEE
38.627975624999998,52,0x00,0xFF
38.628072375000002,52,0x55,0xFF
38.628169062500000,52,0x04,0xFF
38.628266812500001,52,0x00,0xFF
38.628363562499999,52,0x00,0xFF
38.628460312500003,52,0x7E,0xFF
38.628574374999999,52,0x91,0xFF
38.630733499999998,53,0x00,0x12
38.630824875000002,53,0x00,0x02
38.630916624999998,53,0x00,0x5C
38.631007687500002,53,0x00,0x58
38.631114750000002,53,0x00,0xFF
38.631211812499998,53,0x55,0xFF
38.631308562500003,53,0x0E,0xFF
38.631406312499998,53,0x00,0xFF
38.631503375000001,53,0x00,0xFF
38.631600749999997,53,0x17,0xFF
38.631698187500000,53,0x00,0xFF
38.631795562500002,53,0x00,0xFF
38.631892937499998,53,0x00,0xFF
38.631990375000001,53,0x00,0xFF
38.632087749999997,53,0x0A,0xFF
38.632185124999999,53,0x01,0xFF
38.632282562500002,53,0x02,0xFF
38.632379937499998,53,0x03,0xFF
38.632477375000001,53,0x00,0xFF
38.632573749999999,53,0x92,0xFF
38.632670812500002,53,0xC5,0xFF
38.634095812500000,54,0x00,0x0F
38.634187187499997,54,0x00,0x0C
38.634278937500000,54,0x00,0x17
38.634369999999997,54,0x00,0x00
38.634461687500000,54,0x00,0x00
38.634553124999996,54,0x00,0x00
38.634644500000000,54,0x00,0x00
38.634736250000003,54,0x00,0x0A
38.634827312500001,54,0x00,0x01
38.634918687499997,54,0x00,0x02
38.635010062500001,54,0x00,0x03
38.635101812499997,54,0x00,0x00
38.635193187500001,54,0x00,0x96
38.635284624999997,54,0x00,0xE7
38.635391312499998,54,0x00,0xFF
38.635488062500002,54,0x55,0xFF
38.635584812499999,54,0x04,0xFF
38.635682562500001,54,0x00,0xFF
38.635779624999998,54,0x00,0xFF
38.635876000000003,54,0x7E,0xFF
38.635990437499999,54,0x91,0xFF
38.638471437500002,55,0x00,0x03
38.638562812499998,55,0x00,0x1C
38.638654250000002,55,0x00,0x01
38.638745937499998,55,0x00,0x17
38.638837375000001,55,0x00,0xFF
38.638928749999998,55,0x00,0xFF
38.639020125000002,55,0x00,0x00
38.639111874999998,55,0x00,0x07
38.639203250000001,55,0x00,0x07
38.639294999999997,55,0x00,0x00
38.639386375000001,55,0x00,0x00
38.639477812499997,55,0x00,0x00
38.639569187500001,55,0x00,0x23
38.639660937499997,55,0x00,0x10
38.639752000000001,55,0x00,0x11
38.639843687499997,55,0x00,0x82
38.639934750000002,55,0x00,0x06
38.640026187499998,55,0x00,0xF7
38.640117562500002,55,0x00,0x23
38.640208937499999,55,0x00,0x00
38.640300687500002,55,0x00,0x05
38.640392062499998,55,0x00,0x68
38.640483125000003,55,0x00,0x0F
38.640574874999999,55,0x00,0x08
38.640666250000002,55,0x00,0x46
38.640757687499999,55,0x00,0xF7
38.640849375000002,55,0x00,0x23
38.640940812499998,55,0x00,0x00
38.641032187500002,55,0x00,0x5E
38.641123562499999,55,0x00,0x41
38.641230312499999,55,0x00,0xFF
38.641327062499997,55,0x55,0xFF
38.641423812500001,55,0x04,0xFF
38.641521500000003,55,0x00,0xFF
38.641618250000001,55,0x00,0xFF
38.641714999999998,55,0x7E,0xFF
38.641829062500001,55,0x91,0xFF
42.557107999999999,56,0x00,0x07
42.557199437500003,56,0x00,0x02
42.557290500000001,56,0x00,0xDA
42.557381874999997,56,0x00,0xA4
42.557488624999998,56,0x00,0xFF
42.557585375000002,56,0x55,0xFF
42.557682062500000,56,0x0B,0xFF
42.557779812500002,56,0x00,0xFF
42.557876562499999,56,0x00,0xFF
42.557973937500002,56,0x20,0xFF
42.558071374999997,56,0x00,0xFF
42.558168750000000,56,0x00,0xFF
42.558266125000003,56,0x00,0xFF
42.558363562499999,56,0x03,0xFF
42.558460937500001,56,0x00,0xFF
42.558558374999997,56,0x00,0xFF
42.558654750000002,56,0xCB,0xFF
42.558751812499999,56,0x80,0xFF
42.560241187499997,57,0x00,0x10
42.560332562500001,57,0x00,0x06
42.560423624999999,57,0x00,0x20
42.560515375000001,57,0x00,0x00
42.560606749999998,57,0x00,0x00
42.560698500000001,57,0x00,0x00
42.560789874999998,57,0x00,0x5F
42.560881250000001,57,0x00,0xEE
42.560988000000002,57,0x00,0xFF
42.561084749999999,57,0x55,0xFF
42.561181500000004,57,0x04,0xFF
42.561279562499998,57,0x00,0xFF
42.561376250000002,57,0x00,0xFF
42.561472999999999,57,0x7E,0xFF
42.561587062500003,57,0x91,0xFF
42.564748562500000,58,0x00,0x12
42.564839999999997,58,0x00,0x02
42.564931375000000,58,0x00,0x5C
42.565022437499998,58,0x00,0x58
42.565129499999998,58,0x00,0xFF
42.565226250000002,58,0x55,0xFF
42.565322937500000,58,0x0E,0xFF
42.565421062500000,58,0x00,0xFF
42.565517749999998,58,0x00,0xFF
42.565615187500001,58,0x17,0xFF
42.565712562500003,58,0x00,0xFF
42.565809937499999,58,0x00,0xFF
42.565907375000002,58,0x00,0xFF
42.566004749999998,58,0x00,0xFF
42.566102187500000,58,0x0A,0xFF
42.566199562500003,58,0x01,0xFF
42.566296937499999,58,0x02,0xFF
42.566394000000003,58,0x03,0xFF
42.566491437499998,58,0x00,0xFF
42.566587812500003,58,0x92,0xFF
42.566684875000000,58,0xC5,0xFF
42.568109874999998,59,0x00,0x0F
42.568201250000001,59,0x00,0x0C
42.568292687499998,59,0x00,0x17
42.568383750000002,59,0x00,0x00
42.568475124999999,59,0x00,0x00
42.568566500000003,59,0x00,0x00
42.568658249999999,59,0x00,0x00
42.568749312500003,59,0x00,0x0A
42.568840687500000,59,0x00,0x01
42.568932125000003,59,0x00,0x02
42.569023812499999,59,0x00,0x03
42.569115250000003,59,0x00,0x00
42.569206625000000,59,0x00,0x96
42.569298000000003,59,0x00,0xE7
42.569404749999997,59,0x00,0xFF
42.569501500000001,59,0x55,0xFF
42.569598187499999,59,0x04,0xFF
42.569696312500000,59,0x00,0xFF
42.569792999999997,59,0x00,0xFF
42.569889750000002,59,0x7E,0xFF
42.570003812499998,59,0x91,0xFF
42.571482187500003,60,0x00,0x03
42.571573562499999,60,0x00,0x1C
42.571665312500002,60,0x00,0x01
42.571756687499999,60,0x00,0x17
42.571848437500002,60,0x00,0xFF
42.572941499999999,60,0x00,0xFF
42.573033250000002,60,0x00,0x00
42.573124312499999,60,0x00,0x07
42.573215687500003,60,0x00,0x07
42.573307437499999,60,0x00,0x00
42.573398812500002,60,0x00,0x00
42.573490562499998,60,0x00,0x00
42.573581625000003,60,0x00,0x23
42.573672999999999,60,0x00,0x10
42.573764375000003,60,0x00,0x11
42.573856124999999,60,0x00,0x82
42.573947187500004,60,0x00,0x06
42.574038562500000,60,0x00,0xF7
42.574130312500003,60,0x00,0x23
42.574221687500000,60,0x00,0x00
42.574313437500003,60,0x00,0x05
42.574404812499999,60,0x00,0x68
42.574496562500002,60,0x00,0x0F
42.574587624999999,60,0x00,0x08
42.574679375000002,60,0x00,0x46
42.574770749999999,60,0x00,0xF7
42.574862500000002,60,0x00,0x23
42.574953874999999,60,0x00,0x00
42.575045250000002,60,0x00,0x5E
42.575136687499999,60,0x00,0x41
42.575243374999999,60,0x00,0xFF
42.575427500000004,60,0x55,0xFF
42.575524562500000,60,0x04,0xFF
42.575622312500002,60,0x00,0xFF
42.575719062499999,60,0x00,0xFF
42.575815812499997,60,0x7E,0xFF
42.575929875000000,60,0x91,0xFF
46.493639937499999,61,0x00,0x07
46.493740312500002,61,0x00,0x02
46.493831374999999,61,0x00,0xDA
46.493922750000003,61,0x00,0xA4
46.494029500000003,61,0x00,0xFF
46.494126250000001,61,0x55,0xFF
46.494222999999998,61,0x0B,0xFF
46.494320687500000,61,0x00,0xFF
46.494417437499997,61,0x04,0xFF
46.494514812500000,61,0x01,0xFF
46.494612250000003,61,0x00,0xFF
46.494709312499999,61,0x00,0xFF
46.494806062499997,61,0x00,0xFF
46.494903437500000,61,0x03,0xFF
46.495000500000003,61,0x00,0xFF
46.495097874999999,61,0x00,0xFF
46.495194312499997,61,0x31,0xFF
46.495291687500000,61,0x59,0xFF
46.496763062500001,62,0x00,0x10
46.496854437499998,62,0x00,0x06
46.496954500000001,62,0x00,0x01
46.497045562499999,62,0x00,0x00
46.498139000000002,62,0x00,0x00
46.498230062499999,62,0x00,0x00
46.498321750000002,62,0x00,0xA5
46.498421812499998,62,0x00,0xAF
46.498528562499999,62,0x00,0xFF
46.498625312500003,62,0x55,0xFF
46.498722375000000,62,0x04,0xFF
46.498820125000002,62,0x00,0xFF
46.498916812499999,62,0x04,0xFF
46.499013562499997,62,0xFA,0xFF
46.499136687499998,62,0xD1,0xFF
46.500702750000002,63,0x00,0x08
46.500794124999999,63,0x00,0x03
46.500885500000003,63,0x00,0x00
46.500976937499999,63,0x00,0x6E
46.501068312500003,63,0x00,0x30
46.501175062500003,63,0x00,0xFF
46.501271812500001,63,0x55,0xFF
46.501368874999997,63,0x2C,0xFF
46.501466562499999,63,0x00,0xFF
46.501563312499997,63,0x04,0xFF
46.501660687499999,63,0x05,0xFF
46.501844499999997,63,0x68,0xFF
46.501941937500000,63,0x0F,0xFF
46.502039312500003,63,0x08,0xFF
46.502136687499998,63,0x46,0xFF
46.502234125000001,63,0x02,0xFF
46.502331499999997,63,0x05,0xFF
46.502428875000000,63,0x68,0xFF
46.502526000000003,63,0x0F,0xFF
46.502623374999999,63,0x08,0xFF
46.502720750000002,63,0x46,0xFF
46.502818187499997,63,0xF7,0xFF
46.502914875000002,63,0x23,0xFF
46.503012312499997,63,0x00,0xFF
46.503109687500000,63,0x82,0xFF
46.503207125000003,63,0x00,0xFF
46.503304499999999,63,0x00,0xFF
46.503401875000002,63,0x00,0xFF
46.503499312499997,63,0x00,0xFF
46.503595687500002,63,0x00,0xFF
46.503693124999998,63,0x07,0xFF
46.503790500000001,63,0x00,0xFF
46.503887874999997,63,0x76,0xFF
46.503984937500000,63,0x23,0xFF
46.504082375000003,63,0x10,0xFF
46.504179749999999,63,0x11,0xFF
46.504277187500001,63,0x82,0xFF
46.504374562499997,63,0x06,0xFF
46.504471937500000,63,0xF7,0xFF
46.504569375000003,63,0x23,0xFF
46.504665750000001,63,0x00,0xFF
46.504763187499996,63,0x42,0xFF
46.504860562499999,63,0x00,0xFF
46.504957937500002,63,0x00,0xFF
46.505054999999999,63,0x00,0xFF
46.505160437500003,63,0x00,0xFF
46.505257812499998,63,0x00,0xFF
46.505355250000001,63,0x00,0xFF
46.505452624999997,63,0x00,0xFF
46.505550062499999,63,0x17,0xFF
46.505646437499998,63,0x76,0xFF
46.505743500000001,63,0x5C,0xFF
46.541834062500001,64,0x00,0x07
46.541934124999997,64,0x00,0x02
46.542025187500002,64,0x00,0xDA
46.542116624999998,64,0x00,0xA4
46.542223312499999,64,0x00,0xFF
46.542346437500001,64,0x55,0xFF
46.542443124999998,64,0x0B,0xFF
46.542540875000000,64,0x00,0xFF
46.542637624999998,64,0x06,0xFF
46.542735000000000,64,0x08,0xFF
46.542832437500003,64,0x00,0xFF
46.542929812499999,64,0x06,0xFF
46.543027187500002,64,0x01,0xFF
46.543124624999997,64,0x03,0xFF
46.543222000000000,64,0x00,0xFF
46.543327750000003,64,0x00,0xFF
46.543424812500000,64,0x6A,0xFF
46.543521875000003,64,0x46,0xFF
46.545004249999998,65,0x00,0x10
46.545095625000002,65,0x00,0x06
46.545187374999998,65,0x00,0x08
46.545278750000001,65,0x00,0x00
46.545370124999998,65,0x00,0x00
46.545461875000001,65,0x00,0x00
46.545553249999998,65,0x00,0xD2
46.545644312500002,65,0x00,0x5C
46.545751062500003,65,0x00,0xFF
46.545847812500000,65,0x55,0xFF
46.545944562499997,65,0x04,0xFF
46.546042249999999,65,0x00,0xFF
46.546138999999997,65,0x06,0xFF
46.546235750000001,65,0xB8,0xFF
46.546358812500003,65,0xF1,0xFF
46.548824500000002,66,0x00,0x06
46.548915874999999,66,0x00,0x02
46.549006937500003,66,0x00,0xEB
46.549098375000000,66,0x00,0x97
46.549205125000000,66,0x00,0xFF
46.549301499999999,66,0x55,0xFF
46.549398562500002,66,0x1E,0xFF
46.549496312499997,66,0x00,0xFF
46.549593000000002,66,0x06,0xFF
46.549690124999998,66,0x05,0xFF
46.549787500000001,66,0x68,0xFF
46.549884249999998,66,0x0F,0xFF
46.549981625000001,66,0x08,0xFF
46.550078999999997,66,0x46,0xFF
46.550176437499999,66,0xF7,0xFF
46.550272812499998,66,0x23,0xFF
46.550369562500002,66,0x00,0xFF
46.550466624999999,66,0x23,0xFF
46.550563687500002,66,0x10,0xFF
46.550660749999999,66,0x11,0xFF
46.550757812500002,66,0x82,0xFF
46.550855249999998,66,0x06,0xFF
46.550951625000003,66,0xF7,0xFF
46.551048999999999,66,0x23,0xFF
46.551146437500002,66,0x00,0xFF
46.551243812499997,66,0x02,0xFF
46.551357875000001,66,0x76,0xFF
46.551455312500003,66,0x02,0xFF
46.551552687499999,66,0x06,0xFF
46.551650125000002,66,0x01,0xFF
46.551746500000000,66,0x04,0xFF
46.551843875000003,66,0x12,0xFF
46.551940625000000,66,0x00,0xFF
46.552038000000003,66,0x4B,0xFF
46.552135437499999,66,0xA5,0xFF
46.552231812499997,66,0xD3,0xFF
46.552355249999998,66,0x57,0xFF
46.553879937500000,67,0x00,0x10
46.553971375000003,67,0x00,0x06
46.554062437500001,67,0x00,0x08
46.554153812499997,67,0x00,0x00
46.554253875000001,67,0x00,0x00
46.554362937500002,67,0x00,0x02
46.554454687499998,67,0x00,0x90
46.554545750000003,67,0x00,0x7C
46.554652500000003,67,0x00,0xFF
46.554749187500001,67,0x55,0xFF
46.554845937499998,67,0x04,0xFF
46.554943687500000,67,0x00,0xFF
46.555040437499997,67,0x06,0xFF
46.555137125000002,67,0xB8,0xFF
46.555251249999998,67,0xF1,0xFF
46.558869000000001,68,0x00,0x0E
46.558960437499998,68,0x00,0x0B
46.559052125000001,68,0x00,0x02
46.559143562499997,68,0x00,0x00
46.559235250000000,68,0x00,0x00
46.559326312499998,68,0x00,0x00
46.559417750000001,68,0x00,0x00
46.559509124999998,68,0x00,0x00
46.559609187500001,68,0x00,0x00
46.559700562499998,68,0x00,0x00
46.559792312500001,68,0x00,0x00
46.559883687499998,68,0x00,0x96
46.559975125000001,68,0x00,0xBA
46.560081875000002,68,0x00,0xFF
46.560178562499999,68,0x55,0xFF
46.560275312500004,68,0x04,0xFF
46.560390750000003,68,0x00,0xFF
46.560487437500001,68,0x04,0xFF
46.560584187499998,68,0xFA,0xFF
46.560698250000002,68,0xD1,0xFF
46.574269812499999,69,0x00,0x07
46.574361250000003,69,0x00,0x02
46.574452937499998,69,0x00,0xDA
46.574544000000003,69,0x00,0xA4
46.574650750000004,69,0x00,0xFF
46.574747500000001,69,0x55,0xFF
46.574844249999998,69,0x0B,0xFF
46.574941937500000,69,0x00,0xFF
46.575038687499998,69,0x06,0xFF
46.575135750000001,69,0x08,0xFF
46.575233500000003,69,0x00,0xFF
46.575330874999999,69,0x07,0xFF
46.575428312500001,69,0x01,0xFF
46.575525687499997,69,0x03,0xFF
46.575622437500002,69,0x00,0xFF
46.575719812499997,69,0x00,0xFF
46.575816250000003,69,0x3B,0xFF
46.575913312499999,69,0xEC,0xFF
46.578398312499999,70,0x00,0x10
46.578489750000003,70,0x00,0x06
46.578581124999999,70,0x00,0x08
46.578672500000003,70,0x00,0x00
46.578763937500000,70,0x00,0x00
46.578864312500002,70,0x00,0x00
46.578956062499998,70,0x00,0xD2
46.579047125000002,70,0x00,0x5C
46.579153812500003,70,0x00,0xFF
46.579250562500000,70,0x55,0xFF
46.579347624999997,70,0x04,0xFF
46.579445687499998,70,0x00,0xFF
46.579542750000002,70,0x06,0xFF
46.579639187500000,70,0xB8,0xFF
46.579753562500002,70,0xF1,0xFF
46.581216937500002,71,0x00,0x06
46.581308312499999,71,0x00,0x02
46.581399687500003,71,0x00,0xEB
46.581490750000000,71,0x00,0x97
46.581597812500000,71,0x00,0xFF
46.581694562499997,71,0x55,0xFF
46.581791312500002,71,0x1F,0xFF
46.581889062499997,71,0x00,0xFF
46.581985750000001,71,0x06,0xFF
46.582083187499997,71,0x05,0xFF
46.582180562500000,71,0x68,0xFF
46.582278000000002,71,0x0F,0xFF
46.582375374999998,71,0x08,0xFF
46.582472750000001,71,0x46,0xFF
46.582570187499996,71,0xF7,0xFF
46.582667562499999,71,0x23,0xFF
46.582764937500002,71,0x00,0xFF
46.582862374999998,71,0x23,0xFF
46.582959750000001,71,0x10,0xFF
46.583057187500003,71,0x11,0xFF
46.583154562499999,71,0x82,0xFF
46.583251937500002,71,0x06,0xFF
46.583349374999997,71,0xF7,0xFF
46.583454750000001,71,0x23,0xFF
46.583552187499997,71,0x00,0xFF
46.583649562500000,71,0x03,0xFF
46.583747000000002,71,0x76,0xFF
46.583844374999998,71,0x02,0xFF
46.583941750000001,71,0x07,0xFF
46.584039187499997,71,0x02,0xFF
46.584136562499999,71,0x04,0xFF
46.584233625000003,71,0x08,0xFF
46.584330375000000,71,0x00,0xFF
46.584427750000003,71,0x01,0xFF
46.584524500000001,71,0x26,0xFF
46.584621875000003,71,0xFE,0xFF
46.584718312500002,71,0x97,0xFF
46.584815374999998,71,0x6F,0xFF
46.586345062500001,72,0x00,0x10
46.586436499999998,72,0x00,0x06
46.586527875000002,72,0x00,0x08
46.586619249999998,72,0x00,0x00
46.586711000000001,72,0x00,0x00
46.586811062499997,72,0x00,0x03
46.586902437500001,72,0x00,0xB1
46.586993874999997,72,0x00,0x6C
46.587100562499998,72,0x00,0xFF
46.587197312500003,72,0x55,0xFF
46.588296749999998,72,0x04,0xFF
46.588394500000000,72,0x00,0xFF
46.588508875000002,72,0x06,0xFF
46.588605625000000,72,0xB8,0xFF
46.588719687500003,72,0xF1,0xFF
46.605180562500003,73,0x00,0x07
46.605280999999998,73,0x00,0x02
46.605372375000002,73,0x00,0xDA
46.605463437499999,73,0x00,0xA4
46.605570499999999,73,0x00,0xFF
46.605667250000003,73,0x55,0xFF
46.605763937500001,73,0x0B,0xFF
46.605861687500003,73,0x00,0xFF
46.605958437500000,73,0x06,0xFF
46.606055812500003,73,0x08,0xFF
46.606153249999998,73,0x00,0xFF
46.606250625000001,73,0x0E,0xFF
46.606347062499999,73,0x01,0xFF
46.606444437500002,73,0x03,0xFF
46.606541812499998,73,0x00,0xFF
46.606639250000001,73,0x00,0xFF
46.606735624999999,73,0x47,0xFF
46.606832687500003,73,0x44,0xFF
46.609317375000003,74,0x00,0x10
46.609408812500000,74,0x00,0x06
46.609500500000003,74,0x00,0x08
46.609591937499999,74,0x00,0x00
46.609683625000002,74,0x00,0x00
46.609774687500000,74,0x00,0x00
46.609866437500003,74,0x00,0xD2
46.609957500000000,74,0x00,0x5C
46.610064250000001,74,0x00,0xFF
46.610160937499998,74,0x55,0xFF
46.610257687500003,74,0x04,0xFF
46.610355437499997,74,0x00,0xFF
46.610452187500002,74,0x06,0xFF
46.610584250000002,74,0xB8,0xFF
46.610698687499998,74,0xF1,0xFF
46.612161999999998,75,0x00,0x06
46.612253375000002,75,0x00,0x02
46.612344437499999,75,0x00,0xEB
46.612435875000003,75,0x00,0x97
46.612542562500003,75,0x00,0xFF
46.612639312500001,75,0x55,0xFF
46.612736062499998,75,0x26,0xFF
46.612834437499998,75,0x00,0xFF
46.612931500000002,75,0x06,0xFF
46.613028937499998,75,0x05,0xFF
46.613125312500003,75,0x68,0xFF
46.613222749999998,75,0x0F,0xFF
46.613320125000001,75,0x08,0xFF
46.613417187499998,75,0x46,0xFF
46.613514562500001,75,0xF7,0xFF
46.613611312499998,75,0x23,0xFF
46.613708750000001,75,0x00,0xFF
46.613806125000004,75,0x23,0xFF
46.613903499999999,75,0x10,0xFF
46.614000937500002,75,0x11,0xFF
46.614098312499998,75,0x82,0xFF
46.614194687500003,75,0x06,0xFF
46.614292124999999,75,0xF7,0xFF
46.614389500000001,75,0x23,0xFF
46.614486937499997,75,0x00,0xFF
46.614601312500000,75,0x04,0xFF
46.614698750000002,75,0x76,0xFF
46.614796124999998,75,0x02,0xFF
46.614893500000001,75,0x0E,0xFF
46.614990937499996,75,0x03,0xFF
46.615088312499999,75,0x02,0xFF
46.615184749999997,75,0x00,0xFF
46.615282125000000,75,0x01,0xFF
46.615379500000003,75,0x00,0xFF
46.615476937499999,75,0x00,0xFF
46.615591312500001,75,0x00,0xFF
46.615688749999997,75,0x00,0xFF
46.615786125000000,75,0x00,0xFF
46.615883562500002,75,0x00,0xFF
46.615980937499998,75,0x00,0xFF
46.616078312500001,75,0x00,0xFF
46.616175062499998,75,0xCA,0xFF
46.616272437500001,75,0xF6,0xFF
46.616368874999999,75,0x4E,0xFF
46.616465937500003,75,0xAF,0xFF
46.619033687500000,76,0x00,0x10
46.619125062499997,76,0x00,0x06
46.619216500000000,76,0x00,0x08
46.619307562499998,76,0x00,0x00
46.619399250000001,76,0x00,0x00
46.619490687499997,76,0x00,0x04
46.619582062500001,76,0x00,0x56
46.619673437499998,76,0x00,0x1C
46.619780187499998,76,0x00,0xFF
46.619876937500003,76,0x55,0xFF
46.619973687500000,76,0x04,0xFF
46.620071375000002,76,0x00,0xFF
46.620168124999999,76,0x06,0xFF
46.620264874999997,76,0xB8,0xFF
46.620378937500000,76,0xF1,0xFF
46.625779312500001,77,0x00,0x05
46.625870687499997,77,0x00,0x3E
46.625962062500001,77,0x00,0x05
46.626053812499997,77,0x00,0x68
46.626144875000001,77,0x00,0x0F
46.626245249999997,77,0x00,0x08
46.626336312500001,77,0x00,0x46
46.626427749999998,77,0x00,0xF7
46.626519437500001,77,0x00,0x23
46.626610874999997,77,0x00,0x00
46.626702250000001,77,0x00,0x01
46.626802625000003,77,0x00,0x01
46.626894062500000,77,0x00,0x31
46.626985437499997,77,0x00,0x02
46.627076812500000,77,0x00,0x02
46.627168562500003,77,0x00,0x01
46.627259937500000,77,0x00,0x42
46.628354062500001,77,0x00,0x47
46.628445124999999,77,0x00,0x31
46.628536500000003,77,0x00,0x31
46.628663250000002,77,0x00,0x31
46.628754624999999,77,0x00,0x38
46.628846062500003,77,0x00,0x32
46.628937437499999,77,0x00,0x34
46.629029187500002,77,0x00,0x33
46.629120250000000,77,0x00,0x42
46.629211937500003,77,0x00,0x00
46.629303000000000,77,0x00,0x23
46.629394750000003,77,0x00,0xF7
46.629486125000000,77,0x00,0x06
46.629577562500003,77,0x00,0x82
46.629677937499999,77,0x00,0x11
46.629769312500002,77,0x00,0x10
46.629861062499998,77,0x00,0x23
46.629961125000001,77,0x00,0x01
46.630052562499998,77,0x00,0x01
46.630144250000001,77,0x00,0x01
46.630235312499998,77,0x00,0x00
46.630327062500001,77,0x00,0x00
46.630418437499998,77,0x00,0x01
46.630510187500001,77,0x00,0xF6
46.630601249999998,77,0x00,0x00
46.630692625000002,77,0x00,0x01
46.630784062499998,77,0x00,0x00
46.630875437500002,77,0x00,0x00
46.630975812499997,77,0x00,0x00
46.631067562500000,77,0x00,0x00
46.631158624999998,77,0x00,0x01
46.631250375000000,77,0x00,0x00
46.631341437499998,77,0x00,0x01
46.631433125000001,77,0x00,0x01
46.631524562499997,77,0x00,0x06
46.631616250000000,77,0x00,0x01
46.631707687499997,77,0x00,0x01
46.631798750000002,77,0x00,0x00
46.631890124999998,77,0x00,0x00
46.631990187500001,77,0x00,0x01
46.632081937499997,77,0x00,0x00
46.632173000000002,77,0x00,0x01
46.632264687499998,77,0x00,0x02
46.632356125000001,77,0x00,0x23
46.632447812499997,77,0x00,0xD9
46.632539250000001,77,0x00,0x13
46.632630624999997,77,0x00,0x8B
46.632737374999998,77,0x00,0xFF
46.632834125000002,77,0x55,0xFF
46.632930812500000,77,0x04,0xFF
46.633028562500002,77,0x00,0xFF
46.633125312499999,77,0x04,0xFF
46.633222000000004,77,0xFA,0xFF
46.633336125000000,77,0xD1,0xFF
48.457936125000003,78,0x00,0x07
48.458027500000000,78,0x00,0x02
48.458127875000002,78,0x00,0xDA
48.458218937500000,78,0x00,0xA4
48.458326000000000,78,0x00,0xFF
48.458422749999997,78,0x55,0xFF
48.458519812500001,78,0x0D,0xFF
48.458617875000002,78,0x00,0xFF
48.458714624999999,78,0x04,0xFF
48.458812000000002,78,0x00,0xFF
48.458909437499997,78,0x00,0xFF
48.459006812500000,78,0x00,0xFF
48.459104250000003,78,0x00,0xFF
48.459201624999999,78,0x03,0xFF
48.459299000000001,78,0x00,0xFF
48.459396437499997,78,0x01,0xFF
48.459493500000001,78,0x01,0xFF
48.459598874999998,78,0x02,0xFF
48.459695625000002,78,0x0B,0xFF
48.460794687499998,78,0x56,0xFF
48.462253375000003,79,0x00,0x10
48.462353749999998,79,0x00,0x06
48.462444812500003,79,0x00,0x00
48.462536249999999,79,0x00,0x00
48.462627937500002,79,0x00,0x01
48.462719000000000,79,0x00,0x00
48.462810437500004,79,0x00,0x20
48.462901812500000,79,0x00,0xEA
48.463008562500001,79,0x00,0xFF
48.463105312499998,79,0x55,0xFF
48.463202000000003,79,0x04,0xFF
48.463299749999997,79,0x00,0xFF
48.463396812500001,79,0x04,0xFF
48.463493249999999,79,0xFA,0xFF
48.463607312500002,79,0xD1,0xFF
48.501274937500000,80,0x00,0x07
48.501366312499997,80,0x00,0x02
48.501458062499999,80,0x00,0xDA
48.501549124999997,80,0x00,0xA4
48.501656187499997,80,0x00,0xFF
48.501753250000000,80,0x55,0xFF
48.501858687499997,80,0x0B,0xFF
48.501956374999999,80,0x00,0xFF
48.502053125000003,80,0x06,0xFF
48.502150562499999,80,0x08,0xFF
48.502247937500002,80,0x00,0xFF
48.502345312499997,80,0x16,0xFF
48.502442750000000,80,0x01,0xFF
48.502540125000003,80,0x03,0xFF
48.502637562499999,80,0x00,0xFF
48.502734250000003,80,0x00,0xFF
48.502857374999998,80,0x30,0xFF
48.502954437500001,80,0x42,0xFF
48.504437437500002,81,0x00,0x10
48.504528812499998,81,0x00,0x06
48.504620562500001,81,0x00,0x08
48.504711937499998,81,0x00,0x00
48.504803312500002,81,0x00,0x00
48.504895062499997,81,0x00,0x00
48.504986437500001,81,0x00,0xD2
48.505078187499997,81,0x00,0x5C
48.505184937499997,81,0x00,0xFF
48.505281687500002,81,0x55,0xFF
48.505378062500000,81,0x04,0xFF
48.505475812500002,81,0x00,0xFF
48.505572562499999,81,0x06,0xFF
48.505669249999997,81,0xB8,0xFF
48.505783375000000,81,0xF1,0xFF
48.507246687500000,82,0x00,0x06
48.507346750000004,82,0x00,0x02
48.507438499999999,82,0x00,0xEB
48.507529562499997,82,0x00,0x97
48.507636249999997,82,0x00,0xFF
48.507733000000002,82,0x55,0xFF
48.507829749999999,82,0x2E,0xFF
48.507927500000001,82,0x00,0xFF
48.508024187499998,82,0x06,0xFF
48.508121625000001,82,0x05,0xFF
48.508218999999997,82,0x68,0xFF
48.508316062500000,82,0x0F,0xFF
48.508413500000003,82,0x08,0xFF
48.508510874999999,82,0x46,0xFF
48.508608250000002,82,0xF7,0xFF
48.508705312499998,82,0x23,0xFF
48.508819750000001,82,0x00,0xFF
48.508917125000004,82,0x23,0xFF
48.509014562499999,82,0x10,0xFF
48.509111937500002,82,0x11,0xFF
48.509209374999998,82,0x82,0xFF
48.509306750000000,82,0x06,0xFF
48.509403812499997,82,0xF7,0xFF
48.509501187500000,82,0x23,0xFF
48.509598625000002,82,0x00,0xFF
48.509695999999998,82,0x05,0xFF
48.509793437500001,82,0x76,0xFF
48.510892499999997,82,0x02,0xFF
48.510989875000000,82,0x16,0xFF
48.511087312500003,82,0x04,0xFF
48.511184687499998,82,0x04,0xFF
48.511282125000001,82,0x11,0xFF
48.511379499999997,82,0x01,0xFF
48.511476875000000,82,0x00,0xFF
48.511574312500002,82,0x23,0xFF
48.511671687499998,82,0xF7,0xFF
48.511768437500002,82,0x46,0xFF
48.511873812499999,82,0x08,0xFF
48.511971250000002,82,0x0F,0xFF
48.512068624999998,82,0x68,0xFF
48.512166062500000,82,0x05,0xFF
48.512262437499999,82,0x00,0xFF
48.512359812500002,82,0x23,0xFF
48.512456562499999,82,0xF7,0xFF
48.512553937500002,82,0x06,0xFF
48.512651374999997,82,0x82,0xFF
48.512748750000000,82,0x11,0xFF
48.512863187500002,82,0x10,0xFF
48.512960562499998,82,0x23,0xFF
48.513058000000001,82,0x11,0xFF
48.513155374999997,82,0x44,0xFF
48.513251750000002,82,0xBD,0xFF
48.513348812499999,82,0xF5,0xFF
48.514956249999997,83,0x00,0x10
48.515047687500001,83,0x00,0x06
48.515138749999998,83,0x00,0x08
48.515317187500003,83,0x00,0x00
48.515417249999999,83,0x00,0x00
48.515508625000002,83,0x00,0x05
48.515600374999998,83,0x00,0x77
48.515691437500003,83,0x00,0x0C
48.515798187500003,83,0x00,0xFF
48.515903562500000,83,0x55,0xFF
48.516000312499997,83,0x04,0xFF
48.516098062499999,83,0x00,0xFF
48.516194749999997,83,0x06,0xFF
48.516291500000001,83,0xB8,0xFF
48.516405562499997,83,0xF1,0xFF
48.521719562500003,84,0x00,0x05
48.521810937500000,84,0x00,0x1B
48.521911000000003,84,0x00,0x05
48.522002749999999,84,0x00,0x68
48.522093812500003,84,0x00,0x0F
48.522194187499998,84,0x00,0x08
48.522285625000002,84,0x00,0x46
48.522376999999999,84,0x00,0xF7
48.522468750000002,84,0x00,0x23
48.522560124999998,84,0x00,0x00
48.522651500000002,84,0x00,0x02
48.522742937499999,84,0x00,0x01
48.522834625000002,84,0x00,0x0E
48.522926062499998,84,0x00,0x03
48.523017750000001,84,0x00,0x02
48.523109187499998,84,0x00,0x00
48.523209562500000,84,0x00,0x01
48.523300937499997,84,0x00,0x00
48.523392375000000,84,0x00,0x23
48.523483749999997,84,0x00,0xF7
48.523575125000001,84,0x00,0x46
48.523666875000004,84,0x00,0x08
48.523758250000000,84,0x00,0x0F
48.523849687499997,84,0x00,0x68
48.523940750000001,84,0x00,0x05
48.524032437499997,84,0x00,0x82
48.524123875000001,84,0x00,0x46
48.524223937499997,84,0x00,0x83
48.524315312500001,84,0x00,0x79
48.524422062500001,84,0x00,0xFF
48.524518437499999,84,0x55,0xFF
48.524615187499997,84,0x04,0xFF
48.524712937499999,84,0x00,0xFF
48.524809625000003,84,0x04,0xFF
48.524924062499998,84,0xFA,0xFF
48.525038125000002,84,0xD1,0xFF
48.533234749999998,85,0x00,0x07
48.533326125000002,85,0x00,0x02
48.533426499999997,85,0x00,0xDA
48.533517562500002,85,0x00,0xA4
48.533624312500002,85,0x00,0xFF
48.533721062500000,85,0x55,0xFF
48.533817812499997,85,0x0D,0xFF
48.533915499999999,85,0x00,0xFF
48.534012250000004,85,0x04,0xFF
48.534109624999999,85,0x00,0xFF
48.534207062500002,85,0x00,0xFF
48.534304437499998,85,0x00,0xFF
48.534401875000000,85,0x00,0xFF
48.534499250000003,85,0x03,0xFF
48.534596624999999,85,0x00,0xFF
48.534694062500002,85,0x01,0xFF
48.534790437500000,85,0x02,0xFF
48.534887875000003,85,0x02,0xFF
48.534993249999999,85,0x58,0xFF
48.535090312500003,85,0x03,0xFF
48.536549000000001,86,0x00,0x10
48.536640374999998,86,0x00,0x06
48.536731437500002,86,0x00,0x00
48.536822812499999,86,0x00,0x00
48.536931937500000,86,0x00,0x02
48.537023312499997,86,0x00,0x00
48.537115062500000,86,0x00,0x73
48.537206124999997,86,0x00,0xBF
48.537312812499998,86,0x00,0xFF
48.537409562500002,86,0x55,0xFF
48.537506624999999,86,0x04,0xFF
48.537604375000001,86,0x00,0xFF
48.537701124999998,86,0x04,0xFF
48.537797812500003,86,0xFA,0xFF
48.537911937499999,86,0xD1,0xFF
48.571302000000003,87,0x00,0x07
48.571402374999998,87,0x00,0x02
48.571493437500003,87,0x00,0xDA
48.571585812499997,87,0x00,0xA4
48.571692562499997,87,0x00,0xFF
48.571789312500002,87,0x55,0xFF
48.571886374999998,87,0x0B,0xFF
48.571984125000000,87,0x00,0xFF
48.572107500000001,87,0x06,0xFF
48.572204937499997,87,0x08,0xFF
48.572302312500000,87,0x00,0xFF
48.572399750000002,87,0x38,0xFF
48.572496125000001,87,0x01,0xFF
48.572593500000004,87,0x03,0xFF
48.572689937500002,87,0x00,0xFF
48.572787312499997,87,0x00,0xFF
48.572884062500002,87,0x2C,0xFF
48.572981124999998,87,0x85,0xFF
48.574463437500000,88,0x00,0x10
48.574563875000003,88,0x00,0x06
48.574654937500000,88,0x00,0x08
48.574746687500003,88,0x00,0x00
48.574837687500001,88,0x00,0x00
48.574929437500003,88,0x00,0x00
48.575020500000001,88,0x00,0xD2
48.575129562500003,88,0x00,0x5C
48.575236312500003,88,0x00,0xFF
48.575332750000001,88,0x55,0xFF
48.575429812499998,88,0x04,0xFF
48.575527874999999,88,0x00,0xFF
48.575624562500003,88,0x06,0xFF
48.575721312500001,88,0xB8,0xFF
48.575835374999997,88,0xF1,0xFF
48.577298749999997,89,0x00,0x06
48.577390125000001,89,0x00,0x02
48.577481499999998,89,0x00,0xEB
48.577572562500002,89,0x00,0x97
48.577679312500003,89,0x00,0xFF
48.577776062500000,89,0x55,0xFF
48.577873125000004,89,0x50,0xFF
48.577970874999998,89,0x00,0xFF
48.578067562500003,89,0x06,0xFF
48.578164624999999,89,0x05,0xFF
48.578262062500002,89,0x68,0xFF
48.578359437499998,89,0x0F,0xFF
48.578456875000001,89,0x08,0xFF
48.578554250000003,89,0x46,0xFF
48.578651624999999,89,0xF7,0xFF
48.578749062500002,89,0x23,0xFF
48.578846437499998,89,0x00,0xFF
48.578943875000000,89,0x23,0xFF
48.579040249999998,89,0x10,0xFF
48.579155000000000,89,0x11,0xFF
48.579252375000003,89,0x82,0xFF
48.579349812499999,89,0x06,0xFF
48.579447187500001,89,0xF7,0xFF
48.579544624999997,89,0x23,0xFF
48.579642000000000,89,0x00,0xFF
48.579739375000003,89,0x06,0xFF
48.579836812499998,89,0x76,0xFF
48.580935875000002,89,0x02,0xFF
48.581033249999997,89,0x38,0xFF
48.581138687500001,89,0x05,0xFF
48.581236062499997,89,0x02,0xFF
48.581333500000000,89,0x01,0xFF
48.581430875000002,89,0x4E,0xFF
48.581528312499998,89,0x47,0xFF
48.581625687500001,89,0x31,0xFF
48.581722749999997,89,0x30,0xFF
48.581820125000000,89,0x30,0xFF
48.581917562500003,89,0x39,0xFF
48.582014937499999,89,0x36,0xFF
48.582129375000001,89,0x36,0xFF
48.582226749999997,89,0x39,0xFF
48.582324187499999,89,0x55,0xFF
48.582421562500002,89,0x00,0xFF
48.582518937499998,89,0x23,0xFF
48.582616375000001,89,0xF7,0xFF
48.582713062499998,89,0x46,0xFF
48.582810500000001,89,0x08,0xFF
48.582907874999997,89,0x0F,0xFF
48.583005312499999,89,0x68,0xFF
48.583102687500002,89,0x05,0xFF
48.583200437499997,89,0x01,0xFF
48.583297812500000,89,0x00,0xFF
48.583395250000002,89,0x00,0xFF
48.583492624999998,89,0x08,0xFF
48.583590000000001,89,0x01,0xFF
48.583687437499997,89,0x00,0xFF
48.583784812499999,89,0x03,0xFF
48.583882250000002,89,0x00,0xFF
48.583979624999998,89,0x01,0xFF
48.584076000000003,89,0x00,0xFF
48.584190437499998,89,0x00,0xFF
48.584287812500001,89,0x00,0xFF
48.584385249999997,89,0x02,0xFF
48.584482625000000,89,0x00,0xFF
48.584580000000003,89,0x00,0xFF
48.584677124999999,89,0x04,0xFF
48.584773812500003,89,0x00,0xFF
48.584871249999999,89,0x04,0xFF
48.584968625000002,89,0x01,0xFF
48.585065999999998,89,0x04,0xFF
48.585180437500000,89,0x02,0xFF
48.585277812500003,89,0x06,0xFF
48.585375249999998,89,0x44,0xFF
48.585472625000001,89,0x01,0xFF
48.585570062499997,89,0x08,0xFF
48.585667437500000,89,0x41,0xFF
48.585763812499998,89,0x00,0xFF
48.585861250000001,89,0x96,0xFF
48.585958625000004,89,0x00,0xFF
48.586056062499999,89,0x00,0xFF
48.586170437500002,89,0x00,0xFF
48.586267874999997,89,0x12,0xFF
48.586365250000000,89,0x01,0xFF
48.586462625000003,89,0x3E,0xFF
48.586560062499998,89,0x60,0xFF
48.586656437499997,89,0x34,0xFF
48.586753187500001,89,0x85,0xFF
48.588536374999997,90,0x00,0x10
48.588627812500000,90,0x00,0x06
48.588719187499997,90,0x00,0x08
48.588810250000002,90,0x00,0x00
48.588901624999998,90,0x00,0x00
48.589002062500001,90,0x00,0x06
48.589093437499997,90,0x00,0x14
48.589193812500000,90,0x00,0x3C
48.589300562500000,90,0x00,0xFF
48.589397312499997,90,0x55,0xFF
48.589494062500002,90,0x04,0xFF
48.589591749999997,90,0x00,0xFF
48.589688500000001,90,0x06,0xFF
48.589785249999998,90,0xB8,0xFF
48.589899312500002,90,0xF1,0xFF
48.596659625000001,91,0x00,0x05
48.596750999999998,91,0x00,0x23
48.596842750000000,91,0x00,0x05
48.596933812499998,91,0x00,0x68
48.597025187500002,91,0x00,0x0F
48.597116937499997,91,0x00,0x08
48.597208000000002,91,0x00,0x46
48.597299687499998,91,0x00,0xF7
48.597390750000002,91,0x00,0x23
48.597491187499998,91,0x00,0x00
48.597582562500001,91,0x00,0x03
48.597674312499997,91,0x00,0x01
48.597765375000002,91,0x00,0x16
48.597857062499997,91,0x00,0x04
48.597948500000001,91,0x00,0x04
48.598039874999998,91,0x00,0x11
48.598131625000001,91,0x00,0x01
48.598222687499998,91,0x00,0x00
48.598314375000001,91,0x00,0x23
48.598405437499999,91,0x00,0xF7
48.598505875000001,91,0x00,0x06
48.598597249999997,91,0x00,0x82
48.598689000000000,91,0x00,0x11
48.598780062499998,91,0x00,0x10
48.598871750000001,91,0x00,0x23
48.598962812499998,91,0x00,0x00
48.599054250000002,91,0x00,0x23
48.599145937499998,91,0x00,0xF7
48.599237375000001,91,0x00,0x46
48.599329062499997,91,0x00,0x08
48.599420125000002,91,0x00,0x0F
48.599520249999998,91,0x00,0x68
48.599611625000001,91,0x00,0x05
48.599703374999997,91,0x00,0xAB
48.599794437500002,91,0x00,0x43
48.599886124999998,91,0x00,0xA0
48.600979562500001,91,0x00,0xA3
48.601086312500001,91,0x00,0xFF
48.601182999999999,91,0x55,0xFF
48.601279750000003,91,0x04,0xFF
48.601377499999998,91,0x00,0xFF
48.601474250000003,91,0x04,0xFF
48.601571312499999,91,0xFA,0xFF
48.601685375000002,91,0xD1,0xFF
48.608987687499997,92,0x00,0x07
48.609079062500001,92,0x00,0x02
48.609170437499998,92,0x00,0xDA
48.609270500000001,92,0x00,0xA4
48.609377625000000,92,0x00,0xFF
48.609474312499998,92,0x55,0xFF
48.609571062500002,92,0x0D,0xFF
48.609668812499997,92,0x00,0xFF
48.609765562500002,92,0x04,0xFF
48.609862937499997,92,0x00,0xFF
48.610962687499999,92,0x00,0xFF
48.611060062500002,92,0x00,0xFF
48.611157499999997,92,0x00,0xFF
48.611253875000003,92,0x03,0xFF
48.611351249999998,92,0x00,0xFF
48.611448687500001,92,0x01,0xFF
48.611546062499997,92,0x03,0xFF
48.611643500000000,92,0x02,0xFF
48.611739874999998,92,0x69,0xFF
48.611836937500001,92,0x30,0xFF
48.613295624999999,93,0x00,0x10
48.613387000000003,93,0x00,0x06
48.613487374999998,93,0x00,0x00
48.613578812500002,93,0x00,0x00
48.613670187499999,93,0x00,0x03
48.613761562500002,93,0x00,0x00
48.613852999999999,93,0x00,0x42
48.613945375000000,93,0x00,0x8C
48.614052125000001,93,0x00,0xFF
48.614148874999998,93,0x55,0xFF
48.614272249999999,93,0x04,0xFF
48.614370000000001,93,0x00,0xFF
48.614466749999998,93,0x04,0xFF
48.614563500000003,93,0xFA,0xFF
48.614677562499999,93,0xD1,0xFF
48.651486249999998,94,0x00,0x07
48.651577687500001,94,0x00,0x02
48.651669374999997,94,0x00,0xDA
48.651760437500002,94,0x00,0xA4
48.651867562500001,94,0x00,0xFF
48.651964249999999,94,0x55,0xFF
48.652061312500003,94,0x0B,0xFF
48.652159062499997,94,0x00,0xFF
48.652255812500002,94,0x06,0xFF
48.652353187499997,94,0x08,0xFF
48.652449937500002,94,0x00,0xFF
48.652547312499998,94,0x15,0xFF
48.652644750000000,94,0x01,0xFF
48.652742125000003,94,0x03,0xFF
48.652839562499999,94,0x00,0xFF
48.652936937500002,94,0x00,0xFF
48.653033312500000,94,0xE2,0xFF
48.653130375000003,94,0xAC,0xFF
48.654613750000003,95,0x00,0x10
48.654705125000000,95,0x00,0x06
48.654796187499997,95,0x00,0x08
48.654887937500000,95,0x00,0x00
48.654978999999997,95,0x00,0x00
48.655070375000001,95,0x00,0x00
48.655162124999997,95,0x00,0xD2
48.655253187500001,95,0x00,0x5C
48.655359937500002,95,0x00,0xFF
48.655465312499999,95,0x55,0xFF
48.655562375000002,95,0x04,0xFF
48.655660437500003,95,0x00,0xFF
48.655757187500001,95,0x06,0xFF
48.655853937499998,95,0xB8,0xFF
48.655968000000001,95,0xF1,0xFF
48.657431312500002,96,0x00,0x06
48.657522749999998,96,0x00,0x02
48.657613812500003,96,0x00,0xEB
48.657705187500000,96,0x00,0x97
48.657811937500000,96,0x00,0xFF
48.657908687499997,96,0x55,0xFF
48.658005375000002,96,0x2D,0xFF
48.658103124999997,96,0x00,0xFF
48.658199875000001,96,0x06,0xFF
48.658297249999997,96,0x05,0xFF
48.658394687500000,96,0x68,0xFF
48.658500062500003,96,0x0F,0xFF
48.658597437499999,96,0x08,0xFF
48.658694875000002,96,0x46,0xFF
48.658792249999998,96,0xF7,0xFF
48.658888687500003,96,0x23,0xFF
48.658986062499999,96,0x00,0xFF
48.659082437499997,96,0x23,0xFF
48.659179875000000,96,0x10,0xFF
48.659277250000002,96,0x11,0xFF
48.659374687499998,96,0x82,0xFF
48.659489062500001,96,0x06,0xFF
48.659586500000003,96,0xF7,0xFF
48.659683874999999,96,0x23,0xFF
48.659781250000002,96,0x00,0xFF
48.659878687499997,96,0x07,0xFF
48.659976062500000,96,0x76,0xFF
48.661074499999998,96,0x02,0xFF
48.661171875000001,96,0x15,0xFF
48.661269312500004,96,0x06,0xFF
48.661366000000001,96,0x04,0xFF
48.661471749999997,96,0x25,0xFF
48.661569125000000,96,0x9D,0xFF
48.661666562500002,96,0x63,0xFF
48.661762937500001,96,0x36,0xFF
48.661860375000003,96,0x25,0xFF
48.661957749999999,96,0x8E,0xFF
48.662054500000004,96,0x11,0xFF
48.662151874999999,96,0x3E,0xFF
48.662249312500002,96,0xA1,0xFF
48.662346687499998,96,0xD3,0xFF
48.662444062500001,96,0x20,0xFF
48.662549499999997,96,0x46,0xFF
48.662646875000000,96,0x3F,0xFF
48.662744312500003,96,0x9D,0xFF
48.662841687499998,96,0xFE,0xFF
48.662939062500001,96,0xD8,0xFF
48.663036499999997,96,0x00,0xFF
48.663133875000000,96,0x66,0xFF
48.663231312500002,96,0x62,0xFF
48.663327687500001,96,0x12,0xFF
48.663433062499998,96,0xE9,0xFF
48.665034875000003,97,0x00,0x10
48.665126250000000,97,0x00,0x06
48.665218000000003,97,0x00,0x08
48.665309062500000,97,0x00,0x00
48.665400750000003,97,0x00,0x00
48.665518874999997,97,0x00,0x07
48.665609937500001,97,0x00,0x35
48.665701312499998,97,0x00,0x2C
48.665808062499998,97,0x00,0xFF
48.665904750000003,97,0x55,0xFF
48.666001500000000,97,0x04,0xFF
48.666099250000002,97,0x00,0xFF
48.666196312499999,97,0x06,0xFF
48.666292687499997,97,0xB8,0xFF
48.666407124999999,97,0xF1,0xFF
48.671749749999996,98,0x00,0x05
48.671841187500000,98,0x00,0x14
48.671932875000003,98,0x00,0x05
48.672023937500001,98,0x00,0x68
48.672115374999997,98,0x00,0x0F
48.672215749999999,98,0x00,0x08
48.672307125000003,98,0x00,0x46
48.672398562500000,98,0x00,0xF7
48.672490250000003,98,0x00,0x23
48.672581687499999,98,0x00,0x00
48.672673062500003,98,0x00,0x04
48.672773437499998,98,0x00,0x01
48.672864875000002,98,0x00,0x07
48.672955937499999,98,0x00,0x05
48.673047625000002,98,0x00,0x00
48.673147687499998,98,0x00,0xFE
48.673239125000002,98,0x00,0x04
48.673330812499998,98,0x00,0x25
48.673421875000003,98,0x00,0x72
48.673513624999998,98,0x00,0x0B
48.673605000000002,98,0x00,0xD9
48.673696437499999,98,0x00,0xD5
48.673803187499999,98,0x00,0xFF
48.673899874999996,98,0x55,0xFF
48.673996937500000,98,0x04,0xFF
48.674094687500002,98,0x00,0xFF
48.674191437499999,98,0x04,0xFF
48.674288187499997,98,0xFA,0xFF
48.674402250000000,98,0xD1,0xFF
48.682590812500003,99,0x00,0x07
48.682682187499999,99,0x00,0x02
48.682773937500002,99,0x00,0xDA
48.682865000000000,99,0x00,0xA4
48.682972062499999,99,0x00,0xFF
48.683068812499997,99,0x55,0xFF
48.683165562500001,99,0x0D,0xFF
48.683263625000002,99,0x00,0xFF
48.683360374999999,99,0x04,0xFF
48.683457750000002,99,0x00,0xFF
48.683555124999998,99,0x00,0xFF
48.683652562500001,99,0x00,0xFF
48.683749937499996,99,0x00,0xFF
48.683847374999999,99,0x03,0xFF
48.683944750000002,99,0x00,0xFF
48.684042124999998,99,0x01,0xFF
48.684139562500000,99,0x04,0xFF
48.684236937500003,99,0x02,0xFF
48.684333312500002,99,0xFE,0xFF
48.684430749999997,99,0xA9,0xFF
48.685889375000002,100,0x00,0x10
48.685980812499999,100,0x00,0x06
48.686072187500002,100,0x00,0x00
48.686163562499999,100,0x00,0x00
48.686255312500002,100,0x00,0x04
48.686346374999999,100,0x00,0x00
48.686437750000003,100,0x00,0xD5
48.686529187500000,100,0x00,0x15
48.686635562500001,100,0x00,0xFF
48.686732312499998,100,0x55,0xFF
48.686829062500003,100,0x04,0xFF
48.686926749999998,100,0x00,0xFF
48.687023500000002,100,0x04,0xFF
48.687120250000000,100,0xFA,0xFF
48.687234312500003,100,0xD1,0xFF
48.690018250000001,101,0x00,0x14
48.691109312499997,101,0x00,0x1A
48.691209687499999,101,0x00,0x05
48.691301125000003,101,0x00,0x68
48.691392499999999,101,0x00,0x0F
48.691483875000003,101,0x00,0x08
48.691575624999999,101,0x00,0x46
48.691666687500003,101,0x00,0xF7
48.691766749999999,101,0x00,0x23
48.691858125000003,101,0x00,0x00
48.691949874999999,101,0x00,0x00
48.692041250000003,101,0x00,0xD8
48.692141687499998,101,0x00,0xFE
48.692232750000002,101,0x00,0x9D
48.692324124999999,101,0x00,0x3F
48.692415875000002,101,0x00,0x46
48.692507249999998,101,0x00,0x20
48.692625312499999,101,0x00,0xD3
48.692716375000003,101,0x00,0xA1
48.692808124999999,101,0x00,0x3E
48.692899500000003,101,0x00,0x11
48.692991249999999,101,0x00,0x8E
48.693082312500003,101,0x00,0x25
48.693173687500000,101,0x00,0x36
48.693265125000003,101,0x00,0x63
48.693356500000000,101,0x00,0x9D
48.693456562500003,101,0x00,0x00
48.693547937500000,101,0x00,0xCD
48.693654687500000,101,0x00,0xFF
48.693751437499998,101,0x55,0xFF
48.693847812500003,101,0x04,0xFF
48.693945562499998,101,0x00,0xFF
48.694042312500002,101,0x04,0xFF
48.694139062500000,101,0xFA,0xFF
48.694253437500002,101,0xD1,0xFF
48.722690437499999,102,0x00,0x07
48.722781875000003,102,0x00,0x02
48.722882249999998,102,0x00,0xDA
48.722973312500002,102,0x00,0xA4
48.723080375000002,102,0x00,0xFF
48.723176812500000,102,0x55,0xFF
48.723273874999997,102,0x0B,0xFF
48.723371624999999,102,0x00,0xFF
48.723468312500003,102,0x06,0xFF
48.723565749999999,102,0x08,0xFF
48.723663125000002,102,0x00,0xFF
48.723760499999997,102,0x05,0xFF
48.723857937500000,102,0x01,0xFF
48.723955312500003,102,0x03,0xFF
48.724052374999999,102,0x00,0xFF
48.724149812500002,102,0x00,0xFF
48.724246187500000,102,0xB8,0xFF
48.724343249999997,102,0xA8,0xFF
48.725826625000003,103,0x00,0x10
48.725918000000000,103,0x00,0x06
48.726009062499998,103,0x00,0x08
48.726109437500000,103,0x00,0x00
48.726200875000004,103,0x00,0x00
48.726292562499999,103,0x00,0x00
48.726383624999997,103,0x00,0xD2
48.726475062500000,103,0x00,0x5C
48.726581812500001,103,0x00,0xFF
48.726678499999998,103,0x55,0xFF
48.726775250000003,103,0x04,0xFF
48.726872999999998,103,0x00,0xFF
48.726969687500002,103,0x06,0xFF
48.727066437500000,103,0xB8,0xFF
48.727180500000003,103,0xF1,0xFF
48.728643875000003,104,0x00,0x06
48.728735250000000,104,0x00,0x02
48.728826312499997,104,0x00,0xEB
48.728926687500000,104,0x00,0x97
48.729033437500000,104,0x00,0xFF
48.729130187499997,104,0x55,0xFF
48.729227250000001,104,0x1D,0xFF
48.729325000000003,104,0x00,0xFF
48.729421750000000,104,0x06,0xFF
48.729518437499998,104,0x05,0xFF
48.729615875000000,104,0x68,0xFF
48.729713250000003,104,0x0F,0xFF
48.729810624999999,104,0x08,0xFF
48.729908062500002,104,0x46,0xFF
48.730005437499997,104,0xF7,0xFF
48.730102875000000,104,0x23,0xFF
48.731201624999997,104,0x00,0xFF
48.731299000000000,104,0x23,0xFF
48.731396375000003,104,0x10,0xFF
48.731493812499998,104,0x11,0xFF
48.731591187500001,104,0x82,0xFF
48.731688624999997,104,0x06,0xFF
48.731786000000000,104,0xF7,0xFF
48.731883375000002,104,0x23,0xFF
48.731980125000000,104,0x00,0xFF
48.732077562500002,104,0x08,0xFF
48.732174937499998,104,0x76,0xFF
48.732272312500001,104,0x04,0xFF
48.732369749999997,104,0x05,0xFF
48.732467124999999,104,0x07,0xFF
48.732564500000002,104,0x04,0xFF
48.732661937499998,104,0x04,0xFF
48.732759312500001,104,0xC5,0xFF
48.732856750000003,104,0x4C,0xFF
48.732953125000002,104,0x90,0xFF
48.733050187499998,104,0x55,0xFF
48.734569562499999,105,0x00,0x10
48.734660937500003,105,0x00,0x06
48.734752374999999,105,0x00,0x08
48.734843750000003,105,0x00,0x00
48.734934812500001,105,0x00,0x00
48.735026562500003,105,0x00,0x08
48.735117625000001,105,0x00,0xDA
48.735208999999998,105,0x00,0xDD
48.735315749999998,105,0x00,0xFF
48.735412500000002,105,0x55,0xFF
48.735509562499999,105,0x04,0xFF
48.735607625000000,105,0x00,0xFF
48.735704312499998,105,0x06,0xFF
48.735801062500002,105,0xB8,0xFF
48.735915124999998,105,0xF1,0xFF
48.739428187500003,106,0x00,0x05
48.739519625000000,106,0x00,0x12
48.739611312500003,106,0x00,0x05
48.739702375000000,106,0x00,0x68
48.739794125000003,106,0x00,0x0F
48.739885187500001,106,0x00,0x08
48.739976562499997,106,0x00,0x46
48.740068312500000,106,0x00,0xF7
48.741161374999997,106,0x00,0x23
48.741253125000000,106,0x00,0x00
48.741344499999997,106,0x00,0x05
48.741444937499999,106,0x00,0x11
48.741536000000004,106,0x00,0x05
48.741627375000000,106,0x00,0x06
48.741718749999997,106,0x00,0x04
48.741810500000000,106,0x00,0x03
48.741901875000003,106,0x00,0x82
48.742001937500000,106,0x00,0x9B
48.742093687500002,106,0x00,0xF1
48.742184750000000,106,0x00,0x82
48.742291500000000,106,0x00,0xFF
48.742388249999998,106,0x55,0xFF
48.742484937500002,106,0x04,0xFF
48.742582687499997,106,0x00,0xFF
48.742679437500001,106,0x04,0xFF
48.742776187499999,106,0xFA,0xFF
48.742890250000002,106,0xD1,0xFF
48.751275624999998,107,0x00,0x07
48.751367000000002,107,0x00,0x02
48.751458062499999,107,0x00,0xDA
48.751549500000003,107,0x00,0xA4
48.751656187499997,107,0x00,0xFF
48.751752937500001,107,0x55,0xFF
48.751866999999997,107,0x0D,0xFF
48.751964749999999,107,0x00,0xFF
48.752061812500003,107,0x04,0xFF
48.752159187499998,107,0x00,0xFF
48.752256625000001,107,0x00,0xFF
48.752353999999997,107,0x00,0xFF
48.752451437500000,107,0x00,0xFF
48.752548812500002,107,0x03,0xFF
48.752646187499998,107,0x00,0xFF
48.752742625000003,107,0x01,0xFF
48.752839999999999,107,0x05,0xFF
48.752936750000003,107,0x02,0xFF
48.753033500000001,107,0xCF,0xFF
48.753130562499997,107,0x9A,0xFF
48.754589187500002,108,0x00,0x10
48.754689624999997,108,0x00,0x06
48.754780687500002,108,0x00,0x00
48.754872062499999,108,0x00,0x00
48.754963812500002,108,0x00,0x05
48.755054874999999,108,0x00,0x00
48.755146562500002,108,0x00,0xE4
48.755237999999999,108,0x00,0x26
48.755344749999999,108,0x00,0xFF
48.755441437499996,108,0x55,0xFF
48.755538500000000,108,0x04,0xFF
48.755636250000002,108,0x00,0xFF
48.755732999999999,108,0x04,0xFF
48.755829749999997,108,0xFA,0xFF
48.755961812499997,108,0xD1,0xFF
48.784139000000003,109,0x00,0x07
48.784230375000000,109,0x00,0x02
48.784330437500003,109,0x00,0xDA
48.784421875000000,109,0x00,0xA4
48.784528562500000,109,0x00,0xFF
48.784626000000003,109,0x55,0xFF
48.784723062499999,109,0x0B,0xFF
48.784820812500001,109,0x00,0xFF
48.784917499999999,109,0x06,0xFF
48.785031937500001,109,0x08,0xFF
48.785129312499997,109,0x00,0xFF
48.785226750000000,109,0x0E,0xFF
48.785324125000002,109,0x01,0xFF
48.785421499999998,109,0x03,0xFF
48.785518937500001,109,0x00,0xFF
48.785616312499997,109,0x00,0xFF
48.785712750000002,109,0x47,0xFF
48.785809812499998,109,0x44,0xFF
48.787293124999998,110,0x00,0x10
48.787384562500002,110,0x00,0x06
48.787484624999998,110,0x00,0x08
48.787576312500001,110,0x00,0x00
48.787667749999997,110,0x00,0x00
48.787759125000001,110,0x00,0x00
48.787850499999998,110,0x00,0xD2
48.787941937500001,110,0x00,0x5C
48.788057312500001,110,0x00,0xFF
48.788154062499999,110,0x55,0xFF
48.788250812500003,110,0x04,0xFF
48.788348499999998,110,0x00,0xFF
48.788445250000002,110,0x06,0xFF
48.788542312499999,110,0xB8,0xFF
48.788656375000002,110,0xF1,0xFF
48.790119750000002,111,0x00,0x06
48.791213499999998,111,0x00,0x02
48.791304875000002,111,0x00,0xEB
48.791395937499999,111,0x00,0x97
48.791502999999999,111,0x00,0xFF
48.791600062500002,111,0x55,0xFF
48.791696812500000,111,0x26,0xFF
48.791794562500002,111,0x00,0xFF
48.791892249999997,111,0x06,0xFF
48.791989687499999,111,0x05,0xFF
48.792087062500002,111,0x68,0xFF
48.792184499999998,111,0x0F,0xFF
48.792281875000000,111,0x08,0xFF
48.792378249999999,111,0x46,0xFF
48.792475687500001,111,0xF7,0xFF
48.792573062499997,111,0x23,0xFF
48.792670500000000,111,0x00,0xFF
48.792767875000003,111,0x23,0xFF
48.792865249999998,111,0x10,0xFF
48.792962312500002,111,0x11,0xFF
48.793068062499998,111,0x82,0xFF
48.793165500000001,111,0x06,0xFF
48.793262875000003,111,0xF7,0xFF
48.793360249999999,111,0x23,0xFF
48.793457687500002,111,0x00,0xFF
48.793555062499998,111,0x09,0xFF
48.793651500000003,111,0x76,0xFF
48.793748874999999,111,0x04,0xFF
48.793846250000001,111,0x0E,0xFF
48.793943687499997,111,0x08,0xFF
48.794058062500000,111,0x04,0xFF
48.794155500000002,111,0x07,0xFF
48.794252874999998,111,0x01,0xFF
48.794350312500001,111,0x80,0xFF
48.794447687500003,111,0xAA,0xFF
48.794545062499999,111,0x6A,0xFF
48.794641812499997,111,0x35,0xFF
48.794739187499999,111,0xA1,0xFF
48.794836625000002,111,0x04,0xFF
48.794933999999998,111,0xC6,0xFF
48.795031437500000,111,0x62,0xFF
48.795136812499997,111,0xB4,0xFF
48.795234250000000,111,0xB8,0xFF
48.795330624999998,111,0x0C,0xFF
48.795427687500002,111,0x9E,0xFF
48.796993749999999,112,0x00,0x10
48.797120499999998,112,0x00,0x06
48.797211875000002,112,0x00,0x08
48.797302937500000,112,0x00,0x00
48.797394375000003,112,0x00,0x00
48.797486062499999,112,0x00,0x09
48.797577124999997,112,0x00,0xFB
48.797668562500000,112,0x00,0xCD
48.797775312500001,112,0x00,0xFF
48.797871999999998,112,0x55,0xFF
48.797968750000003,112,0x04,0xFF
48.798066499999997,112,0x00,0xFF
48.798163250000002,112,0x06,0xFF
48.798259937499999,112,0xB8,0xFF
48.798374000000003,112,0xF1,0xFF
48.803691312500000,113,0x00,0x05
48.803782750000003,113,0x00,0x1B
48.803874125000000,113,0x00,0x05
48.803965187499998,113,0x00,0x68
48.804056937500000,113,0x00,0x0F
48.804147937499998,113,0x00,0x08
48.804239375000002,113,0x00,0x46
48.804331062499998,113,0x00,0xF7
48.804422125000002,113,0x00,0x23
48.804513562499999,113,0x00,0x00
48.804605250000002,113,0x00,0x06
48.804696687499998,113,0x00,0x11
48.804788375000001,113,0x00,0x0E
48.804879437499999,113,0x00,0x07
48.804971187500001,113,0x00,0x04
48.805062249999999,113,0x00,0x05
48.805153625000003,113,0x00,0x01
48.805245374999998,113,0x00,0x80
48.805336437500003,113,0x00,0xAA
48.805436874999998,113,0x00,0x6A
48.805528250000002,113,0x00,0x35
48.805619999999998,113,0x00,0xA1
48.805711375000001,113,0x00,0x04
48.805802749999998,113,0x00,0xC6
48.805894500000001,113,0x00,0x62
48.805985874999998,113,0x00,0x79
48.806077312500001,113,0x00,0xD1
48.806168999999997,113,0x00,0x01
48.806260062500002,113,0x00,0x19
48.806366812500002,113,0x00,0xFF
48.806463562499999,113,0x55,0xFF
48.806560249999997,113,0x04,0xFF
48.806657999999999,113,0x00,0xFF
48.806754750000003,113,0x04,0xFF
48.806851500000000,113,0xFA,0xFF
48.806965562499997,113,0xD1,0xFF
48.814533062499997,114,0x00,0x07
48.814624437500001,114,0x00,0x02
48.814724499999997,114,0x00,0xDA
48.814815875000001,114,0x00,0xA4
48.814922625000001,114,0x00,0xFF
48.815019374999999,114,0x55,0xFF
48.815116437500002,114,0x0D,0xFF
48.815214187499997,114,0x00,0xFF
48.815310937500001,114,0x04,0xFF
48.815408312499997,114,0x00,0xFF
48.815505687500000,114,0x00,0xFF
48.815603125000003,114,0x00,0xFF
48.815700499999998,114,0x00,0xFF
48.815797875000001,114,0x03,0xFF
48.815895312499997,114,0x00,0xFF
48.815992687500000,114,0x01,0xFF
48.816089750000003,114,0x06,0xFF
48.816195499999999,114,0x02,0xFF
48.816291937499997,114,0x9C,0xFF
48.816389000000001,114,0xCF,0xFF
48.817938687500003,115,0x00,0x10
48.818030125000000,115,0x00,0x06
48.818121499999997,115,0x00,0x00
48.818212562500001,115,0x00,0x00
48.818304312499997,115,0x00,0x06
48.818395687500001,115,0x00,0x00
48.818496062500003,115,0x00,0xB7
48.818587500000000,115,0x00,0x73
48.818694187500000,115,0x00,0xFF
48.818790624999998,115,0x55,0xFF
48.818887687500002,115,0x04,0xFF
48.818985437499997,115,0x00,0xFF
48.819082125000001,115,0x04,0xFF
48.819196562499997,115,0xFA,0xFF
48.819310937499999,115,0xD1,0xFF
48.849232687499999,116,0x00,0x07
48.849324062500003,116,0x00,0x02
48.849424124999999,116,0x00,0xDA
48.849515500000003,116,0x00,0xA4
48.849622625000002,116,0x00,0xFF
48.849719312500000,116,0x55,0xFF
48.849816062499997,116,0x0B,0xFF
48.849913812499999,116,0x00,0xFF
48.850010500000003,116,0x06,0xFF
48.850107937499999,116,0x08,0xFF
48.850205312500002,116,0x00,0xFF
48.851305062500003,116,0x06,0xFF
48.851401812500001,116,0x01,0xFF
48.851499187500004,116,0x03,0xFF
48.851596624999999,116,0x00,0xFF
48.851694000000002,116,0x00,0xFF
48.851790749999999,116,0x6A,0xFF
48.851887812500003,116,0x46,0xFF
48.853371125000002,117,0x00,0x10
48.853462562499999,117,0x00,0x06
48.853553625000004,117,0x00,0x08
48.853645000000000,117,0x00,0x00
48.853736374999997,117,0x00,0x00
48.853828125000000,117,0x00,0x00
48.853919500000003,117,0x00,0xD2
48.854010937500000,117,0x00,0x5C
48.854117687500000,117,0x00,0xFF
48.854214374999998,117,0x55,0xFF
48.854311125000002,117,0x04,0xFF
48.854408874999997,117,0x00,0xFF
48.854505937500001,117,0x06,0xFF
48.854602312499999,117,0xB8,0xFF
48.854716750000001,117,0xF1,0xFF
48.856180062500002,118,0x00,0x06
48.856271437499998,118,0x00,0x02
48.856398187499998,118,0x00,0xEB
48.856489250000003,118,0x00,0x97
48.856596375000002,118,0x00,0xFF
48.856693062500000,118,0x55,0xFF
48.856789812499997,118,0x1E,0xFF
48.856887562499999,118,0x00,0xFF
48.856984312500003,118,0x06,0xFF
48.857081687499999,118,0x05,0xFF
48.857179062500002,118,0x68,0xFF
48.857275500000000,118,0x0F,0xFF
48.857381250000003,118,0x08,0xFF
48.857478624999999,118,0x46,0xFF
48.857576000000002,118,0xF7,0xFF
48.857673437499997,118,0x23,0xFF
48.857770812500000,118,0x00,0xFF
48.857868250000003,118,0x23,0xFF
48.857964625000001,118,0x10,0xFF
48.858061999999997,118,0x11,0xFF
48.858159437499999,118,0x82,0xFF
48.858256812500002,118,0x06,0xFF
48.858370874999999,118,0xF7,0xFF
48.858468312500001,118,0x23,0xFF
48.858565687499997,118,0x00,0xFF
48.858663125000000,118,0x0A,0xFF
48.858760500000002,118,0x76,0xFF
48.858857874999998,118,0x04,0xFF
48.858954625000003,118,0x06,0xFF
48.859051999999998,118,0x09,0xFF
48.859149437500001,118,0x04,0xFF
48.859246812499997,118,0x06,0xFF
48.859360875000000,118,0x01,0xFF
48.859458312500003,118,0x11,0xFF
48.859555687499999,118,0xF0,0xFF
48.859652437500003,118,0x53,0xFF
48.859749500000000,118,0x9D,0xFF
48.862275875000002,119,0x00,0x10
48.862393625000003,119,0x00,0x06
48.862485374999999,119,0x00,0x08
48.862576750000002,119,0x00,0x00
48.862668187499999,119,0x00,0x00
48.862759875000002,119,0x00,0x0A
48.862850937499999,119,0x00,0x98
48.862942375000003,119,0x00,0xFD
48.863049062499996,119,0x00,0xFF
48.863145812500001,119,0x55,0xFF
48.863242562499998,119,0x04,0xFF
48.863340312500000,119,0x00,0xFF
48.863436999999998,119,0x06,0xFF
48.863533750000002,119,0xB8,0xFF
48.863647812499998,119,0xF1,0xFF
48.879127687500002,120,0x00,0x07
48.879228124999997,120,0x00,0x02
48.879319500000001,120,0x00,0xDA
48.879410562499999,120,0x00,0xA4
48.879517624999998,120,0x00,0xFF
48.879614375000003,120,0x55,0xFF
48.879711125000000,120,0x0B,0xFF
48.879809187500001,120,0x00,0xFF
48.879905874999999,120,0x06,0xFF
48.880003312500001,120,0x08,0xFF
48.880100687499997,120,0x00,0xFF
48.880198125000000,120,0x11,0xFF
48.880294499999998,120,0x01,0xFF
48.881393562500001,120,0x03,0xFF
48.881490999999997,120,0x00,0xFF
48.881588375000000,120,0x00,0xFF
48.881684749999998,120,0xE4,0xFF
48.881781875000001,120,0x25,0xFF
48.883265187500001,121,0x00,0x10
48.883356562499998,121,0x00,0x06
48.883483312499997,121,0x00,0x08
48.883574750000001,121,0x00,0x00
48.883666437499997,121,0x00,0x00
48.883757875000001,121,0x00,0x00
48.883849249999997,121,0x00,0xD2
48.883940625000001,121,0x00,0x5C
48.884047375000002,121,0x00,0xFF
48.884143812500000,121,0x55,0xFF
48.884240875000003,121,0x04,0xFF
48.884338562499998,121,0x00,0xFF
48.884435312500003,121,0x06,0xFF
48.884532062500000,121,0xB8,0xFF
48.884646125000003,121,0xF1,0xFF
48.886109437499996,122,0x00,0x06
48.886200875000000,122,0x00,0x02
48.886292249999997,122,0x00,0xEB
48.886383312500001,122,0x00,0x97
48.886490062500002,122,0x00,0xFF
48.886586812499999,122,0x55,0xFF
48.886683499999997,122,0x29,0xFF
48.886781249999999,122,0x00,0xFF
48.886878000000003,122,0x06,0xFF
48.886975749999998,122,0x05,0xFF
48.887073125000001,122,0x68,0xFF
48.887170500000003,122,0x0F,0xFF
48.887267937499999,122,0x08,0xFF
48.887365312500002,122,0x46,0xFF
48.887462749999997,122,0xF7,0xFF
48.887560125000000,122,0x23,0xFF
48.887657500000003,122,0x00,0xFF
48.887754937499999,122,0x23,0xFF
48.887852312500002,122,0x10,0xFF
48.887948750000000,122,0x11,0xFF
48.888046125000002,122,0x82,0xFF
48.888143499999998,122,0x06,0xFF
48.888240937500001,122,0xF7,0xFF
48.888338312499997,122,0x23,0xFF
48.888435687499999,122,0x00,0xFF
48.888533125000002,122,0x0B,0xFF
48.888630499999998,122,0x74,0xFF
48.888727937500001,122,0x04,0xFF
48.888825312500003,122,0x11,0xFF
48.888922687499999,122,0x0A,0xFF
48.889019437499996,122,0x01,0xFF
48.889116874999999,122,0x3A,0xFF
48.889214250000002,122,0x01,0xFF
48.889311624999998,122,0x00,0xFF
48.889409062500000,122,0x23,0xFF
48.889505749999998,122,0xF7,0xFF
48.889603187500001,122,0x06,0xFF
48.889700562500003,122,0x82,0xFF
48.889797999999999,122,0x11,0xFF
48.889895375000002,122,0x10,0xFF
48.889992749999998,122,0x23,0xFF
48.890089500000002,122,0x00,0xFF
48.890186937499998,122,0x04,0xFF
48.890284312500000,122,0x00,0xFF
48.891384062500002,122,0xBB,0xFF
48.891498499999997,122,0xF2,0xFF
48.891594875000003,122,0x42,0xFF
48.891692249999998,122,0xA9,0xFF
48.893273687499999,123,0x00,0x10
48.893373750000002,123,0x00,0x06
48.893482812499997,123,0x00,0x08
48.893574562500000,123,0x00,0x00
48.893665937500003,123,0x00,0x00
48.893766374999998,123,0x00,0x0B
48.893857750000002,123,0x00,0xB9
48.893949124999999,123,0x00,0xED
48.894055874999999,123,0x00,0xFF
48.894152624999997,123,0x55,0xFF
48.894249375000001,123,0x04,0xFF
48.894347062500003,123,0x00,0xFF
48.894444125000000,123,0x06,0xFF
48.894549562500004,123,0xB8,0xFF
48.894663937499999,123,0xF1,0xFF
48.901595687499999,124,0x00,0x05
48.901687062500002,124,0x00,0x6D
48.901778812499998,124,0x00,0x05
48.901869875000003,124,0x00,0x68
48.901961249999999,124,0x00,0x0F
48.902053000000002,124,0x00,0x08
48.902144062500000,124,0x00,0x46
48.902235812500003,124,0x00,0xF7
48.902326875000000,124,0x00,0x23
48.902418249999997,124,0x00,0x00
48.902509999999999,124,0x00,0x07
48.902601375000003,124,0x00,0x11
48.902701749999999,124,0x00,0x60
48.902793500000001,124,0x00,0x08
48.902884874999998,124,0x00,0x01
48.902976625000001,124,0x00,0x3B
48.903067687499998,124,0x00,0x00
48.903159062500002,124,0x00,0x23
48.903250499999999,124,0x00,0xF7
48.903342187500002,124,0x00,0x06
48.903433624999998,124,0x00,0x82
48.903525000000002,124,0x00,0x11
48.903616749999998,124,0x00,0x10
48.903716812500001,124,0x00,0x23
48.903808187499997,124,0x00,0x00
48.903899937500000,124,0x00,0x04
48.903991312499997,124,0x00,0x00
48.904091749999999,124,0x00,0x4E
48.904183125000003,124,0x00,0x00
48.904274500000000,124,0x00,0x47
48.904366250000002,124,0x00,0x00
48.904457624999999,124,0x00,0x50
48.904584374999999,124,0x00,0x00
48.904675812500003,124,0x00,0x20
48.904767499999998,124,0x00,0x00
48.904867937500001,124,0x00,0x31
48.904959312499997,124,0x00,0x00
48.905051062500000,124,0x00,0x35
48.905142437499997,124,0x00,0x00
48.905242500000000,124,0x00,0x31
48.905334250000003,124,0x00,0x00
48.905425624999999,124,0x00,0x30
48.905517062500003,124,0x00,0x00
48.905608749999999,124,0x00,0x00
48.905699812500004,124,0x00,0x00
48.905800249999999,124,0x00,0x00
48.905891937500002,124,0x00,0x00
48.905983374999998,124,0x00,0x00
48.906075062500001,124,0x00,0x00
48.906166124999999,124,0x00,0x00
48.906257875000001,124,0x00,0x00
48.906349249999998,124,0x00,0x00
48.906441000000001,124,0x00,0x00
48.906532062499998,124,0x00,0x00
48.906623812500001,124,0x00,0x00
48.906715187499998,124,0x00,0x00
48.906815562500000,124,0x00,0x00
48.906906999999997,124,0x00,0x00
48.906998687500000,124,0x00,0x00
48.907089749999997,124,0x00,0x00
48.907190187499999,124,0x00,0x00
48.907281249999997,124,0x00,0x00
48.907372625000001,124,0x00,0x00
48.907464375000004,124,0x00,0x00
48.907555437500001,124,0x00,0x00
48.907647124999997,124,0x00,0x00
48.907747250000000,124,0x00,0x00
48.907838624999997,124,0x00,0x00
48.907930000000000,124,0x00,0x00
48.908021437499997,124,0x00,0x00
48.908113125000000,124,0x00,0x00
48.908204562500003,124,0x00,0x00
48.908296249999999,124,0x00,0x00
48.908387312499997,124,0x00,0x00
48.908479062500000,124,0x00,0x00
48.908570124999997,124,0x00,0x00
48.908661500000001,124,0x00,0x00
48.908761937500003,124,0x00,0x00
48.908853624999999,124,0x00,0x00
48.908945062500003,124,0x00,0x00
48.909036749999999,124,0x00,0x00
48.909136812500002,124,0x00,0x00
48.909228249999998,124,0x00,0x00
48.909319625000002,124,0x00,0x00
48.909411374999998,124,0x00,0x00
48.909502750000001,124,0x00,0x00
48.909629500000001,124,0x00,0x00
48.909720874999998,124,0x00,0x00
48.909812312500001,124,0x00,0x00
48.909912687499997,124,0x00,0x00
48.910003750000001,124,0x00,0x00
48.910095499999997,124,0x00,0x00
48.910186875000001,124,0x00,0x00
48.910278312499997,124,0x00,0x00
48.911372000000000,124,0x00,0x00
48.911463437499997,124,0x00,0x00
48.911555125000000,124,0x00,0x00
48.911646562500003,124,0x00,0x00
48.911738249999999,124,0x00,0x00
48.911829687500003,124,0x00,0x00
48.911921374999999,124,0x00,0x00
48.912012812500002,124,0x00,0x00
48.912104499999998,124,0x00,0x00
48.912195937500002,124,0x00,0x00
48.912287624999998,124,0x00,0x00
48.912378687500002,124,0x00,0x00
48.912470437499998,124,0x00,0x00
48.912570875000000,124,0x00,0x02
48.912661937499998,124,0x00,0xE1
48.912753625000001,124,0x00,0xA3
48.912853687499997,124,0x00,0x01
48.912960437499997,124,0x00,0xFF
48.913057187500002,124,0x55,0xFF
48.913153937499999,124,0x04,0xFF
48.913251625000001,124,0x00,0xFF
48.913348374999998,124,0x04,0xFF
48.913445125000003,124,0xFA,0xFF
48.913559499999998,124,0xD1,0xFF
48.926054687499999,125,0x00,0x07
48.926146062500003,125,0x00,0x02
48.926246499999998,125,0x00,0xDA
48.926337562500002,125,0x00,0xA4
48.926444625000002,125,0x00,0xFF
48.926541374999999,125,0x55,0xFF
48.926656125000001,125,0x0D,0xFF
48.926753812500003,125,0x00,0xFF
48.926850562500000,125,0x04,0xFF
48.926947937500003,125,0x00,0xFF
48.927045374999999,125,0x00,0xFF
48.927142750000002,125,0x00,0xFF
48.927240187499997,125,0x00,0xFF
48.927337562500000,125,0x03,0xFF
48.927434937500003,125,0x00,0xFF
48.927532062499999,125,0x01,0xFF
48.927637437500003,125,0x07,0xFF
48.927734812499999,125,0x02,0xFF
48.927831249999997,125,0xAD,0xFF
48.927928000000001,125,0xFC,0xFF
48.929386624999999,126,0x00,0x10
48.929478000000003,126,0x00,0x06
48.929569062500001,126,0x00,0x00
48.929669187499996,126,0x00,0x00
48.929760562500000,126,0x00,0x07
48.929852312500003,126,0x00,0x00
48.929952687499998,126,0x00,0x86
48.930043750000003,126,0x00,0x40
48.930150500000003,126,0x00,0xFF
48.930246875000002,126,0x55,0xFF
48.930343937499998,126,0x04,0xFF
48.931444374999998,126,0x00,0xFF
48.931541437500002,126,0x04,0xFF
48.931646812499999,126,0xFA,0xFF
48.931760937500002,126,0xD1,0xFF
48.963307749999998,127,0x00,0x07
48.963407812500002,127,0x00,0x02
48.963499499999998,127,0x00,0xDA
48.963590562500002,127,0x00,0xA4
48.963697625000002,127,0x00,0xFF
48.963820374999997,127,0x55,0xFF
48.963917125000002,127,0x0B,0xFF
48.964014874999997,127,0x00,0xFF
48.964111937500000,127,0x06,0xFF
48.964209312500003,127,0x08,0xFF
48.964306749999999,127,0x00,0xFF
48.964404125000001,127,0x0A,0xFF
48.964500562500000,127,0x01,0xFF
48.964597937500002,127,0x03,0xFF
48.964694312500001,127,0x00,0xFF
48.964800062499997,127,0x00,0xFF
48.964896500000002,127,0x41,0xFF
48.964993562499998,127,0xCD,0xFF
48.966476187500000,128,0x00,0x10
48.966567625000003,128,0x00,0x06
48.966659312499999,128,0x00,0x08
48.966750374999997,128,0x00,0x00
48.966842124999999,128,0x00,0x00
48.966933187499997,128,0x00,0x00
48.967024562500001,128,0x00,0xD2
48.967115999999997,128,0x00,0x5C
48.967222749999998,128,0x00,0xFF
48.967319437500002,128,0x55,0xFF
48.967415875000000,128,0x04,0xFF
48.967513562500002,128,0x00,0xFF
48.967610312500000,128,0x06,0xFF
48.967707062499997,128,0xB8,0xFF
48.967838812499998,128,0xF1,0xFF
48.969302124999999,129,0x00,0x06
48.969393562500002,129,0x00,0x02
48.969484937499999,129,0x00,0xEB
48.969576000000004,129,0x00,0x97
48.969683062500003,129,0x00,0xFF
48.969779812500001,129,0x55,0xFF
48.969876562499998,129,0x22,0xFF
48.969974250000000,129,0x00,0xFF
48.970070999999997,129,0x06,0xFF
48.970168375000000,129,0x05,0xFF
48.970265812500003,129,0x68,0xFF
48.970363187499999,129,0x0F,0xFF
48.971462625000001,129,0x08,0xFF
48.971559999999997,129,0x46,0xFF
48.971657437499999,129,0xF7,0xFF
48.971754812500002,129,0x23,0xFF
48.971851562499999,129,0x00,0xFF
48.971948937500002,129,0x23,0xFF
48.972046374999998,129,0x10,0xFF
48.972143750000001,129,0x11,0xFF
48.972241500000003,129,0x82,0xFF
48.972338874999998,129,0x06,0xFF
48.972435249999997,129,0xF7,0xFF
48.972532687499999,129,0x23,0xFF
48.972630062500002,129,0x00,0xFF
48.972727499999998,129,0x0C,0xFF
48.972841875000000,129,0x76,0xFF
48.972939312500003,129,0x04,0xFF
48.973036687499999,129,0x0A,0xFF
48.973134062500002,129,0x0B,0xFF
48.973231499999997,129,0x04,0xFF
48.973328875000000,129,0x15,0xFF
48.973425312499998,129,0x17,0xFF
48.973522687500001,129,0x0E,0xFF
48.973620062499997,129,0x1A,0xFF
48.973717499999999,129,0x14,0xFF
48.973831875000002,129,0x11,0xFF
48.973929312499997,129,0xF7,0xFF
48.974026687500000,129,0x03,0xFF
48.974123437499998,129,0x27,0xFF
48.974220500000001,129,0xDC,0xFF
48.975765875000000,130,0x00,0x10
48.975857249999997,130,0x00,0x06
48.975948687500001,130,0x00,0x08
48.976048749999997,130,0x00,0x00
48.976140500000000,130,0x00,0x00
48.976231562499997,130,0x00,0x0C
48.976322937500001,130,0x00,0x5E
48.976414312499998,130,0x00,0x9D
48.976521062499998,130,0x00,0xFF
48.976617812500002,130,0x55,0xFF
48.976714500000000,130,0x04,0xFF
48.976812250000002,130,0x00,0xFF
48.976908999999999,130,0x06,0xFF
48.977005749999996,130,0xB8,0xFF
48.977119812500000,130,0xF1,0xFF
48.992957937500002,131,0x00,0x07
48.993049312499998,131,0x00,0x02
48.993140687500002,131,0x00,0xDA
48.993231750000000,131,0x00,0xA4
48.993338874999999,131,0x00,0xFF
48.993435562499997,131,0x55,0xFF
48.993532312500001,131,0x0B,0xFF
48.993630062500003,131,0x00,0xFF
48.993726812500000,131,0x06,0xFF
48.993824187500003,131,0x08,0xFF
48.993921562499999,131,0x00,0xFF
48.994019000000002,131,0x05,0xFF
48.994116374999997,131,0x01,0xFF
48.994213812500000,131,0x03,0xFF
48.994311187500003,131,0x00,0xFF
48.994408562499999,131,0x00,0xFF
48.994505312500003,131,0xB8,0xFF
48.994602374999999,131,0xA8,0xFF
48.996085375000000,132,0x00,0x10
48.996185437500003,132,0x00,0x06
48.996276500000000,132,0x00,0x08
48.996368250000003,132,0x00,0x00
48.996459625000000,132,0x00,0x00
48.996551062499996,132,0x00,0x00
48.996642749999999,132,0x00,0xD2
48.996734187500003,132,0x00,0x5C
48.996840937499996,132,0x00,0xFF
48.996937625000001,132,0x55,0xFF
48.997034374999998,132,0x04,0xFF
48.997132125000000,132,0x00,0xFF
48.997229187499997,132,0x06,0xFF
48.997325562500002,132,0xB8,0xFF
48.997439999999997,132,0xF1,0xFF
48.998902624999999,133,0x00,0x06
48.999002687500003,133,0x00,0x02
48.999094124999999,133,0x00,0xEB
48.999185187499997,133,0x00,0x97
48.999291937499997,133,0x00,0xFF
48.999388625000002,133,0x55,0xFF
48.999485374999999,133,0x1D,0xFF
48.999583125000001,133,0x00,0xFF
48.999680499999997,133,0x06,0xFF
48.999777937499999,133,0x05,0xFF
48.999875312500002,133,0x68,0xFF
48.999972687499998,133,0x0F,0xFF
49.000069437500002,133,0x08,0xFF
49.000166812499998,133,0x46,0xFF
49.000264250000001,133,0xF7,0xFF
49.000361624999996,133,0x23,0xFF
49.000459062499999,133,0x00,0xFF
49.001557812500003,133,0x23,0xFF
49.001655187499999,133,0x10,0xFF
49.001752562500002,133,0x11,0xFF
49.001849999999997,133,0x82,0xFF
49.001947375000000,133,0x06,0xFF
49.002044812500003,133,0xF7,0xFF
49.002142187499999,133,0x23,0xFF
49.002239562500002,133,0x00,0xFF
49.002336999999997,133,0x0D,0xFF
49.002433750000002,133,0x76,0xFF
49.002531124999997,133,0x04,0xFF
49.002628500000000,133,0x05,0xFF
49.002725937500003,133,0x0C,0xFF
49.002823312499999,133,0x04,0xFF
49.002919749999997,133,0x09,0xFF
49.003017125000000,133,0xE4,0xFF
49.003114500000002,133,0x10,0xFF
49.003210937500000,133,0x5C,0xFF
49.003307999999997,133,0x22,0xFF
49.004827687499997,134,0x00,0x10
49.004919062500001,134,0x00,0x06
49.005010124999998,134,0x00,0x08
49.005101875000001,134,0x00,0x00
49.005193249999998,134,0x00,0x00
49.005293312500001,134,0x00,0x0D
49.005385062499997,134,0x00,0x7F
49.005476125000001,134,0x00,0x8D
49.005582875000002,134,0x00,0xFF
49.005679624999999,134,0x55,0xFF
49.005776312499997,134,0x04,0xFF
49.005874062499998,134,0x00,0xFF
49.005988500000001,134,0x06,0xFF
49.006086187500003,134,0xB8,0xFF
49.006200312499999,134,0xF1,0xFF
49.009734687500000,135,0x00,0x05
49.009826124999996,135,0x00,0x12
49.009917500000000,135,0x00,0x05
49.010017562500003,135,0x00,0x68
49.010109312499999,135,0x00,0x0F
49.010200374999997,135,0x00,0x08
49.010292062500000,135,0x00,0x46
49.010383500000003,135,0x00,0xF7
49.010474875000000,135,0x00,0x23
49.011568625000002,135,0x00,0x00
49.011659687500000,135,0x00,0x08
49.011760062500002,135,0x00,0x11
49.011851499999999,135,0x00,0x05
49.011942875000003,135,0x00,0x09
49.012034249999999,135,0x00,0x04
49.012126000000002,135,0x00,0x0D
49.012217374999999,135,0x00,0x4F
49.012308812500002,135,0x00,0x64
49.012399875000000,135,0x00,0x95
49.012492250000001,135,0x00,0xD4
49.012599000000002,135,0x00,0xFF
49.012695749999999,135,0x55,0xFF
49.012792437500003,135,0x04,0xFF
49.012890187499998,135,0x00,0xFF
49.013013624999999,135,0x04,0xFF
49.013111312500001,135,0xFA,0xFF
49.013225437499997,135,0xD1,0xFF
49.022025437499998,136,0x00,0x07
49.022116812500002,136,0x00,0x02
49.022208187499999,136,0x00,0xDA
49.022299250000003,136,0x00,0xA4
49.022406312500003,136,0x00,0xFF
49.022503062500000,136,0x55,0xFF
49.022599812499998,136,0x0D,0xFF
49.022697562499999,136,0x00,0xFF
49.022794249999997,136,0x04,0xFF
49.022891687500000,136,0x00,0xFF
49.022989062500002,136,0x00,0xFF
49.023086437499998,136,0x00,0xFF
49.023183875000001,136,0x00,0xFF
49.023281249999997,136,0x03,0xFF
49.023378687499999,136,0x00,0xFF
49.023476062500002,136,0x01,0xFF
49.023572812499999,136,0x08,0xFF
49.023670187500002,136,0x02,0xFF
49.023766625000000,136,0x93,0xFF
49.023863687499997,136,0xEC,0xFF
49.025322312500002,137,0x00,0x10
49.025413749999998,137,0x00,0x06
49.025504750000003,137,0x00,0x00
49.025596187500000,137,0x00,0x00
49.025687875000003,137,0x00,0x08
49.025779312499999,137,0x00,0x00
49.025870687500003,137,0x00,0xB8
49.025962062500000,137,0x00,0x50
49.026068812500000,137,0x00,0xFF
49.026165249999998,137,0x55,0xFF
49.026261937500003,137,0x04,0xFF
49.026359687499998,137,0x00,0xFF
49.026456437500002,137,0x04,0xFF
49.026553187499999,137,0xFA,0xFF
49.026667250000003,137,0xD1,0xFF
49.054045937500000,138,0x00,0x07
49.054137312500004,138,0x00,0x02
49.054246374999998,138,0x00,0xDA
49.054337437500003,138,0x00,0xA4
49.054444187500003,138,0x00,0xFF
49.054540937500001,138,0x55,0xFF
49.054638312500003,138,0x0B,0xFF
49.054736062499998,138,0x00,0xFF
49.054832812500003,138,0x06,0xFF
49.054930187499998,138,0x08,0xFF
49.055027562500001,138,0x00,0xFF
49.055123999999999,138,0x06,0xFF
49.055238375000002,138,0x01,0xFF
49.055335812499997,138,0x03,0xFF
49.055433187500000,138,0x00,0xFF
49.055530562500003,138,0x00,0xFF
49.055627000000001,138,0x6A,0xFF
49.055724062499998,138,0x46,0xFF
49.057207374999997,139,0x00,0x10
49.057298812500001,139,0x00,0x06
49.057390499999997,139,0x00,0x08
49.057481937500000,139,0x00,0x00
49.057573625000003,139,0x00,0x00
49.057665062500000,139,0x00,0x00
49.057765125000003,139,0x00,0xD2
49.057856500000000,139,0x00,0x5C
49.057963250000000,139,0x00,0xFF
49.058059999999998,139,0x55,0xFF
49.058156687500002,139,0x04,0xFF
49.058254437499997,139,0x00,0xFF
49.058351187500001,139,0x06,0xFF
49.058447937499999,139,0xB8,0xFF
49.058562000000002,139,0xF1,0xFF
49.060025312500002,140,0x00,0x06
49.060116749999999,140,0x00,0x02
49.060216812500002,140,0x00,0xEB
49.060307874999999,140,0x00,0x97
49.060414562500000,140,0x00,0xFF
49.060511312499997,140,0x55,0xFF
49.061585375000000,140,0x1E,0xFF
49.061683125000002,140,0x00,0xFF
49.061780187499998,140,0x06,0xFF
49.061877562500001,140,0x05,0xFF
49.061974999999997,140,0x68,0xFF
49.062072375000000,140,0x0F,0xFF
49.062168812499998,140,0x08,0xFF
49.062274187500002,140,0x46,0xFF
49.062371562499997,140,0xF7,0xFF
49.062469000000000,140,0x23,0xFF
49.062566375000003,140,0x00,0xFF
49.062663812499999,140,0x23,0xFF
49.062761187500001,140,0x10,0xFF
49.062857937499999,140,0x11,0xFF
49.062955312500002,140,0x82,0xFF
49.063052749999997,140,0x06,0xFF
49.063150125000000,140,0xF7,0xFF
49.063264187500003,140,0x23,0xFF
49.063361624999999,140,0x00,0xFF
49.063459000000002,140,0x0E,0xFF
49.063556374999997,140,0x76,0xFF
49.063653812500000,140,0x04,0xFF
49.063751187500003,140,0x06,0xFF
49.063847937500000,140,0x0D,0xFF
49.063945312500003,140,0x04,0xFF
49.064042749999999,140,0x12,0xFF
49.064140125000002,140,0x01,0xFF
49.064254187499998,140,0x14,0xFF
49.064351625000000,140,0xB6,0xFF
49.064447999999999,140,0x66,0xFF
49.064544374999997,140,0x30,0xFF
49.066069124999999,141,0x00,0x10
49.066160500000002,141,0x00,0x06
49.066260562499998,141,0x00,0x08
49.066352312500001,141,0x00,0x00
49.066443687499998,141,0x00,0x00
49.066544125000000,141,0x00,0x0E
49.066635499999997,141,0x00,0x1C
49.066726875000001,141,0x00,0xBD
49.066833625000001,141,0x00,0xFF
49.066930374999998,141,0x55,0xFF
49.067027125000003,141,0x04,0xFF
49.067124812499998,141,0x00,0xFF
49.067248249999999,141,0x06,0xFF
49.067344624999997,141,0xB8,0xFF
49.067458750000000,141,0xF1,0xFF
49.070091875000003,142,0x00,0x0E
49.070183249999999,142,0x00,0x0B
49.070274625000003,142,0x00,0x01
49.070365687500001,142,0x00,0x00
49.070457124999997,142,0x00,0x00
49.070548500000001,142,0x00,0x00
49.071617250000003,142,0x00,0x00
49.071708624999999,142,0x00,0x00
49.071800000000003,142,0x00,0x00
49.071891749999999,142,0x00,0x00
49.071982812500003,142,0x00,0x00
49.072074562499999,142,0x00,0xD2
49.072165624999997,142,0x00,0x97
49.072281375000003,142,0x00,0xFF
49.072378062500000,142,0x55,0xFF
49.072474812499998,142,0x04,0xFF
49.072572562500000,142,0x00,0xFF
49.072669625000003,142,0x04,0xFF
49.072766000000001,142,0xFA,0xFF
49.072880437499997,142,0xD1,0xFF
56.326713062499998,143,0x00,0x07
56.326804500000001,143,0x00,0x02
56.326896187499997,143,0x00,0xDA
56.326987250000002,143,0x00,0xA4
56.327094375000001,143,0x00,0xFF
56.327191062499999,143,0x55,0xFF
56.327287812500003,143,0x0B,0xFF
56.327385562499998,143,0x00,0xFF
56.327482250000003,143,0x02,0xFF
56.327579687499998,143,0x08,0xFF
56.327677062500001,143,0x00,0xFF
56.327774499999997,143,0x05,0xFF
56.327871875000000,143,0x01,0xFF
56.327969250000002,143,0x03,0xFF
56.328066687499998,143,0x00,0xFF
56.328164062500001,143,0x00,0xFF
56.328260499999999,143,0xD5,0xFF
56.328357562500003,143,0xA7,0xFF
56.329840875000002,144,0x00,0x10
56.329932312499999,144,0x00,0x06
56.330023375000003,144,0x00,0x08
56.330115062499999,144,0x00,0x00
56.330206124999997,144,0x00,0x00
56.331297187499999,144,0x00,0x00
56.331388625000002,144,0x00,0xD2
56.331479999999999,144,0x00,0x5C
56.331586750000000,144,0x00,0xFF
56.331683812500003,144,0x55,0xFF
56.331780875000000,144,0x04,0xFF
56.331878937500001,144,0x00,0xFF
56.331975999999997,144,0x02,0xFF
56.332072437500003,144,0x3C,0xFF
56.332186812499998,144,0xB1,0xFF
56.333650187499998,145,0x00,0x06
56.333741562500002,145,0x00,0x02
56.333833312499998,145,0x00,0xEB
56.333924375000002,145,0x00,0x97
56.334031437500002,145,0x00,0xFF
56.334128124999999,145,0x55,0xFF
56.334224874999997,145,0x1D,0xFF
56.334322937499998,145,0x00,0xFF
56.334420375000001,145,0x02,0xFF
56.334517750000003,145,0x05,0xFF
56.334614812500000,145,0x68,0xFF
56.334712187500003,145,0x0F,0xFF
56.334809624999998,145,0x08,0xFF
56.334907000000001,145,0x46,0xFF
56.335004437499997,145,0xF7,0xFF
56.335101812500000,145,0x23,0xFF
56.335199187500002,145,0x00,0xFF
56.335296624999998,145,0x23,0xFF
56.335394000000001,145,0x10,0xFF
56.335491437500004,145,0x11,0xFF
56.335588812499999,145,0x82,0xFF
56.335686187500002,145,0x06,0xFF
56.335783624999998,145,0xF7,0xFF
56.335881000000001,145,0x23,0xFF
56.335978437500003,145,0x00,0xFF
56.336075812499999,145,0x0F,0xFF
56.336173187500002,145,0x79,0xFF
56.336270624999997,145,0x04,0xFF
56.336368000000000,145,0x05,0xFF
56.336465437500003,145,0x0E,0xFF
56.336562499999999,145,0x04,0xFF
56.336659875000002,145,0x22,0xFF
56.336756250000001,145,0x1F,0xFF
56.336853687500003,145,0x79,0xFF
56.336950062500001,145,0x3F,0xFF
56.337047124999998,145,0xAC,0xFF
56.338566874999998,146,0x00,0x10
56.338658250000002,146,0x00,0x06
56.338749624999998,146,0x00,0x08
56.338841062500002,146,0x00,0x00
56.338932437499999,146,0x00,0x00
56.339024187500002,146,0x00,0x0F
56.339124249999998,146,0x00,0x3D
56.339215625000001,146,0x00,0xAD
56.339322375000002,146,0x00,0xFF
56.339419124999999,146,0x55,0xFF
56.339515812499997,146,0x04,0xFF
56.339613562499999,146,0x00,0xFF
56.339710312500003,146,0x02,0xFF
56.339807000000000,146,0x3C,0xFF
56.339921124999996,146,0xB1,0xFF
56.344070625000001,147,0x00,0x0E
56.344161999999997,147,0x00,0x0B
56.344253375000001,147,0x00,0x02
56.344344437499998,147,0x00,0x00
56.344436187500001,147,0x00,0x00
56.344527562499998,147,0x00,0x00
56.344619312500001,147,0x00,0x00
56.344710687499997,147,0x00,0x00
56.344802437500000,147,0x00,0x00
56.344893499999998,147,0x00,0x00
56.344984875000002,147,0x00,0x00
56.345076312499998,147,0x00,0x96
56.345167687500002,147,0x00,0xBA
56.345274437500002,147,0x00,0xFF
56.345371187500000,147,0x55,0xFF
56.345468562500002,147,0x04,0xFF
56.345566312499997,147,0x00,0xFF
56.345663000000002,147,0x00,0xFF
56.345759749999999,147,0x7E,0xFF
56.345873812500002,147,0x91,0xFF
56.347964249999997,148,0x00,0x05
56.348055687500000,148,0x00,0x13
56.348146687499998,148,0x00,0x05
56.348238125000002,148,0x00,0x68
56.348329499999998,148,0x00,0x0F
56.348420875000002,148,0x00,0x08
56.348512312499999,148,0x00,0x46
56.348604000000002,148,0x00,0xF7
56.348695437499998,148,0x00,0x23
56.348787125000001,148,0x00,0x00
56.348878562499998,148,0x00,0x09
56.348969937500001,148,0x00,0x11
56.349061687499997,148,0x00,0x06
56.349153062500001,148,0x00,0x80
56.349253500000003,148,0x00,0x04
56.349344562500001,148,0x00,0x12
56.349436249999997,148,0x00,0x00
56.349527312500001,148,0x00,0xE0
56.349619062499997,148,0x00,0x29
56.349710437500001,148,0x00,0x69
56.349801874999997,148,0x00,0xDD
56.349908562499998,148,0x00,0xFF
56.350005312500002,148,0x55,0xFF
56.350102062500000,148,0x04,0xFF
56.350200437500000,148,0x00,0xFF
56.351299562500003,148,0x04,0xFF
56.351396250000001,148,0xFA,0xFF
56.351510374999997,148,0xD1,0xFF
58.290128187500002,149,0x00,0x07
58.290219562499999,149,0x00,0x02
58.290319687500002,149,0x00,0xDA
58.290411062499999,149,0x00,0xA4
58.290517812499999,149,0x00,0xFF
58.290614499999997,149,0x55,0xFF
58.290711250000001,149,0x0D,0xFF
58.290809312500002,149,0x00,0xFF
58.290906374999999,149,0x04,0xFF
58.291003812500001,149,0x00,0xFF
58.291101187499997,149,0x00,0xFF
58.291198625000000,149,0x00,0xFF
58.291296000000003,149,0x00,0xFF
58.291393374999998,149,0x03,0xFF
58.291490812500001,149,0x00,0xFF
58.291588187499997,149,0x01,0xFF
58.291685562500000,149,0x09,0xFF
58.291782312499997,149,0x02,0xFF
58.291878750000002,149,0xA2,0xFF
58.291975812499999,149,0xDF,0xFF
58.294436812500003,150,0x00,0x10
58.294528187499999,150,0x00,0x06
58.294654937499999,150,0x00,0x00
58.294746375000003,150,0x00,0x00
58.294837749999999,150,0x00,0x09
58.294929125000003,150,0x00,0x00
58.295020562500000,150,0x00,0x89
58.295111937500003,150,0x00,0x63
58.295218687499997,150,0x00,0xFF
58.295315062500002,150,0x55,0xFF
58.295411812499999,150,0x04,0xFF
58.295509562500001,150,0x00,0xFF
58.295606249999999,150,0x04,0xFF
58.295703000000003,150,0xFA,0xFF
58.295817062499999,150,0xD1,0xFF
58.607090499999998,151,0x00,0x05
58.607181875000002,151,0x00,0x12
58.607281937499998,151,0x00,0x05
58.607373687500001,151,0x00,0x68
58.607465062499998,151,0x00,0x0F
58.607556812500000,151,0x00,0x08
58.607656875000004,151,0x00,0x46
58.607748250000000,151,0x00,0xF7
58.607840000000003,151,0x00,0x23
58.607931375000000,151,0x00,0x00
58.608022812500003,151,0x00,0x0A
58.608114187500000,151,0x00,0x11
58.608214562500002,151,0x00,0x05
58.608305625000000,151,0x00,0x01
58.608397375000003,151,0x00,0x01
58.608488749999999,151,0x00,0x38
58.608580187500003,151,0x00,0x7F
58.608671562500000,151,0x00,0xC6
58.608762937500003,151,0x00,0x33
58.608854375000000,151,0x00,0x5B
58.608961125000000,151,0x00,0xFF
58.609057812499998,151,0x55,0xFF
58.609154562500002,151,0x04,0xFF
58.609252312499997,151,0x00,0xFF
58.609349000000002,151,0x04,0xFF
58.609445749999999,151,0xFA,0xFF
58.609559812500002,151,0xD1,0xFF
58.617278437499998,152,0x00,0x07
58.617369812500002,152,0x00,0x02
58.617469874999998,152,0x00,0xDA
58.617561312500001,152,0x00,0xA4
58.617668062500002,152,0x00,0xFF
58.617764749999999,152,0x55,0xFF
58.617861499999997,152,0x0D,0xFF
58.617959249999998,152,0x00,0xFF
58.618055937500003,152,0x04,0xFF
58.618153374999999,152,0x00,0xFF
58.618250750000001,152,0x00,0xFF
58.618348187499997,152,0x00,0xFF
58.618445562500000,152,0x00,0xFF
58.618542937500003,152,0x03,0xFF
58.618640374999998,152,0x00,0xFF
58.618737750000001,152,0x01,0xFF
58.618834499999998,152,0x0A,0xFF
58.618931875000001,152,0x02,0xFF
58.619028312499999,152,0xF1,0xFF
58.619125375000003,152,0x8A,0xFF
58.620584000000001,153,0x00,0x10
58.620675437499997,153,0x00,0x06
58.620766500000002,153,0x00,0x00
58.620858187499998,153,0x00,0x00
58.620949625000002,153,0x00,0x0A
58.621058687500003,153,0x00,0x00
58.621150437499999,153,0x00,0xDA
58.621241499999996,153,0x00,0x36
58.621348187499997,153,0x00,0xFF
58.621445625000000,153,0x55,0xFF
58.621542374999997,153,0x04,0xFF
58.621640437499998,153,0x00,0xFF
58.621737125000003,153,0x04,0xFF
58.621833875000000,153,0xFA,0xFF
58.621947937500003,153,0xD1,0xFF
58.660648000000002,154,0x00,0x07
58.660748062499998,154,0x00,0x02
58.660839500000002,154,0x00,0xDA
58.660930562499999,154,0x00,0xA4
58.661037624999999,154,0x00,0xFF
58.661134375000003,154,0x55,0xFF
58.661239750000000,154,0x0B,0xFF
58.661337500000002,154,0x00,0xFF
58.661434562499998,154,0x06,0xFF
58.661531937500001,154,0x08,0xFF
58.661628999999998,154,0x00,0xFF
58.661726062500001,154,0x46,0xFF
58.661823499999997,154,0x01,0xFF
58.661920875000000,154,0x03,0xFF
58.662018312500003,154,0x00,0xFF
58.662114687500001,154,0x00,0xFF
58.662229125000003,154,0x02,0xFF
58.662326187500000,154,0x57,0xFF
58.664811874999998,155,0x00,0x10
58.664903250000002,155,0x00,0x06
58.664994312499999,155,0x00,0x08
58.665086062500002,155,0x00,0x00
58.665177125000000,155,0x00,0x00
58.665268500000003,155,0x00,0x00
58.665360249999999,155,0x00,0xD2
58.665451937500002,155,0x00,0x5C
58.665558687500003,155,0x00,0xFF
58.665655437500000,155,0x55,0xFF
58.665751812499998,155,0x04,0xFF
58.665849562500000,155,0x00,0xFF
58.665946312499997,155,0x06,0xFF
58.666043062500002,155,0xB8,0xFF
58.666157124999998,155,0xF1,0xFF
58.667620437499998,156,0x00,0x06
58.667720812500001,156,0x00,0x02
58.667812249999997,156,0x00,0xEB
58.667903312500002,156,0x00,0x97
58.668010375000001,156,0x00,0xFF
58.668107124999999,156,0x55,0xFF
58.668204187500002,156,0x5E,0xFF
58.668302250000004,156,0x00,0xFF
58.668399624999999,156,0x06,0xFF
58.668497062500002,156,0x05,0xFF
58.668594437499998,156,0x68,0xFF
58.668691812500001,156,0x0F,0xFF
58.668788249999999,156,0x08,0xFF
58.668885625000001,156,0x46,0xFF
58.668983062499997,156,0xF7,0xFF
58.669080437500000,156,0x23,0xFF
58.669177812500003,156,0x00,0xFF
58.669275249999998,156,0x23,0xFF
58.669372625000001,156,0x10,0xFF
58.669470062499997,156,0x11,0xFF
58.669567437500000,156,0x82,0xFF
58.669664812500002,156,0x06,0xFF
58.669762249999998,156,0xF7,0xFF
58.669859625000001,156,0x23,0xFF
58.669957062500004,156,0x00,0xFF
58.670054437499999,156,0x10,0xFF
58.670151187499997,156,0x80,0xFF
58.670265562499999,156,0x04,0xFF
58.670363000000002,156,0x46,0xFF
58.670460374999998,156,0x01,0xFF
58.670557750000000,156,0x01,0xFF
58.670655187500003,156,0x39,0xFF
58.670752562499999,156,0x4C,0xFF
58.670850000000002,156,0x3F,0xFF
58.670947374999997,156,0x00,0xFF
58.671044750000000,156,0x01,0xFF
58.671141499999997,156,0x00,0xFF
58.671238937500000,156,0x00,0xFF
58.671335999999997,156,0x00,0xFF
58.671433374999999,156,0x00,0xFF
58.671530750000002,156,0x03,0xFF
58.671628187499998,156,0xE8,0xFF
58.671725562500001,156,0x00,0xFF
58.671823000000003,156,0x00,0xFF
58.671920374999999,156,0x00,0xFF
58.672017750000002,156,0x00,0xFF
58.672115187499998,156,0x00,0xFF
58.672211937500002,156,0x00,0xFF
58.672326312499997,156,0x14,0xFF
58.672423750000000,156,0x00,0xFF
58.672521125000003,156,0x02,0xFF
58.672618499999999,156,0x71,0xFF
58.672714937499997,156,0x00,0xFF
58.672812312500000,156,0x00,0xFF
58.672908749999998,156,0x00,0xFF
58.673006125000001,156,0x52,0xFF
58.673103500000003,156,0x08,0xFF
58.673200937499999,156,0x00,0xFF
58.673315312500002,156,0x0E,0xFF
58.674414749999997,156,0x01,0xFF
58.674512125000000,156,0x00,0xFF
58.674609562500002,156,0x00,0xFF
58.674706937499998,156,0x00,0xFF
58.674804375000001,156,0x00,0xFF
58.674901749999997,156,0x01,0xFF
58.674999124999999,156,0x00,0xFF
58.675096562500002,156,0xF0,0xFF
58.675192937500000,156,0x02,0xFF
58.675298687500003,156,0x01,0xFF
58.675396062499999,156,0x04,0xFF
58.675493500000002,156,0x01,0xFF
58.675590874999997,156,0x00,0xFF
58.675688312500000,156,0x00,0xFF
58.675785687500003,156,0x05,0xFF
58.675882062500001,156,0x0F,0xFF
58.675979499999997,156,0x00,0xFF
58.676076875000000,156,0x01,0xFF
58.676174312500002,156,0x01,0xFF
58.676288374999999,156,0x01,0xFF
58.676385750000001,156,0x01,0xFF
58.676483187499997,156,0x00,0xFF
58.676579562500002,156,0x3C,0xFF
58.676676937499998,156,0x14,0xFF
58.676774375000001,156,0x48,0xFF
58.676871062499998,156,0x01,0xFF
58.676968500000001,156,0x00,0xFF
58.677065874999997,156,0x00,0xFF
58.677163312499999,156,0x00,0xFF
58.677260687500002,156,0x00,0xFF
58.677366124999999,156,0x00,0xFF
58.677463500000002,156,0x00,0xFF
58.677560874999998,156,0x00,0xFF
58.677658312500000,156,0x00,0xFF
58.677755687500003,156,0x00,0xFF
58.677853124999999,156,0x00,0xFF
58.677950500000001,156,0x00,0xFF
58.678047874999997,156,0x01,0xFF
58.678145312500000,156,0x71,0xFF
58.678242375000004,156,0xA6,0xFF
58.678356437500000,156,0x10,0xFF
58.678453500000003,156,0x9E,0xFF
58.680309125000001,157,0x00,0x10
58.680400499999998,157,0x00,0x06
58.680491562500002,157,0x00,0x08
58.680583312499998,157,0x00,0x00
58.680674375000002,157,0x00,0x00
58.680766062499998,157,0x00,0x10
58.680866125000001,157,0x00,0xE3
58.680957187499999,157,0x00,0x4E
58.681063937499999,157,0x00,0xFF
58.681160374999997,157,0x55,0xFF
58.681257062500002,157,0x04,0xFF
58.681354812499997,157,0x00,0xFF
58.681451562500001,157,0x06,0xFF
58.681548624999998,157,0xB8,0xFF
58.681662687500001,157,0xF1,0xFF
58.686784187500002,158,0x00,0x03
58.686875562499999,158,0x00,0x1C
58.686975687500002,158,0x00,0x01
58.687067374999998,158,0x00,0x17
58.687158812500002,158,0x00,0xFF
58.687250499999998,158,0x00,0xFF
58.687341562500002,158,0x00,0x00
58.687433312499998,158,0x00,0x07
58.687533375000001,158,0x00,0x00
58.687624749999998,158,0x00,0x00
58.687716187500001,158,0x00,0x00
58.687807562499998,158,0x00,0x02
58.687899312500001,158,0x00,0x23
58.687990687499997,158,0x00,0x10
58.688082437500000,158,0x00,0x11
58.688173499999998,158,0x00,0x82
58.688265187500001,158,0x00,0x06
58.688356249999998,158,0x00,0xF7
58.688447687500002,158,0x00,0x23
58.688548062499997,158,0x00,0x00
58.688639812500000,158,0x00,0x05
58.688731187499997,158,0x00,0x68
58.688822562500000,158,0x00,0x0F
58.688922624999996,158,0x00,0x08
58.689014062500000,158,0x00,0x46
58.689105750000003,158,0x00,0xF7
58.689196812500001,158,0x00,0x23
58.689288249999997,158,0x00,0x00
58.689414999999997,158,0x00,0x83
58.689506062500001,158,0x00,0xE8
58.689612812500002,158,0x00,0xFF
58.689709874999998,158,0x55,0xFF
58.689806562500003,158,0x04,0xFF
58.689904312499998,158,0x00,0xFF
58.690001062500002,158,0x04,0xFF
58.690097812499999,158,0xFA,0xFF
58.690211875000003,158,0xD1,0xFF
60.755733312499999,159,0x00,0x07
60.755824687500002,159,0x00,0x02
60.755915750000000,159,0x00,0xDA
60.756007124999996,159,0x00,0xA4
60.756113874999997,159,0x00,0xFF
60.757212312500002,159,0x55,0xFF
60.757308999999999,159,0x0B,0xFF
60.757406750000001,159,0x00,0xFF
60.757503812499998,159,0x04,0xFF
60.757601250000000,159,0x01,0xFF
60.757698625000003,159,0x00,0xFF
60.757795999999999,159,0x00,0xFF
60.757893437500002,159,0x00,0xFF
60.757990812499997,159,0x03,0xFF
60.758088250000000,159,0x00,0xFF
60.758184937499998,159,0x00,0xFF
60.758281687500002,159,0x31,0xFF
60.758387124999999,159,0x59,0xFF
60.759858437500000,160,0x00,0x10
60.759949812499997,160,0x00,0x06
60.760041250000000,160,0x00,0x01
60.760141312499997,160,0x00,0x00
60.760232687500000,160,0x00,0x00
60.760324062499997,160,0x00,0x00
60.760415500000001,160,0x00,0xA5
60.760506874999997,160,0x00,0xAF
60.760613624999998,160,0x00,0xFF
60.760710375000002,160,0x55,0xFF
60.760807062500000,160,0x04,0xFF
60.760904812500002,160,0x00,0xFF
60.761001562499999,160,0x04,0xFF
60.761098312500003,160,0xFA,0xFF
60.761212374999999,160,0xD1,0xFF
60.762778437500003,161,0x00,0x08
60.762878499999999,161,0x00,0x03
60.762970250000002,161,0x00,0x00
60.763061624999999,161,0x00,0x6E
60.763153000000003,161,0x00,0x30
60.763259750000003,161,0x00,0xFF
60.763356500000000,161,0x55,0xFF
60.763453249999998,161,0x2C,0xFF
60.763550937500000,161,0x00,0xFF
60.763648000000003,161,0x04,0xFF
60.763745437499999,161,0x05,0xFF
60.763842187500003,161,0x68,0xFF
60.763939562499999,161,0x0F,0xFF
60.764036937500002,161,0x08,0xFF
60.764133999999999,161,0x46,0xFF
60.764231062500002,161,0x02,0xFF
60.764328499999998,161,0x05,0xFF
60.764425875000001,161,0x68,0xFF
60.764523312500003,161,0x0F,0xFF
60.764620687499999,161,0x08,0xFF
60.764718062500002,161,0x46,0xFF
60.764815499999997,161,0xF7,0xFF
60.764912250000002,161,0x23,0xFF
60.765009624999998,161,0x00,0xFF
60.765107000000000,161,0x82,0xFF
60.765204437500003,161,0x00,0xFF
60.765301812499999,161,0x00,0xFF
60.765398562500003,161,0x00,0xFF
60.765495937499999,161,0x00,0xFF
60.765593375000002,161,0x00,0xFF
60.765690749999997,161,0x07,0xFF
60.765788125000000,161,0x00,0xFF
60.765885249999997,161,0x83,0xFF
60.765981937500001,161,0x23,0xFF
60.766079374999997,161,0x10,0xFF
60.767179124999998,161,0x11,0xFF
60.767275812500003,161,0x82,0xFF
60.767390249999998,161,0x06,0xFF
60.767487625000001,161,0xF7,0xFF
60.767585062499997,161,0x23,0xFF
60.767682437500000,161,0x00,0xFF
60.767779875000002,161,0x42,0xFF
60.767877249999998,161,0x00,0xFF
60.767974625000001,161,0x00,0xFF
60.768072062500003,161,0x00,0xFF
60.768169437499999,161,0x00,0xFF
60.768265874999997,161,0x00,0xFF
60.768380562499999,161,0x00,0xFF
60.768478000000002,161,0x00,0xFF
60.768575374999998,161,0x17,0xFF
60.768671812500003,161,0x40,0xFF
60.768768874999999,161,0x47,0xFF
60.773481062499997,162,0x00,0x05
60.773572500000000,162,0x00,0x13
60.773672875000003,162,0x00,0x05
60.773764249999999,162,0x00,0x68
60.773855687500003,162,0x00,0x0F
60.773947374999999,162,0x00,0x08
60.774038812500002,162,0x00,0x46
60.774130499999998,162,0x00,0xF7
60.774221937500002,162,0x00,0x23
60.774313624999998,162,0x00,0x00
60.774405062500001,162,0x00,0x0B
60.774496437499998,162,0x00,0x11
60.774587812500002,162,0x00,0x06
60.774688249999997,162,0x00,0x80
60.774779625000001,162,0x00,0x04
60.774871374999996,162,0x00,0x12
60.774962750000000,162,0x00,0x01
60.775054500000003,162,0x00,0xF0
60.775145562500001,162,0x00,0x08
60.775236937499997,162,0x00,0x0E
60.775328312500001,162,0x00,0x1B
60.775435062500001,162,0x00,0xFF
60.775531812499999,162,0x55,0xFF
60.775628562500003,162,0x04,0xFF
60.775726624999997,162,0x00,0xFF
60.775823312500002,162,0x04,0xFF
60.775920062499999,162,0xFA,0xFF
60.776034125000002,162,0xD1,0xFF
60.783563624999999,163,0x00,0x07
60.783655000000003,163,0x00,0x02
60.783755437499998,163,0x00,0xDA
60.783846500000003,163,0x00,0xA4
60.783953562500002,163,0x00,0xFF
60.784050312500000,163,0x55,0xFF
60.784147375000003,163,0x0D,0xFF
60.784245062499998,163,0x00,0xFF
60.784341812500003,163,0x04,0xFF
60.784456562499997,163,0x00,0xFF
60.784553937500000,163,0x00,0xFF
60.784651375000003,163,0x00,0xFF
60.784748749999999,163,0x00,0xFF
60.784846187500001,163,0x03,0xFF
60.784943562499997,163,0x00,0xFF
60.785040625000001,163,0x01,0xFF
60.785138000000003,163,0x0B,0xFF
60.785235437499999,163,0x02,0xFF
60.785331812499997,163,0xC0,0xFF
60.785455249999998,163,0xB9,0xFF
60.787913562500002,164,0x00,0x10
60.788004999999998,164,0x00,0x06
60.788096687500001,164,0x00,0x00
60.788187749999999,164,0x00,0x00
60.788288187500001,164,0x00,0x0B
60.788379937499997,164,0x00,0x00
60.788480000000000,164,0x00,0xEB
60.788571374999997,164,0x00,0x05
60.788678124999997,164,0x00,0xFF
60.788774812500002,164,0x55,0xFF
60.788871937499998,164,0x04,0xFF
60.788969625000000,164,0x00,0xFF
60.789066374999997,164,0x04,0xFF
60.789163125000002,164,0xFA,0xFF
60.789277187499998,164,0xD1,0xFF
61.099570562499999,165,0x00,0x0E
61.099662000000002,165,0x00,0x0B
61.099753062500000,165,0x00,0x01
61.099931812500003,165,0x00,0x00
61.100023562499999,165,0x00,0x00
61.100114625000003,165,0x00,0x00
61.100206000000000,165,0x00,0x00
61.100297437499997,165,0x00,0x00
61.100389125000000,165,0x00,0x00
61.100489187500003,165,0x00,0x00
61.100580624999999,165,0x00,0x00
61.100672000000003,165,0x00,0xD2
61.100763375000000,165,0x00,0x97
61.100896812499997,165,0x00,0xFF
61.100993562500001,165,0x55,0xFF
61.101090312499998,165,0x04,0xFF
61.101188000000000,165,0x00,0xFF
61.101285062499997,165,0x04,0xFF
61.101381812500001,165,0xFA,0xFF
61.101496249999997,165,0xD1,0xFF
61.103207750000003,166,0x00,0x07
61.103299124999999,166,0x00,0x02
61.103390500000003,166,0x00,0xDA
61.103481562500001,166,0x00,0xA4
61.103588312500001,166,0x00,0xFF
61.103685062499999,166,0x55,0xFF
61.103782125000002,166,0x0B,0xFF
61.103879874999997,166,0x00,0xFF
61.103976625000001,166,0x00,0xFF
61.104073999999997,166,0x00,0xFF
61.104170375000002,166,0x00,0xFF
61.104267812499998,166,0x00,0xFF
61.104365187500001,166,0x00,0xFF
61.104462624999996,166,0x03,0xFF
61.104559999999999,166,0x00,0xFF
61.104657375000002,166,0x00,0xFF
61.104753812500000,166,0x3D,0xFF
61.104850874999997,166,0xEE,0xFF
61.106231812499999,167,0x00,0x10
61.106323187500003,167,0x00,0x06
61.106414937499999,167,0x00,0xFF
61.106506312500002,167,0x00,0x0F
61.107594749999997,167,0x00,0x00
61.107686125000001,167,0x00,0x00
61.107777499999997,167,0x00,0x83
61.107868937500001,167,0x00,0xBE
61.107975687500002,167,0x00,0xFF
61.108072374999999,167,0x55,0xFF
61.108169125000003,167,0x04,0xFF
61.108266874999998,167,0x00,0xFF
61.108363562500003,167,0x00,0xFF
61.108460312500000,167,0x7E,0xFF
61.108574375000003,167,0x91,0xFF
61.109935999999998,,0x00,0x0E
61.110027375000001,,0x00,0x0B
61.110118812499998,,0x00,0x01
61.110210187500002,,0x00,0x00
61.110301562499998,,0x00,0x00
61.110393312500001,,0x00,0x00
61.110484374999999,,0x00,0x00
61.110576125000001,,0x00,0x00
61.110667187499999,,0x00,0x00
61.110758875000002,,0x00,0x00
61.110849937499999,,0x00,0x00
61.110941687500002,,0x00,0xD2
61.111032750000000,,0x00,0x97
61.111139500000000,,0x00,0xFF
61.111236249999997,,0x55,0xFF
61.111332937500002,,0x04,0xFF
61.111430687499997,,0x00,0xFF
61.111527437500001,,0x00,0xFF
61.111624124999999,,0x7E,0xFF
61.111738250000002,,0x91,0xFF
