Time [s],Packet ID,MOSI,MISO
20.425973500000001,0,0xFF,0x0C
20.426021500000001,0,0xFF,0x13
20.426069562500000,0,0xFF,0x01
20.426117062500001,0,0xFF,0x00
20.426165125000001,0,0xFF,0x00
20.426212625000002,0,0xFF,0x00
20.426260687500001,0,0xFF,0x00
20.426308687500001,0,0xFF,0x00
20.426356250000001,0,0xFF,0x00
20.426404250000001,0,0xFF,0x00
20.426451812500002,0,0xFF,0x00
20.426499812500001,0,0xFF,0x00
20.426547875000001,0,0xFF,0x00
20.426595375000002,0,0xFF,0x00
20.426643437500001,0,0xFF,0x00
20.426690937499998,0,0xFF,0x00
20.426739000000001,0,0xFF,0x00
20.426787000000001,0,0xFF,0x00
20.426834562500002,0,0xFF,0x00
20.426882562500001,0,0xFF,0x2F
20.426930124999998,0,0xFF,0x89
20.426986187499999,0,0xFF,0xFF
20.427030187500002,0,0xFF,0xFF
20.427074687499999,0,0xFF,0xFF
20.427119749999999,0,0xFF,0xFF
20.427164250000001,0,0xFF,0xFF
20.427208312499999,0,0xFF,0xFF
20.427274375000000,0,0xFF,0xFF
20.428291500000000,1,0xFF,0x08
20.428339062500001,1,0xFF,0x03
20.428387062500001,1,0xFF,0x00
20.428580187500000,1,0xFF,0x6E
20.428627750000000,1,0xFF,0x30
20.428683750000001,1,0xFF,0xFF
20.428727812500000,1,0xFF,0xFF
20.428772312500001,1,0xFF,0xFF
20.428817375000001,1,0xFF,0xFF
20.428861874999999,1,0xFF,0xFF
20.428905937500001,1,0xFF,0xFF
20.428950437499999,1,0xFF,0xFF
20.428995000000000,1,0xFF,0xFF
20.429039499999998,1,0xFF,0xFF
20.429084062499999,1,0xFF,0xFF
20.429128562500001,1,0xFF,0xFF
20.429173062499999,1,0xFF,0xFF
20.429217625000000,1,0xFF,0xFF
20.429262125000001,1,0xFF,0xFF
20.429306687499999,1,0xFF,0xFF
20.429523312499999,1,0xFF,0xFF
20.429567875000000,1,0xFF,0xFF
20.429612375000001,1,0xFF,0xFF
20.429656937499999,1,0xFF,0xFF
20.429701437500000,1,0xFF,0xFF
20.429745937500002,1,0xFF,0xFF
20.429790499999999,1,0xFF,0xFF
20.429834499999998,1,0xFF,0xFF
20.429879062500000,1,0xFF,0xFF
20.429923562500001,1,0xFF,0xFF
20.429968124999998,1,0xFF,0xFF
20.430012625000000,1,0xFF,0xFF
20.430057187500001,1,0xFF,0xFF
20.430101687499999,1,0xFF,0xFF
20.430145750000001,1,0xFF,0xFF
20.430190249999999,1,0xFF,0xFF
20.430234812500000,1,0xFF,0xFF
20.430279312500002,1,0xFF,0xFF
20.430323812499999,1,0xFF,0xFF
20.430529499999999,1,0xFF,0xFF
20.430574000000000,1,0xFF,0xFF
20.430618562500001,1,0xFF,0xFF
20.430663062499999,1,0xFF,0xFF
20.430707625000000,1,0xFF,0xFF
20.430752125000001,1,0xFF,0xFF
20.430796624999999,1,0xFF,0xFF
20.430840687500002,1,0xFF,0xFF
20.430885187499999,1,0xFF,0xFF
20.430929750000001,1,0xFF,0xFF
20.430974249999998,1,0xFF,0xFF
20.431018812500000,1,0xFF,0xFF
20.431068312499999,1,0xFF,0xFF
20.447063312499999,2,0xFF,0x03
20.447111312499999,2,0xFF,0x1C
20.447159374999998,2,0xFF,0x01
20.447206874999999,2,0xFF,0x17
20.447254937499999,2,0xFF,0x00
20.447302437499999,2,0xFF,0x00
20.447350499999999,2,0xFF,0x00
20.447398000000000,2,0xFF,0x07
20.447446062499999,2,0xFF,0x07
20.447494062499999,2,0xFF,0x00
20.447541624999999,2,0xFF,0x00
20.447589624999999,2,0xFF,0x02
20.447637187500000,2,0xFF,0x23
20.447685187499999,2,0xFF,0x10
20.447732750000000,2,0xFF,0x11
20.447780750000000,2,0xFF,0x82
20.447828312500000,2,0xFF,0x06
20.447876312500000,2,0xFF,0xF7
20.447924374999999,2,0xFF,0x23
20.447971875000000,2,0xFF,0x00
20.448019937500000,2,0xFF,0xD5
20.448067437500001,2,0xFF,0xC3
20.448115500000000,2,0xFF,0x10
20.448163000000001,2,0xFF,0xEE
20.448211062500000,2,0xFF,0x45
20.448259062500000,2,0xFF,0xF7
20.448306625000001,2,0xFF,0x23
20.448354625000000,2,0xFF,0x00
20.448402187500001,2,0xFF,0x07
20.448450187500001,2,0xFF,0x85
20.448505749999999,2,0xFF,0xFF
20.448550250000000,2,0xFF,0xFF
20.448600312500002,2,0xFF,0xFF
20.448644812500000,2,0xFF,0xFF
20.448689375000001,2,0xFF,0xFF
20.448733874999999,2,0xFF,0xFF
20.448799437500000,2,0xFF,0xFF
23.979401562500001,3,0xFF,0x07
23.979449124999999,3,0xFF,0x02
23.979497125000002,3,0xFF,0xDA
23.979545187500001,3,0xFF,0xA4
23.979600749999999,3,0xFF,0xFF
23.979644749999999,3,0xFF,0xFF
23.979689312500000,3,0xFF,0xFF
23.979734312500000,3,0xFF,0xFF
23.980148062500000,3,0xFF,0xFF
23.980192625000001,3,0xFF,0xFF
23.980237124999999,3,0xFF,0xFF
23.980281687500000,3,0xFF,0xFF
23.980326187500001,3,0xFF,0xFF
23.980376249999999,3,0xFF,0xFF
23.980420750000000,3,0xFF,0xFF
23.980464812499999,3,0xFF,0xFF
23.980509312500001,3,0xFF,0xFF
23.980559374999999,3,0xFF,0xFF
23.981645062500000,4,0xFF,0x10
23.981693062500000,4,0xFF,0x06
23.981740625000000,4,0xFF,0x01
23.981788625000000,4,0xFF,0x00
23.981836687500000,4,0xFF,0x00
23.981884187500000,4,0xFF,0x00
23.981942750000002,4,0xFF,0xA5
23.981990812500001,4,0xFF,0xAF
23.982046312500000,4,0xFF,0xFF
23.982090875000001,4,0xFF,0xFF
23.982457562499999,4,0xFF,0xFF
23.982502624999999,4,0xFF,0xFF
23.982552125000002,4,0xFF,0xFF
23.982596687499999,4,0xFF,0xFF
23.982662749999999,4,0xFF,0xFF
23.983682375000001,5,0xFF,0x08
23.983730437500000,5,0xFF,0x03
23.983777937500001,5,0xFF,0x00
23.983826000000001,5,0xFF,0x6E
23.983906062500001,5,0xFF,0x30
23.983961562499999,5,0xFF,0xFF
23.984006125000001,5,0xFF,0xFF
23.984050624999998,5,0xFF,0xFF
23.984095687500002,5,0xFF,0xFF
23.984139687500001,5,0xFF,0xFF
23.984184249999998,5,0xFF,0xFF
23.984228750000000,5,0xFF,0xFF
23.984273250000001,5,0xFF,0xFF
23.984317812499999,5,0xFF,0xFF
23.984362312500000,5,0xFF,0xFF
23.984406875000001,5,0xFF,0xFF
23.984450875000000,5,0xFF,0xFF
23.984495437500001,5,0xFF,0xFF
23.984545437500000,5,0xFF,0xFF
23.984590000000001,5,0xFF,0xFF
23.984634499999999,5,0xFF,0xFF
23.984679062500000,5,0xFF,0xFF
23.984723562500001,5,0xFF,0xFF
23.984773125000000,5,0xFF,0xFF
23.984817625000002,5,0xFF,0xFF
23.984862187499999,5,0xFF,0xFF
23.984928187500000,5,0xFF,0xFF
23.984972750000001,5,0xFF,0xFF
23.985017249999999,5,0xFF,0xFF
23.985061312500001,5,0xFF,0xFF
23.985105812499999,5,0xFF,0xFF
23.985150375000000,5,0xFF,0xFF
23.985194875000001,5,0xFF,0xFF
23.985244937499999,5,0xFF,0xFF
23.985289437500001,5,0xFF,0xFF
23.985333499999999,5,0xFF,0xFF
23.985378000000001,5,0xFF,0xFF
23.985422499999999,5,0xFF,0xFF
23.985472562500000,5,0xFF,0xFF
23.985517062500001,5,0xFF,0xFF
23.985561125000000,5,0xFF,0xFF
23.985605625000002,5,0xFF,0xFF
23.985650187499999,5,0xFF,0xFF
23.985700187500001,5,0xFF,0xFF
23.985744749999999,5,0xFF,0xFF
23.985788750000001,5,0xFF,0xFF
23.985833312499999,5,0xFF,0xFF
23.985877812500000,5,0xFF,0xFF
23.985922375000001,5,0xFF,0xFF
23.985982875000001,5,0xFF,0xFF
23.986027437499999,5,0xFF,0xFF
23.986076937499998,5,0xFF,0xFF
23.987838624999998,6,0xFF,0x14
23.987907624999998,6,0xFF,0x1A
23.987955687500001,6,0xFF,0xD5
23.988003687500001,6,0xFF,0xC3
23.988051250000002,6,0xFF,0x10
23.988099250000001,6,0xFF,0xEE
23.988146812499998,6,0xFF,0x45
23.988200375000002,6,0xFF,0xF7
23.988247874999999,6,0xFF,0x23
23.988295937499998,6,0xFF,0x00
23.988343437499999,6,0xFF,0xD9
23.988391499999999,6,0xFF,0x28
23.988439000000000,6,0xFF,0xA2
23.988487062499999,6,0xFF,0xC4
23.988535062499999,6,0xFF,0x5D
23.988582624999999,6,0xFF,0x51
23.988636124999999,6,0xFF,0x3D
23.988683687500000,6,0xFF,0x28
23.988737187500000,6,0xFF,0x30
23.988784750000001,6,0xFF,0x2A
23.988832750000000,6,0xFF,0xFC
23.988880312500001,6,0xFF,0x14
23.988928312500001,6,0xFF,0xC5
23.988997874999999,6,0xFF,0x91
23.989045375000000,6,0xFF,0xA3
23.989093437499999,6,0xFF,0xED
23.989140937500000,6,0xFF,0x89
23.989189000000000,6,0xFF,0x25
23.989244500000002,6,0xFF,0xFF
23.989289062499999,6,0xFF,0xFF
23.989333062499998,6,0xFF,0xFF
23.989378125000002,6,0xFF,0xFF
23.989422625000000,6,0xFF,0xFF
23.989467187500001,6,0xFF,0xFF
23.989532687499999,6,0xFF,0xFF
24.089216937500002,7,0xFF,0x05
24.089264437499999,7,0xFF,0x14
24.089312499999998,7,0xFF,0xD5
24.089359999999999,7,0xFF,0xC3
24.089424062500001,7,0xFF,0x10
24.089472062500001,7,0xFF,0xEE
24.089519625000001,7,0xFF,0x45
24.089567625000001,7,0xFF,0xF7
24.089615687500000,7,0xFF,0x23
24.089663187500001,7,0xFF,0x00
24.089716750000001,7,0xFF,0x02
24.089764250000002,7,0xFF,0x11
24.089817812500002,7,0xFF,0x07
24.089865374999999,7,0xFF,0xA3
24.090287125000000,7,0xFF,0x7F
24.090335124999999,7,0xFF,0xE7
24.090399187500001,7,0xFF,0xA2
24.090446750000002,7,0xFF,0xD9
24.090494750000001,7,0xFF,0x6E
24.090542312499998,7,0xFF,0x32
24.090590312500002,7,0xFF,0x27
24.090638375000001,7,0xFF,0x71
24.090699375000000,7,0xFF,0xFF
24.090743437499999,7,0xFF,0xFF
24.090793437500000,7,0xFF,0xFF
24.090838500000000,7,0xFF,0xFF
24.090883000000002,7,0xFF,0xFF
24.090927562499999,7,0xFF,0xFF
24.090993062500001,7,0xFF,0xFF
25.943534562499998,8,0xFF,0x07
25.943582625000001,8,0xFF,0x02
25.943630625000001,8,0xFF,0xDA
25.943678187500002,8,0xFF,0xA4
25.943734187499999,8,0xFF,0xFF
25.943778250000001,8,0xFF,0xFF
25.943822749999999,8,0xFF,0xFF
25.943867812499999,8,0xFF,0xFF
25.943912312500000,8,0xFF,0xFF
25.943956312499999,8,0xFF,0xFF
25.944000875000000,8,0xFF,0xFF
25.944045375000002,8,0xFF,0xFF
25.944089937499999,8,0xFF,0xFF
25.944134437500001,8,0xFF,0xFF
25.944178999999998,8,0xFF,0xFF
25.944228500000001,8,0xFF,0xFF
25.944273062499999,8,0xFF,0xFF
25.944317562500000,8,0xFF,0xFF
25.944362125000001,8,0xFF,0xFF
25.944411625000001,8,0xFF,0xFF
25.945491312500000,9,0xFF,0x10
25.945538875000000,9,0xFF,0x06
25.945586875000000,9,0xFF,0x00
25.945634437500001,9,0xFF,0x00
25.945682437500000,9,0xFF,0x02
25.945735500000001,9,0xFF,0x00
25.945783562500001,9,0xFF,0x73
25.945836562499998,9,0xFF,0xBF
25.945892125000000,9,0xFF,0xFF
25.945936625000002,9,0xFF,0xFF
25.945981187499999,9,0xFF,0xFF
25.946026187499999,9,0xFF,0xFF
25.946070249999998,9,0xFF,0xFF
25.946114750000000,9,0xFF,0xFF
25.946180812500000,9,0xFF,0xFF
25.951885000000001,10,0xFF,0x05
25.951933062500000,10,0xFF,0x13
25.951981062500000,10,0xFF,0xD5
25.952028625000001,10,0xFF,0xC3
25.952076625000000,10,0xFF,0x10
25.952124187500001,10,0xFF,0xEE
25.952172187500000,10,0xFF,0x45
25.952219750000001,10,0xFF,0xF7
25.952267750000001,10,0xFF,0x23
25.952315312500001,10,0xFF,0x00
25.952363312500001,10,0xFF,0x03
25.952774125000001,10,0xFF,0x11
25.952822125000001,10,0xFF,0x06
25.952869687500002,10,0xFF,0xA3
25.952917687500001,10,0xFF,0xFE
25.952970749999999,10,0xFF,0xE7
25.953018749999998,10,0xFF,0xB3
25.953071812499999,10,0xFF,0xDE
25.953119812499999,10,0xFF,0x85
25.953172875000000,10,0xFF,0x8E
25.953220875000000,10,0xFF,0x73
25.953281437499999,10,0xFF,0xFF
25.953325937500001,10,0xFF,0xFF
25.953375999999999,10,0xFF,0xFF
25.953420500000000,10,0xFF,0xFF
25.953465062500001,10,0xFF,0xFF
25.953531125000001,10,0xFF,0xFF
25.953597125000002,10,0xFF,0xFF
25.959369437500001,11,0xFF,0x07
25.959417437500001,11,0xFF,0x02
25.959465000000002,11,0xFF,0xDA
25.959540000000001,11,0xFF,0xA4
25.959595562499999,11,0xFF,0xFF
25.959640062500000,11,0xFF,0xFF
25.959684625000001,11,0xFF,0xFF
25.959729124999999,11,0xFF,0xFF
25.959773687500000,11,0xFF,0xFF
25.959818187500002,11,0xFF,0xFF
25.959862749999999,11,0xFF,0xFF
25.959907250000001,11,0xFF,0xFF
25.959957312499998,11,0xFF,0xFF
25.960001312500001,11,0xFF,0xFF
25.960045874999999,11,0xFF,0xFF
25.960090375000000,11,0xFF,0xFF
25.960134937500001,11,0xFF,0xFF
25.960184937499999,11,0xFF,0xFF
25.960229000000002,11,0xFF,0xFF
25.960279000000000,11,0xFF,0xFF
25.961358187500000,12,0xFF,0x10
25.961406250000000,12,0xFF,0x06
25.961480812500000,12,0xFF,0x00
25.961528812499999,12,0xFF,0x00
25.961576375000000,12,0xFF,0x03
25.961624375000000,12,0xFF,0x00
25.961672437499999,12,0xFF,0x42
25.961719937500000,12,0xFF,0x8C
25.961775500000002,12,0xFF,0xFF
25.961819999999999,12,0xFF,0xFF
25.961864562500001,12,0xFF,0xFF
25.961909062499998,12,0xFF,0xFF
25.961953625000000,12,0xFF,0xFF
25.961998125000001,12,0xFF,0xFF
25.962064187500001,12,0xFF,0xFF
26.023912124999999,13,0xFF,0x07
26.023959625000000,13,0xFF,0x02
26.024007687499999,13,0xFF,0xDA
26.024055187500000,13,0xFF,0xA4
26.024111250000001,13,0xFF,0xFF
26.024155250000000,13,0xFF,0xFF
26.024205312500001,13,0xFF,0xFF
26.024250312500001,13,0xFF,0xFF
26.024294375000000,13,0xFF,0xFF
26.024338875000002,13,0xFF,0xFF
26.024383437499999,13,0xFF,0xFF
26.024427937500000,13,0xFF,0xFF
26.024472437499998,13,0xFF,0xFF
26.024516999999999,13,0xFF,0xFF
26.024560999999999,13,0xFF,0xFF
26.024605562500000,13,0xFF,0xFF
26.024650062500001,13,0xFF,0xFF
26.024700124999999,13,0xFF,0xFF
26.025790312500000,14,0xFF,0x10
26.025838374999999,14,0xFF,0x06
26.025885875000000,14,0xFF,0x08
26.025939437500000,14,0xFF,0x00
26.025986937500001,14,0xFF,0x00
26.026040500000001,14,0xFF,0x00
26.026088000000001,14,0xFF,0xD2
26.026141562500001,14,0xFF,0x5C
26.026197124999999,14,0xFF,0xFF
26.026241625000001,14,0xFF,0xFF
26.026285625000000,14,0xFF,0xFF
26.026330687500000,14,0xFF,0xFF
26.026375187500001,14,0xFF,0xFF
26.026419749999999,14,0xFF,0xFF
26.026485312500000,14,0xFF,0xFF
26.027502937500000,15,0xFF,0x06
26.027550999999999,15,0xFF,0x02
26.027598500000000,15,0xFF,0xEB
26.027646562499999,15,0xFF,0x97
26.027702062500001,15,0xFF,0xFF
26.027746624999999,15,0xFF,0xFF
26.027818125000000,15,0xFF,0xFF
26.027862687500001,15,0xFF,0xFF
26.027907187499999,15,0xFF,0xFF
26.027951750000000,15,0xFF,0xFF
26.027996250000001,15,0xFF,0xFF
26.028040812499999,15,0xFF,0xFF
26.028084812500001,15,0xFF,0xFF
26.028134874999999,15,0xFF,0xFF
26.028179375000001,15,0xFF,0xFF
26.028223937500002,15,0xFF,0xFF
26.028268437500000,15,0xFF,0xFF
26.028313000000001,15,0xFF,0xFF
26.028357499999998,15,0xFF,0xFF
26.028402062500000,15,0xFF,0xFF
26.028446562500001,15,0xFF,0xFF
26.028491062499999,15,0xFF,0xFF
26.028535625000000,15,0xFF,0xFF
26.028585124999999,15,0xFF,0xFF
26.028629687500001,15,0xFF,0xFF
26.028674187499998,15,0xFF,0xFF
26.028718749999999,15,0xFF,0xFF
26.028763250000001,15,0xFF,0xFF
26.028807812499998,15,0xFF,0xFF
26.028868312499998,15,0xFF,0xFF
26.028912875000000,15,0xFF,0xFF
26.028956874999999,15,0xFF,0xFF
26.029001437500000,15,0xFF,0xFF
26.029045937500001,15,0xFF,0xFF
26.029090499999999,15,0xFF,0xFF
26.029135000000000,15,0xFF,0xFF
26.029184562499999,15,0xFF,0xFF
26.029229062500001,15,0xFF,0xFF
26.029273624999998,15,0xFF,0xFF
26.029318125000000,15,0xFF,0xFF
26.029362687500001,15,0xFF,0xFF
26.029412687499999,15,0xFF,0xFF
26.029457250000000,15,0xFF,0xFF
26.029501249999999,15,0xFF,0xFF
26.029551312500001,15,0xFF,0xFF
26.030625499999999,16,0xFF,0x10
26.030673000000000,16,0xFF,0x06
26.030721062500000,16,0xFF,0x08
26.030768562500000,16,0xFF,0x00
26.030832624999999,16,0xFF,0x00
26.030880625000002,16,0xFF,0x11
26.030928187499999,16,0xFF,0xC2
26.030976187499999,16,0xFF,0x5E
26.031031750000000,16,0xFF,0xFF
26.031076312500002,16,0xFF,0xFF
26.031120812499999,16,0xFF,0xFF
26.031165312500001,16,0xFF,0xFF
26.031209874999998,16,0xFF,0xFF
26.031254375000000,16,0xFF,0xFF
26.031320437500000,16,0xFF,0xFF
26.038909374999999,17,0xFF,0x05
26.038957437499999,17,0xFF,0x13
26.039010437500000,17,0xFF,0xD5
26.039058499999999,17,0xFF,0xC3
26.039111562500000,17,0xFF,0x10
26.039159562500000,17,0xFF,0xEE
26.039212625000001,17,0xFF,0x45
26.039260625000001,17,0xFF,0xF7
26.039308187500001,17,0xFF,0x23
26.039356187500001,17,0xFF,0x00
26.039403750000002,17,0xFF,0x04
26.039451750000001,17,0xFF,0x11
26.039499812500001,17,0xFF,0x06
26.039547312500002,17,0xFF,0xA3
26.039595375000001,17,0xFF,0xFD
26.039648374999999,17,0xFF,0xE2
26.039696437500002,17,0xFF,0xA2
26.039749437499999,17,0xFF,0x7A
26.039797499999999,17,0xFF,0x30
26.039845000000000,17,0xFF,0x25
26.039904062500000,17,0xFF,0xC2
26.039959562500002,17,0xFF,0xFF
26.040004124999999,17,0xFF,0xFF
26.040048124999998,17,0xFF,0xFF
26.040093187499998,17,0xFF,0xFF
26.040137687500000,17,0xFF,0xFF
26.040182250000001,17,0xFF,0xFF
26.040247749999999,17,0xFF,0xFF
26.046761062500000,18,0xFF,0x07
26.046830062500000,18,0xFF,0x02
26.046878124999999,18,0xFF,0xDA
26.046926124999999,18,0xFF,0xA4
26.046981687500001,18,0xFF,0xFF
26.047026187499998,18,0xFF,0xFF
26.047070250000001,18,0xFF,0xFF
26.047120750000001,18,0xFF,0xFF
26.047165312499999,18,0xFF,0xFF
26.047209812500000,18,0xFF,0xFF
26.047254375000001,18,0xFF,0xFF
26.047298375000000,18,0xFF,0xFF
26.047348437499998,18,0xFF,0xFF
26.047392937500000,18,0xFF,0xFF
26.047437500000001,18,0xFF,0xFF
26.047481999999999,18,0xFF,0xFF
26.047526562500000,18,0xFF,0xFF
26.047576062499999,18,0xFF,0xFF
26.047620625000000,18,0xFF,0xFF
26.047670624999999,18,0xFF,0xFF
26.048749812499999,19,0xFF,0x10
26.048797875000002,19,0xFF,0x06
26.048872437499998,19,0xFF,0x00
26.048920437500001,19,0xFF,0x00
26.048967999999999,19,0xFF,0x04
26.049016000000002,19,0xFF,0x00
26.049064062500001,19,0xFF,0xD5
26.049111562499998,19,0xFF,0x15
26.049167125000000,19,0xFF,0xFF
26.049211625000002,19,0xFF,0xFF
26.049256187499999,19,0xFF,0xFF
26.049300687500001,19,0xFF,0xFF
26.049345249999998,19,0xFF,0xFF
26.049389750000000,19,0xFF,0xFF
26.049455812500000,19,0xFF,0xFF
26.120005437500001,20,0xFF,0x07
26.120052937499999,20,0xFF,0x02
26.120100999999998,20,0xFF,0xDA
26.120180999999999,20,0xFF,0xA4
26.120236562500001,20,0xFF,0xFF
26.120281062499998,20,0xFF,0xFF
26.120325625000000,20,0xFF,0xFF
26.120370125000001,20,0xFF,0xFF
26.120414687499999,20,0xFF,0xFF
26.120459187500000,20,0xFF,0xFF
26.120503750000001,20,0xFF,0xFF
26.120548249999999,20,0xFF,0xFF
26.120597812500002,20,0xFF,0xFF
26.120642312499999,20,0xFF,0xFF
26.120686875000001,20,0xFF,0xFF
26.120731374999998,20,0xFF,0xFF
26.120775937499999,20,0xFF,0xFF
26.120825437499999,20,0xFF,0xFF
26.121916187499998,21,0xFF,0x10
26.121963687499999,21,0xFF,0x06
26.122011749999999,21,0xFF,0x08
26.122059749999998,21,0xFF,0x00
26.122107312499999,21,0xFF,0x00
26.122155312499999,21,0xFF,0x00
26.122224374999998,21,0xFF,0xD2
26.122272375000001,21,0xFF,0x5C
26.122327937500000,21,0xFF,0xFF
26.122372437500001,21,0xFF,0xFF
26.122416999999999,21,0xFF,0xFF
26.122461500000000,21,0xFF,0xFF
26.122511562500002,21,0xFF,0xFF
26.122556062499999,21,0xFF,0xFF
26.122995875000001,21,0xFF,0xFF
26.124013000000001,22,0xFF,0x06
26.124066562500001,22,0xFF,0x02
26.124114124999998,22,0xFF,0xEB
26.124162125000002,22,0xFF,0x97
26.124223187500000,22,0xFF,0xFF
26.124267687500002,22,0xFF,0xFF
26.124312249999999,22,0xFF,0xFF
26.124356750000000,22,0xFF,0xFF
26.124406812499998,22,0xFF,0xFF
26.124450812500001,22,0xFF,0xFF
26.124495374999999,22,0xFF,0xFF
26.124539875000000,22,0xFF,0xFF
26.124584375000001,22,0xFF,0xFF
26.124634437499999,22,0xFF,0xFF
26.124678437499998,22,0xFF,0xFF
26.124722999999999,22,0xFF,0xFF
26.124767500000001,22,0xFF,0xFF
26.124812062499998,22,0xFF,0xFF
26.124862062500000,22,0xFF,0xFF
26.124906625000001,22,0xFF,0xFF
26.124950625000000,22,0xFF,0xFF
26.124995187500001,22,0xFF,0xFF
26.125039687499999,22,0xFF,0xFF
26.125089750000001,22,0xFF,0xFF
26.125134249999999,22,0xFF,0xFF
26.125178812500000,22,0xFF,0xFF
26.125244312500001,22,0xFF,0xFF
26.125288874999999,22,0xFF,0xFF
26.125333375000000,22,0xFF,0xFF
26.125377937500001,22,0xFF,0xFF
26.125422437499999,22,0xFF,0xFF
26.125467000000000,22,0xFF,0xFF
26.125511500000002,22,0xFF,0xFF
26.125561062500001,22,0xFF,0xFF
26.125605562499999,22,0xFF,0xFF
26.125650125000000,22,0xFF,0xFF
26.125694625000001,22,0xFF,0xFF
26.125739187499999,22,0xFF,0xFF
26.125789187500001,22,0xFF,0xFF
26.125833187500000,22,0xFF,0xFF
26.125877750000001,22,0xFF,0xFF
26.125922249999999,22,0xFF,0xFF
26.125966812500000,22,0xFF,0xFF
26.126016312499999,22,0xFF,0xFF
26.126060875000000,22,0xFF,0xFF
26.126105375000002,22,0xFF,0xFF
26.126149937499999,22,0xFF,0xFF
26.126194437500001,22,0xFF,0xFF
26.126270999999999,22,0xFF,0xFF
26.126315562500000,22,0xFF,0xFF
26.126360062500002,22,0xFF,0xFF
26.126404562499999,22,0xFF,0xFF
26.126449125000001,22,0xFF,0xFF
26.126493624999998,22,0xFF,0xFF
26.126538187500000,22,0xFF,0xFF
26.126588187500001,22,0xFF,0xFF
26.126632250000000,22,0xFF,0xFF
26.126676750000001,22,0xFF,0xFF
26.126721312499999,22,0xFF,0xFF
26.126765812500000,22,0xFF,0xFF
26.126815874999998,22,0xFF,0xFF
26.126860375000000,22,0xFF,0xFF
26.126904437499999,22,0xFF,0xFF
26.126948937500000,22,0xFF,0xFF
26.126993500000001,22,0xFF,0xFF
26.127043499999999,22,0xFF,0xFF
26.127088062500000,22,0xFF,0xFF
26.127132062499999,22,0xFF,0xFF
26.127198125000000,22,0xFF,0xFF
26.127242625000001,22,0xFF,0xFF
26.127287187499999,22,0xFF,0xFF
26.127331687500000,22,0xFF,0xFF
26.127376250000001,22,0xFF,0xFF
26.127420749999999,22,0xFF,0xFF
26.127465312500000,22,0xFF,0xFF
26.127514812499999,22,0xFF,0xFF
26.127559375000001,22,0xFF,0xFF
26.127603874999998,22,0xFF,0xFF
26.127648375000000,22,0xFF,0xFF
26.127692937500001,22,0xFF,0xFF
26.127742937499999,22,0xFF,0xFF
26.127787000000001,22,0xFF,0xFF
26.127831499999999,22,0xFF,0xFF
26.127876062500000,22,0xFF,0xFF
26.127920562500002,22,0xFF,0xFF
26.127970625000000,22,0xFF,0xFF
26.128014624999999,22,0xFF,0xFF
26.128059187500000,22,0xFF,0xFF
26.128103687500001,22,0xFF,0xFF
26.128148249999999,22,0xFF,0xFF
26.128192750000000,22,0xFF,0xFF
26.128253312500000,22,0xFF,0xFF
26.128297812500001,22,0xFF,0xFF
26.128342374999999,22,0xFF,0xFF
26.128386875000000,22,0xFF,0xFF
26.128431437500002,22,0xFF,0xFF
26.128475937499999,22,0xFF,0xFF
26.128520500000000,22,0xFF,0xFF
26.128570000000000,22,0xFF,0xFF
26.128614562500001,22,0xFF,0xFF
26.128659062499999,22,0xFF,0xFF
26.128703562500000,22,0xFF,0xFF
26.128748125000001,22,0xFF,0xFF
26.128797625000001,22,0xFF,0xFF
26.128842187499998,22,0xFF,0xFF
26.128886687500000,22,0xFF,0xFF
26.128931250000001,22,0xFF,0xFF
26.128975749999999,22,0xFF,0xFF
26.129020312500000,22,0xFF,0xFF
26.129064812500001,22,0xFF,0xFF
26.129109374999999,22,0xFF,0xFF
26.129153875000000,22,0xFF,0xFF
26.129197937499999,22,0xFF,0xFF
26.129242437500000,22,0xFF,0xFF
26.129303000000000,22,0xFF,0xFF
26.129347500000002,22,0xFF,0xFF
26.129392062499999,22,0xFF,0xFF
26.129436562500000,22,0xFF,0xFF
26.129481125000002,22,0xFF,0xFF
26.129525624999999,22,0xFF,0xFF
26.129570187500001,22,0xFF,0xFF
26.129619687500000,22,0xFF,0xFF
26.129664250000001,22,0xFF,0xFF
26.129708749999999,22,0xFF,0xFF
26.129753250000000,22,0xFF,0xFF
26.129797812500001,22,0xFF,0xFF
26.129847312500001,22,0xFF,0xFF
26.129891874999998,22,0xFF,0xFF
26.129941875000000,22,0xFF,0xFF
26.131126187500001,23,0xFF,0x10
26.131174187500001,23,0xFF,0x06
26.131221750000002,23,0xFF,0x08
26.131285750000000,23,0xFF,0x00
26.131333812499999,23,0xFF,0x00
26.131381312500000,23,0xFF,0x12
26.131429375000000,23,0xFF,0xA1
26.131477374999999,23,0xFF,0x6E
26.131532937500001,23,0xFF,0xFF
26.131577000000000,23,0xFF,0xFF
26.131621500000001,23,0xFF,0xFF
26.131666500000001,23,0xFF,0xFF
26.131711062499999,23,0xFF,0xFF
26.131755562500000,23,0xFF,0xFF
26.131821124999998,23,0xFF,0xFF
26.143206062499999,24,0xFF,0x05
26.143254124999999,24,0xFF,0x1F
26.143312625000000,24,0xFF,0xD5
26.143360687500000,24,0xFF,0xC3
26.143408187500000,24,0xFF,0x10
26.143456250000000,24,0xFF,0xEE
26.143503750000001,24,0xFF,0x45
26.143551812500000,24,0xFF,0xF7
26.143599812500000,24,0xFF,0x23
26.143647375000000,24,0xFF,0x00
26.143695375000000,24,0xFF,0x05
26.143742937500001,24,0xFF,0x11
26.143790937500000,24,0xFF,0x12
26.143838500000001,24,0xFF,0xA3
26.143886500000001,24,0xFF,0xFC
26.143939562500002,24,0xFF,0xE0
26.143987562500001,24,0xFF,0xBC
26.144040624999999,24,0xFF,0xDB
26.144088624999998,24,0xFF,0x8A
26.144136187499999,24,0xFF,0x9B
26.144184187499999,24,0xFF,0x34
26.144231749999999,24,0xFF,0x26
26.144301312500001,24,0xFF,0x5C
26.144349312500001,24,0xFF,0x88
26.144396875000002,24,0xFF,0xA4
26.144444875000001,24,0xFF,0xA2
26.144492437499999,24,0xFF,0x6A
26.144540437500002,24,0xFF,0x0F
26.144593499999999,24,0xFF,0xFC
26.144641499999999,24,0xFF,0x1D
26.144694562500000,24,0xFF,0x77
26.144742562499999,24,0xFF,0x19
26.144790125000000,24,0xFF,0xF7
26.144846125000001,24,0xFF,0xFF
26.144890187500000,24,0xFF,0xFF
26.144934687500001,24,0xFF,0xFF
26.144979750000001,24,0xFF,0xFF
26.145024249999999,24,0xFF,0xFF
26.145068312500001,24,0xFF,0xFF
26.145139812499998,24,0xFF,0xFF
26.153152062499998,25,0xFF,0x07
26.153199624999999,25,0xFF,0x02
26.153247624999999,25,0xFF,0xDA
26.153295687500002,25,0xFF,0xA4
26.153377687500001,25,0xFF,0xFF
26.153422249999998,25,0xFF,0xFF
26.153466750000000,25,0xFF,0xFF
26.153511812500000,25,0xFF,0xFF
26.153561312499999,25,0xFF,0xFF
26.153605875000000,25,0xFF,0xFF
26.153650375000002,25,0xFF,0xFF
26.153694937499999,25,0xFF,0xFF
26.153739437500001,25,0xFF,0xFF
26.153789499999998,25,0xFF,0xFF
26.153834000000000,25,0xFF,0xFF
26.153878062499999,25,0xFF,0xFF
26.153922562500000,25,0xFF,0xFF
26.153967125000001,25,0xFF,0xFF
26.154011624999999,25,0xFF,0xFF
26.154061187500002,25,0xFF,0xFF
26.155140875000001,26,0xFF,0x10
26.155188375000002,26,0xFF,0x06
26.155236437500001,26,0xFF,0x00
26.155283937499998,26,0xFF,0x00
26.155332000000001,26,0xFF,0x05
26.155417562499998,26,0xFF,0x00
26.155465062499999,26,0xFF,0xE4
26.155513124999999,26,0xFF,0x26
26.155568625000001,26,0xFF,0xFF
26.155613187499998,26,0xFF,0xFF
26.155657687500000,26,0xFF,0xFF
26.155702250000001,26,0xFF,0xFF
26.155746749999999,26,0xFF,0xFF
26.155791312500000,26,0xFF,0xFF
26.155857312500000,26,0xFF,0xFF
26.194137874999999,27,0xFF,0x07
26.194185874999999,27,0xFF,0x02
26.194233937500002,27,0xFF,0xDA
26.194281437499999,27,0xFF,0xA4
26.194337500000000,27,0xFF,0xFF
26.194381499999999,27,0xFF,0xFF
26.194426062500000,27,0xFF,0xFF
26.194497562500000,27,0xFF,0xFF
26.194542125000002,27,0xFF,0xFF
26.194586624999999,27,0xFF,0xFF
26.194631187500001,27,0xFF,0xFF
26.194675687499998,27,0xFF,0xFF
26.194720250000000,27,0xFF,0xFF
26.194764249999999,27,0xFF,0xFF
26.194814312500000,27,0xFF,0xFF
26.194858812500001,27,0xFF,0xFF
26.194903374999999,27,0xFF,0xFF
26.194952874999998,27,0xFF,0xFF
26.196043124999999,28,0xFF,0x10
26.196091124999999,28,0xFF,0x06
26.196139187499998,28,0xFF,0x08
26.196186687499999,28,0xFF,0x00
26.196234749999999,28,0xFF,0x00
26.196282249999999,28,0xFF,0x00
26.196330312499999,28,0xFF,0xD2
26.196378312499998,28,0xFF,0x5C
26.196433875000000,28,0xFF,0xFF
26.196478375000002,28,0xFF,0xFF
26.196538937500002,28,0xFF,0xFF
26.196583437499999,28,0xFF,0xFF
26.196628000000000,28,0xFF,0xFF
26.196672499999998,28,0xFF,0xFF
26.196743562500000,28,0xFF,0xFF
26.197761249999999,29,0xFF,0x06
26.197808750000000,29,0xFF,0x02
26.197856812500000,29,0xFF,0xEB
26.197904812499999,29,0xFF,0x97
26.197960375000001,29,0xFF,0xFF
26.198004874999999,29,0xFF,0xFF
26.198048937500001,29,0xFF,0xFF
26.198093937500001,29,0xFF,0xFF
26.198138499999999,29,0xFF,0xFF
26.198183000000000,29,0xFF,0xFF
26.198226999999999,29,0xFF,0xFF
26.198277062500001,29,0xFF,0xFF
26.198321562499999,29,0xFF,0xFF
26.198366125000000,29,0xFF,0xFF
26.198410625000001,29,0xFF,0xFF
26.198455187499999,29,0xFF,0xFF
26.198531750000001,29,0xFF,0xFF
26.198576249999999,29,0xFF,0xFF
26.198620812500000,29,0xFF,0xFF
26.198665312500001,29,0xFF,0xFF
26.198709874999999,29,0xFF,0xFF
26.198754375000000,29,0xFF,0xFF
26.198798875000001,29,0xFF,0xFF
26.198848437500001,29,0xFF,0xFF
26.198892937499998,29,0xFF,0xFF
26.198937500000000,29,0xFF,0xFF
26.198982000000001,29,0xFF,0xFF
26.199026562499999,29,0xFF,0xFF
26.199076562500000,29,0xFF,0xFF
26.199121125000001,29,0xFF,0xFF
26.199165125000000,29,0xFF,0xFF
26.199209687500002,29,0xFF,0xFF
26.199254187499999,29,0xFF,0xFF
26.199304250000001,29,0xFF,0xFF
26.199348749999999,29,0xFF,0xFF
26.199392812500001,29,0xFF,0xFF
26.199437312499999,29,0xFF,0xFF
26.199481875000000,29,0xFF,0xFF
26.199558875000001,29,0xFF,0xFF
26.199602937500000,29,0xFF,0xFF
26.199652937500002,29,0xFF,0xFF
26.199697499999999,29,0xFF,0xFF
26.199742000000001,29,0xFF,0xFF
26.199786562500002,29,0xFF,0xFF
26.199831062499999,29,0xFF,0xFF
26.199875124999998,29,0xFF,0xFF
26.199919625000000,29,0xFF,0xFF
26.199964187500001,29,0xFF,0xFF
26.200008687499999,29,0xFF,0xFF
26.200053250000000,29,0xFF,0xFF
26.200103250000002,29,0xFF,0xFF
26.200147812499999,29,0xFF,0xFF
26.200191812500002,29,0xFF,0xFF
26.200236312500000,29,0xFF,0xFF
26.200280875000001,29,0xFF,0xFF
26.200330874999999,29,0xFF,0xFF
26.200380437500002,29,0xFF,0xFF
26.201470125000000,30,0xFF,0x10
26.201523687500000,30,0xFF,0x06
26.201571187500001,30,0xFF,0x08
26.201619250000000,30,0xFF,0x00
26.201667250000000,30,0xFF,0x00
26.201714812500001,30,0xFF,0x13
26.201762812500000,30,0xFF,0x80
26.201810375000001,30,0xFF,0x7E
26.201866437500001,30,0xFF,0xFF
26.201910437500000,30,0xFF,0xFF
26.201954937499998,30,0xFF,0xFF
26.202000000000002,30,0xFF,0xFF
26.202044500000000,30,0xFF,0xFF
26.202088562499998,30,0xFF,0xFF
26.202160124999999,30,0xFF,0xFF
26.209977687500000,31,0xFF,0x05
26.210025250000001,31,0xFF,0x14
26.210073250000001,31,0xFF,0xD5
26.210121312500000,31,0xFF,0xC3
26.210168812500001,31,0xFF,0x10
26.210216875000000,31,0xFF,0xEE
26.210269875000002,31,0xFF,0x45
26.210317937500001,31,0xFF,0xF7
26.210365437499998,31,0xFF,0x23
26.210413500000001,31,0xFF,0x00
26.210461500000001,31,0xFF,0x06
26.210509062500002,31,0xFF,0x11
26.210557062500001,31,0xFF,0x07
26.210631625000001,31,0xFF,0xA3
26.210679687500001,31,0xFF,0x7B
26.210727187500002,31,0xFF,0xE7
26.210775250000001,31,0xFF,0xA2
26.210823250000001,31,0xFF,0xD8
26.210870812500001,31,0xFF,0xB4
26.210918812500001,31,0xFF,0xE2
26.210966375000002,31,0xFF,0x12
26.211014375000001,31,0xFF,0xDC
26.211069937500000,31,0xFF,0xFF
26.211114437500001,31,0xFF,0xFF
26.211158999999999,31,0xFF,0xFF
26.211203500000000,31,0xFF,0xFF
26.211253562500001,31,0xFF,0xFF
26.211298062499999,31,0xFF,0xFF
26.211369125000001,31,0xFF,0xFF
26.217698750000000,32,0xFF,0x07
26.217746312500001,32,0xFF,0x02
26.217794312500001,32,0xFF,0xDA
26.217842375000000,32,0xFF,0xA4
26.217897874999998,32,0xFF,0xFF
26.217941937500001,32,0xFF,0xFF
26.217986437499999,32,0xFF,0xFF
26.218031499999999,32,0xFF,0xFF
26.218081000000002,32,0xFF,0xFF
26.218125562499999,32,0xFF,0xFF
26.218170062500000,32,0xFF,0xFF
26.218214562499998,32,0xFF,0xFF
26.218259124999999,32,0xFF,0xFF
26.218309125000001,32,0xFF,0xFF
26.218353187500000,32,0xFF,0xFF
26.218397687500001,32,0xFF,0xFF
26.218442249999999,32,0xFF,0xFF
26.218486750000000,32,0xFF,0xFF
26.218531312500001,32,0xFF,0xFF
26.218580812500001,32,0xFF,0xFF
26.219660562500000,33,0xFF,0x10
26.219713562500001,33,0xFF,0x06
26.219761625000000,33,0xFF,0x00
26.219814625000001,33,0xFF,0x00
26.219862187499999,33,0xFF,0x06
26.219910187499998,33,0xFF,0x00
26.219958250000001,33,0xFF,0xB7
26.220005749999999,33,0xFF,0x73
26.220061312500000,33,0xFF,0xFF
26.220105812500002,33,0xFF,0xFF
26.220150374999999,33,0xFF,0xFF
26.220195374999999,33,0xFF,0xFF
26.220244937499999,33,0xFF,0xFF
26.220289437500000,33,0xFF,0xFF
26.220355500000000,33,0xFF,0xFF
27.283668375000001,34,0xFF,0x01
27.283716375000001,34,0xFF,0x02
27.283763937500002,34,0xFF,0x7C
27.283811937500001,34,0xFF,0x0E
27.283867499999999,34,0xFF,0xFF
27.283912000000001,34,0xFF,0xFF
27.283956562499998,34,0xFF,0xFF
27.284001062500000,34,0xFF,0xFF
27.284045562500001,34,0xFF,0xFF
27.284090124999999,34,0xFF,0xFF
27.284533937500001,34,0xFF,0xFF
28.585038749999999,35,0xFF,0x07
28.585091812500000,35,0xFF,0x02
28.585139812500000,35,0xFF,0xDA
28.585187375000000,35,0xFF,0xA4
28.585243375000001,35,0xFF,0xFF
28.585287437500000,35,0xFF,0xFF
28.585331937500001,35,0xFF,0xFF
28.585377000000001,35,0xFF,0xFF
28.585421499999999,35,0xFF,0xFF
28.585465562500001,35,0xFF,0xFF
28.585510062499999,35,0xFF,0xFF
28.585554562500000,35,0xFF,0xFF
28.585599125000002,35,0xFF,0xFF
28.585643624999999,35,0xFF,0xFF
28.585688187500001,35,0xFF,0xFF
28.585732687499998,35,0xFF,0xFF
28.585777250000000,35,0xFF,0xFF
28.585826749999999,35,0xFF,0xFF
28.587282250000001,36,0xFF,0x10
28.587330250000001,36,0xFF,0x06
28.587377812500002,36,0xFF,0x10
28.587425812500001,36,0xFF,0x00
28.587473374999998,36,0xFF,0x00
28.587521375000001,36,0xFF,0x00
28.587569437500001,36,0xFF,0xB6
28.587616937500002,36,0xFF,0xC2
28.587672500000000,36,0xFF,0xFF
28.587717000000001,36,0xFF,0xFF
28.587761562499999,36,0xFF,0xFF
28.587806562499999,36,0xFF,0xFF
28.587851062500000,36,0xFF,0xFF
28.587895124999999,36,0xFF,0xFF
28.587961187499999,36,0xFF,0xFF
28.598242375000002,37,0xFF,0x07
28.598289874999999,37,0xFF,0x02
28.598337937499998,37,0xFF,0xDA
28.598385937500002,37,0xFF,0xA4
28.598441500000000,37,0xFF,0xFF
28.598486062500001,37,0xFF,0xFF
28.598530562499999,37,0xFF,0xFF
28.598575062500000,37,0xFF,0xFF
28.598619625000001,37,0xFF,0xFF
28.598664124999999,37,0xFF,0xFF
28.598708687500000,37,0xFF,0xFF
28.598753187500002,37,0xFF,0xFF
28.598797749999999,37,0xFF,0xFF
28.598841749999998,37,0xFF,0xFF
28.598886312499999,37,0xFF,0xFF
28.598930812500001,37,0xFF,0xFF
28.598975374999998,37,0xFF,0xFF
28.599025375000000,37,0xFF,0xFF
28.600113624999999,38,0xFF,0x10
28.600161624999998,38,0xFF,0x06
28.600209687500001,38,0xFF,0xFF
28.600257187499999,38,0xFF,0x0F
28.600305250000002,38,0xFF,0x00
28.600352749999999,38,0xFF,0x00
28.600400812499998,38,0xFF,0x83
28.600448312499999,38,0xFF,0xBE
28.600504375000000,38,0xFF,0xFF
28.600548875000001,38,0xFF,0xFF
28.600592937500000,38,0xFF,0xFF
28.600637937500000,38,0xFF,0xFF
28.600682437500001,38,0xFF,0xFF
28.600726999999999,38,0xFF,0xFF
28.600792562500001,38,0xFF,0xFF
28.601841250000000,39,0xFF,0x0E
28.601937812500001,39,0xFF,0x0B
28.601979812500002,39,0xFF,0x01
28.602022312500001,39,0xFF,0x00
28.602064875000000,39,0xFF,0x00
28.602107374999999,39,0xFF,0x00
28.602305999999999,39,0xFF,0x00
28.602348062499999,39,0xFF,0x00
28.602390562499998,39,0xFF,0x00
28.602433125000001,39,0xFF,0x00
28.602475625000000,39,0xFF,0x00
28.602518187499999,39,0xFF,0xD2
28.602560687499999,39,0xFF,0x97
28.602605250000000,39,0xFF,0xFF
28.602649750000001,39,0xFF,0xFF
28.602694249999999,39,0xFF,0xFF
28.602738812500000,39,0xFF,0xFF
28.602783312500002,39,0xFF,0xFF
28.602827375000000,39,0xFF,0xFF
28.602871875000002,39,0xFF,0xFF
28.602916437499999,39,0xFF,0xFF
28.602960937500001,39,0xFF,0xFF
28.603005000000000,39,0xFF,0xFF
28.607162687500001,40,0xFF,0x0E
28.607210750000000,40,0xFF,0x0B
28.607258250000001,40,0xFF,0x01
28.607306312500000,40,0xFF,0x00
28.607354312500000,40,0xFF,0x00
28.607401875000001,40,0xFF,0x00
28.607449875000000,40,0xFF,0x00
28.607497437500001,40,0xFF,0x00
28.607545437500001,40,0xFF,0x00
28.607593000000001,40,0xFF,0x00
28.607641000000001,40,0xFF,0x00
28.607689062500000,40,0xFF,0xD2
28.607736562500001,40,0xFF,0x97
28.607792125000000,40,0xFF,0xFF
28.607836625000001,40,0xFF,0xFF
28.607881187499999,40,0xFF,0xFF
28.607926187499999,40,0xFF,0xFF
28.607970250000001,40,0xFF,0xFF
28.608014749999999,40,0xFF,0xFF
28.608080812499999,40,0xFF,0xFF
28.746994000000001,41,0xFF,0x0C
28.747041500000002,41,0xFF,0x13
28.747089562500001,41,0xFF,0x01
28.747137562500001,41,0xFF,0x00
28.747185125000001,41,0xFF,0x00
28.747233125000001,41,0xFF,0x00
28.747280687500002,41,0xFF,0x00
28.747328687500001,41,0xFF,0x00
28.747376750000001,41,0xFF,0x00
28.747424250000002,41,0xFF,0x00
28.747472312500001,41,0xFF,0x00
28.747519812499998,41,0xFF,0x00
28.747567875000001,41,0xFF,0x00
28.747615374999999,41,0xFF,0x00
28.747663437500002,41,0xFF,0x00
28.747711437500001,41,0xFF,0x00
28.747758999999999,41,0xFF,0x00
28.747807000000002,41,0xFF,0x00
28.747854562499999,41,0xFF,0x00
28.747902562499998,41,0xFF,0x2F
28.747950124999999,41,0xFF,0x89
28.748006125000000,41,0xFF,0xFF
28.748050187499999,41,0xFF,0xFF
28.748094687500000,41,0xFF,0xFF
28.748139750000000,41,0xFF,0xFF
28.748184250000001,41,0xFF,0xFF
28.748228250000000,41,0xFF,0xFF
28.748294312500001,41,0xFF,0xFF
28.749311500000001,42,0xFF,0x08
28.749358999999998,42,0xFF,0x03
28.749407062500001,42,0xFF,0x00
28.749455062500001,42,0xFF,0x6E
28.749502625000002,42,0xFF,0x30
28.749558624999999,42,0xFF,0xFF
28.749602687500001,42,0xFF,0xFF
28.749647187499999,42,0xFF,0xFF
28.749697749999999,42,0xFF,0xFF
28.749741749999998,42,0xFF,0xFF
28.749786312499999,42,0xFF,0xFF
28.749830812500001,42,0xFF,0xFF
28.749875374999998,42,0xFF,0xFF
28.749919875000000,42,0xFF,0xFF
28.749964437500001,42,0xFF,0xFF
28.750013937500000,42,0xFF,0xFF
28.750058500000002,42,0xFF,0xFF
28.750102999999999,42,0xFF,0xFF
28.750147500000001,42,0xFF,0xFF
28.750192062499998,42,0xFF,0xFF
28.750236562500000,42,0xFF,0xFF
28.750281125000001,42,0xFF,0xFF
28.750325624999999,42,0xFF,0xFF
28.750370187500000,42,0xFF,0xFF
28.750414687500001,42,0xFF,0xFF
28.750458750000000,42,0xFF,0xFF
28.750503250000001,42,0xFF,0xFF
28.750547812499999,42,0xFF,0xFF
28.750592312500000,42,0xFF,0xFF
28.750636875000001,42,0xFF,0xFF
28.750681374999999,42,0xFF,0xFF
28.750725875000001,42,0xFF,0xFF
28.750770437500002,42,0xFF,0xFF
28.750814937500000,42,0xFF,0xFF
28.750864499999999,42,0xFF,0xFF
28.767078062500001,43,0xFF,0x03
28.767125624999998,43,0xFF,0x1C
28.767173625000002,43,0xFF,0x01
28.767221687500001,43,0xFF,0x17
28.767269187499998,43,0xFF,0x00
28.767317250000001,43,0xFF,0x00
28.767364749999999,43,0xFF,0x00
28.767412812500002,43,0xFF,0x07
28.767460812500001,43,0xFF,0x07
28.767508374999998,43,0xFF,0x00
28.767556375000002,43,0xFF,0x00
28.767603937499999,43,0xFF,0x02
28.767651937499998,43,0xFF,0x23
28.767700000000001,43,0xFF,0x10
28.767747499999999,43,0xFF,0x11
28.767795562500002,43,0xFF,0x82
28.767843062499999,43,0xFF,0x06
28.767891124999998,43,0xFF,0xF7
28.767939125000002,43,0xFF,0x23
28.767986687499999,43,0xFF,0x00
28.768034687499998,43,0xFF,0xD5
28.768082249999999,43,0xFF,0xC3
28.768130249999999,43,0xFF,0x10
28.768177812499999,43,0xFF,0xEE
28.768225812499999,43,0xFF,0x45
28.768273874999998,43,0xFF,0xF7
28.768321374999999,43,0xFF,0x23
28.768369437499999,43,0xFF,0x00
28.768416937500000,43,0xFF,0x07
28.768464999999999,43,0xFF,0x85
28.768520500000001,43,0xFF,0xFF
28.768565062499999,43,0xFF,0xFF
28.768609562500000,43,0xFF,0xFF
28.768654125000001,43,0xFF,0xFF
28.768698624999999,43,0xFF,0xFF
28.768743187500000,43,0xFF,0xFF
28.768809187500000,43,0xFF,0xFF
30.376377625000000,44,0xFF,0x07
30.376425687499999,44,0xFF,0x02
30.376478687500001,44,0xFF,0xDA
30.376526750000000,44,0xFF,0xA4
30.376587749999999,44,0xFF,0xFF
30.376631812500001,44,0xFF,0xFF
30.376676312499999,44,0xFF,0xFF
30.376737375000001,44,0xFF,0xFF
30.376781874999999,44,0xFF,0xFF
30.376826437500000,44,0xFF,0xFF
30.376870937500001,44,0xFF,0xFF
30.376915000000000,44,0xFF,0xFF
30.376959500000002,44,0xFF,0xFF
30.377004062499999,44,0xFF,0xFF
30.377048562500001,44,0xFF,0xFF
30.377093124999998,44,0xFF,0xFF
30.377137625000000,44,0xFF,0xFF
30.377187187499999,44,0xFF,0xFF
30.378648125000002,45,0xFF,0x10
30.378696125000001,45,0xFF,0x06
30.378743687499998,45,0xFF,0x01
30.378791687500001,45,0xFF,0x00
30.378839750000001,45,0xFF,0x00
30.378887249999998,45,0xFF,0x00
30.378935312500001,45,0xFF,0xA5
30.378982812499999,45,0xFF,0xAF
30.379038874999999,45,0xFF,0xFF
30.379082875000002,45,0xFF,0xFF
30.379127437499999,45,0xFF,0xFF
30.379172437499999,45,0xFF,0xFF
30.379217000000001,45,0xFF,0xFF
30.379261000000000,45,0xFF,0xFF
30.379327062500000,45,0xFF,0xFF
30.380346750000001,46,0xFF,0x08
30.380394750000001,46,0xFF,0x03
30.380442812500000,46,0xFF,0x00
30.380490312500001,46,0xFF,0x6E
30.380538375000000,46,0xFF,0x30
30.380593874999999,46,0xFF,0xFF
30.380638437500000,46,0xFF,0xFF
30.380682437499999,46,0xFF,0xFF
30.380759500000000,46,0xFF,0xFF
30.380804000000001,46,0xFF,0xFF
30.380848562499999,46,0xFF,0xFF
30.380893062500000,46,0xFF,0xFF
30.380937625000001,46,0xFF,0xFF
30.380982124999999,46,0xFF,0xFF
30.381026187500002,46,0xFF,0xFF
30.381076187500000,46,0xFF,0xFF
30.381120750000001,46,0xFF,0xFF
30.381165249999999,46,0xFF,0xFF
30.381209812500000,46,0xFF,0xFF
30.381254312500001,46,0xFF,0xFF
30.381304374999999,46,0xFF,0xFF
30.381348375000002,46,0xFF,0xFF
30.381392937499999,46,0xFF,0xFF
30.381437437500001,46,0xFF,0xFF
30.381481999999998,46,0xFF,0xFF
30.381532000000000,46,0xFF,0xFF
30.381576062499999,46,0xFF,0xFF
30.381620562500000,46,0xFF,0xFF
30.381686625000000,46,0xFF,0xFF
30.381731125000002,46,0xFF,0xFF
30.381775687499999,46,0xFF,0xFF
30.381820187500001,46,0xFF,0xFF
30.381864749999998,46,0xFF,0xFF
30.381908750000001,46,0xFF,0xFF
30.381953249999999,46,0xFF,0xFF
30.382003312500000,46,0xFF,0xFF
30.382047812500002,46,0xFF,0xFF
30.382092374999999,46,0xFF,0xFF
30.382136375000002,46,0xFF,0xFF
30.382180937499999,46,0xFF,0xFF
30.382230937500001,46,0xFF,0xFF
30.382275499999999,46,0xFF,0xFF
30.382320000000000,46,0xFF,0xFF
30.382364062499999,46,0xFF,0xFF
30.382408562500000,46,0xFF,0xFF
30.382458625000002,46,0xFF,0xFF
30.382503124999999,46,0xFF,0xFF
30.382547687500001,46,0xFF,0xFF
30.382592187499998,46,0xFF,0xFF
30.382636250000001,46,0xFF,0xFF
30.382680749999999,46,0xFF,0xFF
30.382752312499999,46,0xFF,0xFF
30.384513937500000,47,0xFF,0x14
30.384561500000000,47,0xFF,0x1A
30.384615000000000,47,0xFF,0xD5
30.384662562500001,47,0xFF,0xC3
30.384710562500000,47,0xFF,0x10
30.384769124999998,47,0xFF,0xEE
30.384817125000001,47,0xFF,0x45
30.384864687499999,47,0xFF,0xF7
30.384912687500002,47,0xFF,0x23
30.384960249999999,47,0xFF,0x00
30.385008249999998,47,0xFF,0xD9
30.385061312500000,47,0xFF,0x28
30.385109312499999,47,0xFF,0xA2
30.385156875000000,47,0xFF,0xC4
30.385204874999999,47,0xFF,0x5D
30.385252937499999,47,0xFF,0x51
30.385300437500000,47,0xFF,0x3D
30.385348499999999,47,0xFF,0x28
30.385396000000000,47,0xFF,0x30
30.385444062500000,47,0xFF,0x2A
30.385497062500001,47,0xFF,0xFC
30.385545125000000,47,0xFF,0x14
30.385598125000001,47,0xFF,0xC5
30.385646187500001,47,0xFF,0x91
30.385693687500002,47,0xFF,0xA3
30.385752750000002,47,0xFF,0xED
30.385800312499999,47,0xFF,0x89
30.385848312499999,47,0xFF,0x25
30.385903875000000,47,0xFF,0xFF
30.385948375000002,47,0xFF,0xFF
30.385992437500001,47,0xFF,0xFF
30.386042937500001,47,0xFF,0xFF
30.386087499999999,47,0xFF,0xFF
30.386132000000000,47,0xFF,0xFF
30.386197562500001,47,0xFF,0xFF
30.467521125000001,48,0xFF,0x05
30.467569187500001,48,0xFF,0x14
30.467617187500000,48,0xFF,0xD5
30.467664750000001,48,0xFF,0xC3
30.467712750000000,48,0xFF,0x10
30.467760312500001,48,0xFF,0xEE
30.467808312500001,48,0xFF,0x45
30.467856375000000,48,0xFF,0xF7
30.467909375000001,48,0xFF,0x23
30.467957437500001,48,0xFF,0x00
30.468004937500002,48,0xFF,0x02
30.468069000000000,48,0xFF,0x11
30.468116500000001,48,0xFF,0x07
30.468164562500000,48,0xFF,0xA3
30.468212562500000,48,0xFF,0x7F
30.468260125000000,48,0xFF,0xE7
30.468308125000000,48,0xFF,0xA2
30.468361187500001,48,0xFF,0xD9
30.468782937499999,48,0xFF,0x6E
30.468830499999999,48,0xFF,0x32
30.468878499999999,48,0xFF,0x27
30.468926562499998,48,0xFF,0x71
30.468982062500000,48,0xFF,0xFF
30.469026625000001,48,0xFF,0xFF
30.469070625000001,48,0xFF,0xFF
30.469142687500000,48,0xFF,0xFF
30.469187187500001,48,0xFF,0xFF
30.469231749999999,48,0xFF,0xFF
30.469297312500000,48,0xFF,0xFF
30.476865249999999,49,0xFF,0x07
30.476913249999999,49,0xFF,0x02
30.476961312499999,49,0xFF,0xDA
30.477008812499999,49,0xFF,0xA4
30.477064875000000,49,0xFF,0xFF
30.477141374999999,49,0xFF,0xFF
30.477185937500000,49,0xFF,0xFF
30.477230437500001,49,0xFF,0xFF
30.477274999999999,49,0xFF,0xFF
30.477325000000000,49,0xFF,0xFF
30.477369562500002,49,0xFF,0xFF
30.477414062499999,49,0xFF,0xFF
30.477458124999998,49,0xFF,0xFF
30.477502625000000,49,0xFF,0xFF
30.477552687500001,49,0xFF,0xFF
30.477597187499999,49,0xFF,0xFF
30.477641750000000,49,0xFF,0xFF
30.477685749999999,49,0xFF,0xFF
30.477730312500000,49,0xFF,0xFF
30.477780312499998,49,0xFF,0xFF
30.479234250000001,50,0xFF,0x10
30.479282312500001,50,0xFF,0x06
30.479329812500001,50,0xFF,0x00
30.479377875000001,50,0xFF,0x00
30.479425875000000,50,0xFF,0x02
30.479473437500001,50,0xFF,0x00
30.479521437500001,50,0xFF,0x73
30.479569000000001,50,0xFF,0xBF
30.479624999999999,50,0xFF,0xFF
30.479669062500001,50,0xFF,0xFF
30.479713562499999,50,0xFF,0xFF
30.479758624999999,50,0xFF,0xFF
30.479803125000000,50,0xFF,0xFF
30.479847187499999,50,0xFF,0xFF
30.479913187499999,50,0xFF,0xFF
30.485523375000000,51,0xFF,0x05
30.485570875000001,51,0xFF,0x13
30.485618937500000,51,0xFF,0xD5
30.485666937500000,51,0xFF,0xC3
30.485714500000000,51,0xFF,0x10
30.485762500000000,51,0xFF,0xEE
30.485810062500001,51,0xFF,0x45
30.485858062500000,51,0xFF,0xF7
30.485906125000000,51,0xFF,0x23
30.485953625000000,51,0xFF,0x00
30.486001687500000,51,0xFF,0x03
30.486049187500001,51,0xFF,0x11
30.486097250000000,51,0xFF,0x06
30.486171812500000,51,0xFF,0xA3
30.486219812500000,51,0xFF,0xFE
30.486267375000001,51,0xFF,0xE7
30.486315375000000,51,0xFF,0xB3
30.486363437500000,51,0xFF,0xDE
30.486410937500001,51,0xFF,0x85
30.486459000000000,51,0xFF,0x8E
30.486506500000001,51,0xFF,0x73
30.486562562500001,51,0xFF,0xFF
30.486606562500000,51,0xFF,0xFF
30.486651125000002,51,0xFF,0xFF
30.486696125000002,51,0xFF,0xFF
30.486740187500001,51,0xFF,0xFF
30.486790187499999,51,0xFF,0xFF
30.486856249999999,51,0xFF,0xFF
30.494138000000000,52,0xFF,0x07
30.494207562500002,52,0xFF,0x02
30.494255062499999,52,0xFF,0xDA
30.494303124999998,52,0xFF,0xA4
30.494358625000000,52,0xFF,0xFF
30.494403187500001,52,0xFF,0xFF
30.494447687499999,52,0xFF,0xFF
30.494497750000001,52,0xFF,0xFF
30.494542249999999,52,0xFF,0xFF
30.494586812500000,52,0xFF,0xFF
30.494631312500001,52,0xFF,0xFF
30.494675874999999,52,0xFF,0xFF
30.494725875000000,52,0xFF,0xFF
30.494769937499999,52,0xFF,0xFF
30.494814437500001,52,0xFF,0xFF
30.494858937499998,52,0xFF,0xFF
30.494903499999999,52,0xFF,0xFF
30.494952999999999,52,0xFF,0xFF
30.494997562500000,52,0xFF,0xFF
30.495047562500002,52,0xFF,0xFF
30.496126812499998,53,0xFF,0x10
30.496174812500001,53,0xFF,0x06
30.496222374999999,53,0xFF,0x00
30.496270375000002,53,0xFF,0x00
30.496318437500001,53,0xFF,0x03
30.496365937499998,53,0xFF,0x00
30.496414000000001,53,0xFF,0x42
30.496461499999999,53,0xFF,0x8C
30.496517062500001,53,0xFF,0xFF
30.496561562499998,53,0xFF,0xFF
30.496606125000000,53,0xFF,0xFF
30.496651125000000,53,0xFF,0xFF
30.496695687500001,53,0xFF,0xFF
30.496739687500000,53,0xFF,0xFF
30.496805750000000,53,0xFF,0xFF
30.538027124999999,54,0xFF,0x07
30.538075187499999,54,0xFF,0x02
30.538123187499998,54,0xFF,0xDA
30.538176249999999,54,0xFF,0xA4
30.538231750000001,54,0xFF,0xFF
30.538276312499999,54,0xFF,0xFF
30.538320812500000,54,0xFF,0xFF
30.538365375000001,54,0xFF,0xFF
30.538426375000000,54,0xFF,0xFF
30.538470437499999,54,0xFF,0xFF
30.538880687500001,54,0xFF,0xFF
30.538925249999998,54,0xFF,0xFF
30.538969750000000,54,0xFF,0xFF
30.539014312500001,54,0xFF,0xFF
30.539058812499999,54,0xFF,0xFF
30.539103312500000,54,0xFF,0xFF
30.539147875000001,54,0xFF,0xFF
30.539197375000001,54,0xFF,0xFF
30.540288125000000,55,0xFF,0x10
30.540362687500000,55,0xFF,0x06
30.540410687500000,55,0xFF,0x08
30.540458250000000,55,0xFF,0x00
30.540506250000000,55,0xFF,0x00
30.540553812500001,55,0xFF,0x00
30.540601812500000,55,0xFF,0xD2
30.540649875000000,55,0xFF,0x5C
30.540705375000002,55,0xFF,0xFF
30.540749937499999,55,0xFF,0xFF
30.540793937499998,55,0xFF,0xFF
30.540838999999998,55,0xFF,0xFF
30.540883500000000,55,0xFF,0xFF
30.540928062500001,55,0xFF,0xFF
30.540999062499999,55,0xFF,0xFF
30.542016749999998,56,0xFF,0x06
30.542064249999999,56,0xFF,0x02
30.542112312499999,56,0xFF,0xEB
30.542159812500000,56,0xFF,0x97
30.542215875000000,56,0xFF,0xFF
30.542259874999999,56,0xFF,0xFF
30.542304437500000,56,0xFF,0xFF
30.542349437500000,56,0xFF,0xFF
30.542394000000002,56,0xFF,0xFF
30.542454500000002,56,0xFF,0xFF
30.542498562500001,56,0xFF,0xFF
30.542543062499998,56,0xFF,0xFF
30.542587624999999,56,0xFF,0xFF
30.542632125000001,56,0xFF,0xFF
30.542676687499998,56,0xFF,0xFF
30.542721187500000,56,0xFF,0xFF
30.542771250000001,56,0xFF,0xFF
30.542815749999999,56,0xFF,0xFF
30.542859812500001,56,0xFF,0xFF
30.542904312499999,56,0xFF,0xFF
30.542948875000000,56,0xFF,0xFF
30.542998874999999,56,0xFF,0xFF
30.543042937500001,56,0xFF,0xFF
30.543087437499999,56,0xFF,0xFF
30.543131937500000,56,0xFF,0xFF
30.543176500000001,56,0xFF,0xFF
30.543226499999999,56,0xFF,0xFF
30.543271062500001,56,0xFF,0xFF
30.543315062500000,56,0xFF,0xFF
30.543359625000001,56,0xFF,0xFF
30.543404124999999,56,0xFF,0xFF
30.543448687500000,56,0xFF,0xFF
30.543509187500000,56,0xFF,0xFF
30.543553750000001,56,0xFF,0xFF
30.543598249999999,56,0xFF,0xFF
30.543642812500000,56,0xFF,0xFF
30.543687312500001,56,0xFF,0xFF
30.543731874999999,56,0xFF,0xFF
30.543776375000000,56,0xFF,0xFF
30.543825937499999,56,0xFF,0xFF
30.543870437500001,56,0xFF,0xFF
30.543914999999998,56,0xFF,0xFF
30.543959500000000,56,0xFF,0xFF
30.544004062500001,56,0xFF,0xFF
30.544059062500001,56,0xFF,0xFF
30.545133249999999,57,0xFF,0x10
30.545180812500000,57,0xFF,0x06
30.545228812500000,57,0xFF,0x08
30.545276375000000,57,0xFF,0x00
30.545324375000000,57,0xFF,0x00
30.545372437499999,57,0xFF,0x02
30.545446999999999,57,0xFF,0x90
30.545494500000000,57,0xFF,0x7C
30.545550562500001,57,0xFF,0xFF
30.545594562500000,57,0xFF,0xFF
30.545639125000001,57,0xFF,0xFF
30.545684125000001,57,0xFF,0xFF
30.545728687499999,57,0xFF,0xFF
30.545772687500001,57,0xFF,0xFF
30.545838750000001,57,0xFF,0xFF
30.552545625000000,58,0xFF,0x05
30.552593125000001,58,0xFF,0x13
30.552641187500001,58,0xFF,0xD5
30.552688687500002,58,0xFF,0xC3
30.552736750000001,58,0xFF,0x10
30.552789749999999,58,0xFF,0xEE
30.552837812500002,58,0xFF,0x45
30.552890812499999,58,0xFF,0xF7
30.552938874999999,58,0xFF,0x23
30.552986874999998,58,0xFF,0x00
30.553034437499999,58,0xFF,0x04
30.553082437499999,58,0xFF,0x11
30.553129999999999,58,0xFF,0x06
30.553177999999999,58,0xFF,0xA3
30.553225562500000,58,0xFF,0xFD
30.553273562499999,58,0xFF,0xE2
30.553326625000000,58,0xFF,0xA2
30.553374625000000,58,0xFF,0x7A
30.553422187500001,58,0xFF,0x30
30.553481250000001,58,0xFF,0x25
30.553528750000002,58,0xFF,0xC2
30.553584312500000,58,0xFF,0xFF
