Time [s],Packet ID,MOSI,MISO
7.438363500000000,0,0xFF,0x01
7.438454937500000,0,0xFF,0x02
7.438546312500000,0,0xFF,0x7C
7.438637375000000,0,0xFF,0x0E
7.438744125000000,0,0xFF,0xFF
7.438840875000000,0,0xFF,0xFF
7.438937562500000,0,0xFF,0xFF
7.439035312500000,0,0xFF,0xFF
7.439132375000000,0,0xFF,0xFF
7.439228812500000,0,0xFF,0xFF
7.439343187500000,0,0xFF,0xFF
8.742263687499999,1,0xFF,0x07
8.742355062500000,1,0xFF,0x02
8.742446125000001,1,0xFF,0xDA
8.742537562500001,1,0xFF,0xA4
8.742644312500000,1,0xFF,0xFF
8.742741000000001,1,0xFF,0xFF
8.743836437500001,1,0xFF,0xFF
8.743934187500001,1,0xFF,0xFF
8.744031250000001,1,0xFF,0xFF
8.744128625000000,1,0xFF,0xFF
8.744225999999999,1,0xFF,0xFF
8.744323437500000,1,0xFF,0xFF
8.744420812500000,1,0xFF,0xFF
8.744518250000000,1,0xFF,0xFF
8.744615625000000,1,0xFF,0xFF
8.744713000000001,1,0xFF,0xFF
8.744809437500001,1,0xFF,0xFF
8.744906500000001,1,0xFF,0xFF
8.746365812500001,2,0xFF,0x10
8.746457187500001,2,0xFF,0x06
8.746548250000000,2,0xFF,0x10
8.746639999999999,2,0xFF,0x00
8.746731062500000,2,0xFF,0x00
8.746822437500001,2,0xFF,0x00
8.746913500000000,2,0xFF,0xB6
8.747004937500000,2,0xFF,0xC2
8.747111625000001,2,0xFF,0xFF
8.747208375000000,2,0xFF,0xFF
8.747305125000000,2,0xFF,0xFF
8.747402875000001,2,0xFF,0xFF
8.747499937500001,2,0xFF,0xFF
8.747596312500001,2,0xFF,0xFF
8.747710750000000,2,0xFF,0xFF
8.749555624999999,3,0xFF,0x10
8.749647062499999,3,0xFF,0x06
8.749738437500000,3,0xFF,0xFF
8.749829812500000,3,0xFF,0x0F
8.749921562500001,3,0xFF,0x00
8.750012937499999,3,0xFF,0x00
8.750104687500000,3,0xFF,0x83
8.750195750000000,3,0xFF,0xBE
8.750302500000000,3,0xFF,0xFF
8.750399187499999,3,0xFF,0xFF
8.750495937500000,3,0xFF,0xFF
8.750593687500000,3,0xFF,0xFF
8.750690750000000,3,0xFF,0xFF
8.750787125000000,3,0xFF,0xFF
8.750901562499999,3,0xFF,0xFF
8.752373562500001,4,0xFF,0x0C
8.752464937499999,4,0xFF,0x13
8.752557312500000,4,0xFF,0x01
8.752648375000000,4,0xFF,0x00
8.752739812500000,4,0xFF,0x00
8.753839562500000,4,0xFF,0x00
8.753930937500000,4,0xFF,0x00
8.754022000000001,4,0xFF,0x00
8.754114375000000,4,0xFF,0x00
8.754205437500000,4,0xFF,0x00
8.754297875000001,4,0xFF,0x00
8.754388937500000,4,0xFF,0x00
8.754630750000000,4,0xFF,0x00
8.754721812500000,4,0xFF,0x00
8.754814187499999,4,0xFF,0x00
8.754905250000000,4,0xFF,0x00
8.754997687500000,4,0xFF,0x00
8.755089375000001,4,0xFF,0x00
8.755180437500000,4,0xFF,0x00
8.755395625000000,4,0xFF,0x2F
8.755486687499999,4,0xFF,0x89
8.755585375000001,4,0xFF,0xFF
8.755682437500001,4,0xFF,0xFF
8.755779499999999,4,0xFF,0xFF
8.755876625000001,4,0xFF,0xFF
8.755973687499999,4,0xFF,0xFF
8.756194125000000,4,0xFF,0xFF
8.756291187500000,4,0xFF,0xFF
8.756388250000001,4,0xFF,0xFF
8.756485312500001,4,0xFF,0xFF
8.756582750000000,4,0xFF,0xFF
8.760822937500000,5,0xFF,0x0C
8.760914312500001,5,0xFF,0x13
8.761006062500000,5,0xFF,0x01
8.761097437500000,5,0xFF,0x00
8.761189187499999,5,0xFF,0x00
8.761280562500000,5,0xFF,0x00
8.761372000000000,5,0xFF,0x00
8.761463375000000,5,0xFF,0x00
8.761554750000000,5,0xFF,0x00
8.761646499999999,5,0xFF,0x00
8.761737875000000,5,0xFF,0x00
8.761829625000001,5,0xFF,0x00
8.761920687500000,5,0xFF,0x00
8.762012437499999,5,0xFF,0x00
8.762103500000000,5,0xFF,0x00
8.762195187500000,5,0xFF,0x00
8.762286625000000,5,0xFF,0x00
8.762378000000000,5,0xFF,0x00
8.762469749999999,5,0xFF,0x00
8.762561125000000,5,0xFF,0x2F
8.762652500000000,5,0xFF,0x89
8.762759250000000,5,0xFF,0xFF
8.763855687500000,5,0xFF,0xFF
8.763952750000000,5,0xFF,0xFF
8.764050812500001,5,0xFF,0xFF
8.764147562500000,5,0xFF,0xFF
8.764244250000001,5,0xFF,0xFF
8.764358312500001,5,0xFF,0xFF
8.766814687500000,6,0xFF,0x12
8.766906062500000,6,0xFF,0x02
8.766997437500001,6,0xFF,0x5C
8.767088500000000,6,0xFF,0x58
8.767195624999999,6,0xFF,0xFF
8.767292312500000,6,0xFF,0xFF
8.767389062499999,6,0xFF,0xFF
8.767486812500000,6,0xFF,0xFF
8.767583500000001,6,0xFF,0xFF
8.767680937500000,6,0xFF,0xFF
8.767778312500001,6,0xFF,0xFF
8.767874750000001,6,0xFF,0xFF
8.767972125000000,6,0xFF,0xFF
8.768069499999999,6,0xFF,0xFF
8.768166937500000,6,0xFF,0xFF
8.768264312499999,6,0xFF,0xFF
8.768360749999999,6,0xFF,0xFF
8.768458125000000,6,0xFF,0xFF
8.768555187500001,6,0xFF,0xFF
8.768651937500000,6,0xFF,0xFF
8.768749000000000,6,0xFF,0xFF
8.770175937499999,7,0xFF,0x0F
8.770267375000000,7,0xFF,0x0C
8.770367437499999,7,0xFF,0x1A
8.770458500000000,7,0xFF,0x00
8.770550187500000,7,0xFF,0x00
8.770650249999999,7,0xFF,0x00
8.770741687499999,7,0xFF,0x00
8.770833375000000,7,0xFF,0x0A
8.770924812500001,7,0xFF,0x01
8.771015875000000,7,0xFF,0x10
8.771107562499999,7,0xFF,0x03
8.771198625000000,7,0xFF,0x00
8.771290375000000,7,0xFF,0xAE
8.771381437500001,7,0xFF,0x42
8.771488187499999,7,0xFF,0xFF
8.771584937500000,7,0xFF,0xFF
8.771681624999999,7,0xFF,0xFF
8.771779374999999,7,0xFF,0xFF
8.771876125000000,7,0xFF,0xFF
8.771972812500000,7,0xFF,0xFF
8.772087250000000,7,0xFF,0xFF
8.774422812499999,8,0xFF,0x02
8.774514249999999,8,0xFF,0x10
8.774605625000000,8,0xFF,0x01
8.774696687500001,8,0xFF,0x07
8.774788437500000,8,0xFF,0x02
8.774879812500000,8,0xFF,0x00
8.774971187500000,8,0xFF,0x00
8.775062625000000,8,0xFF,0x00
8.775154312500000,8,0xFF,0x00
8.775245375000001,8,0xFF,0x00
8.775336812500001,8,0xFF,0x00
8.775428500000000,8,0xFF,0x00
8.775519562500000,8,0xFF,0x00
8.775611312500001,8,0xFF,0x00
8.775702687500001,8,0xFF,0x01
8.775794437500000,8,0xFF,0x00
8.775885499999999,8,0xFF,0x5B
8.775976875000000,8,0xFF,0xE0
8.776083625000000,8,0xFF,0xFF
8.776180374999999,8,0xFF,0xFF
8.776277125000000,8,0xFF,0xFF
8.776374812500000,8,0xFF,0xFF
8.776471562499999,8,0xFF,0xFF
8.776568624999999,8,0xFF,0xFF
8.776682687499999,8,0xFF,0xFF
12.746706500000000,9,0xFF,0x07
12.746797875000000,9,0xFF,0x02
12.746889625000000,9,0xFF,0xDA
12.746980687500001,9,0xFF,0xA4
12.747087375000000,9,0xFF,0xFF
12.747184125000000,9,0xFF,0xFF
12.747280875000000,9,0xFF,0xFF
12.747378937500001,9,0xFF,0xFF
12.747475687500000,9,0xFF,0xFF
12.747573062500001,9,0xFF,0xFF
12.747670437500000,9,0xFF,0xFF
12.747767874999999,9,0xFF,0xFF
12.747865250000000,9,0xFF,0xFF
12.747962687499999,9,0xFF,0xFF
12.748059375000000,9,0xFF,0xFF
12.749158812499999,9,0xFF,0xFF
12.749255187499999,9,0xFF,0xFF
12.749352249999999,9,0xFF,0xFF
12.750841625000000,10,0xFF,0x10
12.750933000000000,10,0xFF,0x06
12.751024375000000,10,0xFF,0x20
12.751115812500000,10,0xFF,0x00
12.751207500000000,10,0xFF,0x00
12.751298937500000,10,0xFF,0x00
12.751390312500000,10,0xFF,0x5F
12.751482687499999,10,0xFF,0xEE
12.751589437500000,10,0xFF,0xFF
12.751686187500001,10,0xFF,0xFF
12.751782937500000,10,0xFF,0xFF
12.751880625000000,10,0xFF,0xFF
12.751977374999999,10,0xFF,0xFF
12.752074125000000,10,0xFF,0xFF
12.752188187500000,10,0xFF,0xFF
12.754028750000000,11,0xFF,0x12
12.754120187500000,11,0xFF,0x02
12.754212562499999,11,0xFF,0x5C
12.754303625000000,11,0xFF,0x58
12.754402375000000,11,0xFF,0xFF
12.754578812500000,11,0xFF,0xFF
12.754675875000000,11,0xFF,0xFF
12.754773250000000,11,0xFF,0xFF
12.754870312500000,11,0xFF,0xFF
12.754967750000000,11,0xFF,0xFF
12.755065125000000,11,0xFF,0xFF
12.755162187500000,11,0xFF,0xFF
12.755373687500001,11,0xFF,0xFF
12.755470750000001,11,0xFF,0xFF
12.760092562500001,12,0xFF,0x12
12.760183937500001,12,0xFF,0x02
12.760275687500000,12,0xFF,0x5C
12.760366749999999,12,0xFF,0x58
12.760473812500001,12,0xFF,0xFF
12.760570562500000,12,0xFF,0xFF
12.760667249999999,12,0xFF,0xFF
12.760764999999999,12,0xFF,0xFF
12.760861750000000,12,0xFF,0xFF
12.760959124999999,12,0xFF,0xFF
12.761056500000000,12,0xFF,0xFF
12.761153937500000,12,0xFF,0xFF
12.761251312500001,12,0xFF,0xFF
12.761348750000000,12,0xFF,0xFF
12.761446125000001,12,0xFF,0xFF
12.761543500000000,12,0xFF,0xFF
12.761640937499999,12,0xFF,0xFF
12.761738312500000,12,0xFF,0xFF
12.761835749999999,12,0xFF,0xFF
12.761932125000000,12,0xFF,0xFF
12.762029187500000,12,0xFF,0xFF
12.763456124999999,13,0xFF,0x0F
12.763547562499999,13,0xFF,0x0C
12.763638937500000,13,0xFF,0x17
12.763730312500000,13,0xFF,0x00
12.763822062499999,13,0xFF,0x00
12.763913437499999,13,0xFF,0x00
12.764004874999999,13,0xFF,0x00
12.764096562500001,13,0xFF,0x0A
12.764187625000000,13,0xFF,0x01
12.764279062500000,13,0xFF,0x10
12.764370749999999,13,0xFF,0x03
12.764462187500000,13,0xFF,0x00
12.764553562500000,13,0xFF,0x95
12.764644937500000,13,0xFF,0xCA
12.764751687500000,13,0xFF,0xFF
12.764848750000001,13,0xFF,0xFF
12.764945500000000,13,0xFF,0xFF
12.765043250000000,13,0xFF,0xFF
12.765139937500001,13,0xFF,0xFF
12.765237000000001,13,0xFF,0xFF
12.765351125000000,13,0xFF,0xFF
12.766686999999999,14,0xFF,0x02
12.766778374999999,14,0xFF,0x10
12.766869812500000,14,0xFF,0x01
12.766961187500000,14,0xFF,0x07
12.767052937500001,14,0xFF,0x02
12.767144312499999,14,0xFF,0x00
12.767236062500000,14,0xFF,0x00
12.767327125000000,14,0xFF,0x00
12.767418812500001,14,0xFF,0x00
12.767509875000000,14,0xFF,0x00
12.767601312500000,14,0xFF,0x00
12.767693000000000,14,0xFF,0x00
12.767784062500001,14,0xFF,0x00
12.767875812500000,14,0xFF,0x00
12.767967187500000,14,0xFF,0x01
12.768058625000000,14,0xFF,0x00
12.769152687500000,14,0xFF,0x5B
12.769243749999999,14,0xFF,0xE0
12.769350500000000,14,0xFF,0xFF
12.769447187500001,14,0xFF,0xFF
12.769543937500000,14,0xFF,0xFF
12.769641687500000,14,0xFF,0xFF
12.769738437499999,14,0xFF,0xFF
12.769835125000000,14,0xFF,0xFF
12.769949250000000,14,0xFF,0xFF
14.755531124999999,15,0xFF,0x07
14.755622499999999,15,0xFF,0x02
14.755713937499999,15,0xFF,0xDA
14.755814000000001,15,0xFF,0xA4
14.755921062500001,15,0xFF,0xFF
14.756017812500000,15,0xFF,0xFF
14.756114875000000,15,0xFF,0xFF
14.756221249999999,15,0xFF,0xFF
14.756318000000000,15,0xFF,0xFF
14.756415375000000,15,0xFF,0xFF
14.756512812500000,15,0xFF,0xFF
14.756697250000000,15,0xFF,0xFF
14.756794624999999,15,0xFF,0xFF
14.756892062500000,15,0xFF,0xFF
14.756989437500000,15,0xFF,0xFF
14.757086875000001,15,0xFF,0xFF
14.757192249999999,15,0xFF,0xFF
14.757289312499999,15,0xFF,0xFF
14.758760625000001,16,0xFF,0x10
14.758852062500001,16,0xFF,0x06
14.758943125000000,16,0xFF,0x01
14.759034812499999,16,0xFF,0x00
14.759125875000001,16,0xFF,0x00
14.759235312500000,16,0xFF,0x00
14.759326687500000,16,0xFF,0xA5
14.759418125000000,16,0xFF,0xAF
14.759524812500000,16,0xFF,0xFF
14.759621562500000,16,0xFF,0xFF
14.759718312500000,16,0xFF,0xFF
14.759816000000001,16,0xFF,0xFF
14.759912750000000,16,0xFF,0xFF
14.760009500000001,16,0xFF,0xFF
14.760132562500001,16,0xFF,0xFF
14.762700312500000,17,0xFF,0x08
14.762791687500000,17,0xFF,0x03
14.762891750000000,17,0xFF,0x00
14.762983187500000,17,0xFF,0x6E
14.763074562500000,17,0xFF,0x30
14.763181312500000,17,0xFF,0xFF
14.763278062500000,17,0xFF,0xFF
14.763374750000001,17,0xFF,0xFF
14.763472812500000,17,0xFF,0xFF
14.763569562500001,17,0xFF,0xFF
14.763667000000000,17,0xFF,0xFF
14.763764374999999,17,0xFF,0xFF
14.763861750000000,17,0xFF,0xFF
14.763958812500000,17,0xFF,0xFF
14.764056249999999,17,0xFF,0xFF
14.764153312500000,17,0xFF,0xFF
14.764250687500001,17,0xFF,0xFF
14.764348125000000,17,0xFF,0xFF
14.764445500000001,17,0xFF,0xFF
14.764542562500001,17,0xFF,0xFF
14.764639937500000,17,0xFF,0xFF
14.764737374999999,17,0xFF,0xFF
14.764834750000000,17,0xFF,0xFF
14.764932187499999,17,0xFF,0xFF
14.765028875000000,17,0xFF,0xFF
14.765126312500000,17,0xFF,0xFF
14.765223687500001,17,0xFF,0xFF
14.765321062500000,17,0xFF,0xFF
14.765418499999999,17,0xFF,0xFF
14.765515875000000,17,0xFF,0xFF
14.765613312499999,17,0xFF,0xFF
14.765709687499999,17,0xFF,0xFF
14.765807062500000,17,0xFF,0xFF
14.765904500000000,17,0xFF,0xFF
14.766001875000001,17,0xFF,0xFF
14.766098937500001,17,0xFF,0xFF
14.766204374999999,17,0xFF,0xFF
14.766301750000000,17,0xFF,0xFF
14.766399125000000,17,0xFF,0xFF
14.766496562500000,17,0xFF,0xFF
14.766593937500000,17,0xFF,0xFF
14.766691375000001,17,0xFF,0xFF
14.766787750000001,17,0xFF,0xFF
14.766885125000000,17,0xFF,0xFF
14.766982562500001,17,0xFF,0xFF
14.767079937500000,17,0xFF,0xFF
14.767194375000001,17,0xFF,0xFF
14.767291750000000,17,0xFF,0xFF
14.767389187499999,17,0xFF,0xFF
14.767486562500000,17,0xFF,0xFF
14.767582937500000,17,0xFF,0xFF
14.767680374999999,17,0xFF,0xFF
16.739215250000001,18,0xFF,0x07
16.739306625000001,18,0xFF,0x02
16.739398375000000,18,0xFF,0xDA
16.739489437500001,18,0xFF,0xA4
16.739596124999998,18,0xFF,0xFF
16.739693562500001,18,0xFF,0xFF
16.739790249999999,18,0xFF,0xFF
16.739888000000001,18,0xFF,0xFF
16.739985062500001,18,0xFF,0xFF
16.740082500000000,18,0xFF,0xFF
16.740179874999999,18,0xFF,0xFF
16.740277249999998,18,0xFF,0xFF
16.740373687500000,18,0xFF,0xFF
16.740471062499999,18,0xFF,0xFF
16.740568499999998,18,0xFF,0xFF
16.740665875000001,18,0xFF,0xFF
16.740762250000000,18,0xFF,0xFF
16.740859312500000,18,0xFF,0xFF
16.742348687500002,19,0xFF,0x10
16.742440062499998,19,0xFF,0x06
16.742531437499999,19,0xFF,0x20
16.742631562500002,19,0xFF,0x00
16.742722937500002,19,0xFF,0x00
16.742814687500001,19,0xFF,0x00
16.742914750000001,19,0xFF,0x5F
16.743006125000001,19,0xFF,0xEE
16.743112875000001,19,0xFF,0xFF
16.743209562499999,19,0xFF,0xFF
16.743306312500000,19,0xFF,0xFF
16.744406375000001,19,0xFF,0xFF
16.744503125000001,19,0xFF,0xFF
16.744599874999999,19,0xFF,0xFF
16.744713937499998,19,0xFF,0xFF
16.746554875000001,20,0xFF,0x12
16.746646250000001,20,0xFF,0x02
16.746737312499999,20,0xFF,0x5C
16.746828687499999,20,0xFF,0x58
16.746935437499999,20,0xFF,0xFF
16.747032187500000,20,0xFF,0xFF
16.747129562500000,20,0xFF,0xFF
16.747227312500002,20,0xFF,0xFF
16.747324062499999,20,0xFF,0xFF
16.747421437500002,20,0xFF,0xFF
16.747518500000002,20,0xFF,0xFF
16.747615875000001,20,0xFF,0xFF
16.747713312500000,20,0xFF,0xFF
16.747809687499998,20,0xFF,0xFF
16.747907125000001,20,0xFF,0xFF
16.748004500000000,20,0xFF,0xFF
16.748101875000000,20,0xFF,0xFF
16.748199312499999,20,0xFF,0xFF
16.748296687500002,20,0xFF,0xFF
16.748393125000000,20,0xFF,0xFF
16.748490499999999,20,0xFF,0xFF
16.749916437500001,21,0xFF,0x0F
16.750008187500001,21,0xFF,0x0C
16.750099250000002,21,0xFF,0x14
16.750191000000001,21,0xFF,0x00
16.750282062499998,21,0xFF,0x00
16.750373437499999,21,0xFF,0x00
16.750464812499999,21,0xFF,0x00
16.750564874999998,21,0xFF,0x0A
16.750656312499999,21,0xFF,0x01
16.750748000000002,21,0xFF,0x10
16.750839437500002,21,0xFF,0x03
16.750930812499998,21,0xFF,0x00
16.751022562500001,21,0xFF,0x5A
16.751113624999999,21,0xFF,0x7B
16.751220374999999,21,0xFF,0xFF
16.751317062500000,21,0xFF,0xFF
16.751413812500001,21,0xFF,0xFF
16.751511562499999,21,0xFF,0xFF
16.751608250000000,21,0xFF,0xFF
16.751705000000001,21,0xFF,0xFF
16.751819062500001,21,0xFF,0xFF
16.753155000000000,22,0xFF,0x02
16.753246375000000,22,0xFF,0x10
16.753337437500001,22,0xFF,0x01
16.754431187500000,22,0xFF,0x07
16.754522562500000,22,0xFF,0x02
16.754614312499999,22,0xFF,0x00
16.754705375000000,22,0xFF,0x00
16.754796750000001,22,0xFF,0x00
16.754888187500001,22,0xFF,0x00
16.754979875000000,22,0xFF,0x00
16.755070937500001,22,0xFF,0x00
16.755162687500000,22,0xFF,0x00
16.755253750000001,22,0xFF,0x00
16.755345437500001,22,0xFF,0x00
16.755436499999998,22,0xFF,0x01
16.755527937499998,22,0xFF,0x00
16.755619312499999,22,0xFF,0x5B
16.755710687499999,22,0xFF,0xE0
16.755817437499999,22,0xFF,0xFF
16.755914187500000,22,0xFF,0xFF
16.756010937500001,22,0xFF,0xFF
16.756108999999999,22,0xFF,0xFF
16.756205687500000,22,0xFF,0xFF
16.756302437500000,22,0xFF,0xFF
16.756416500000000,22,0xFF,0xFF
20.725507749999998,23,0xFF,0x07
20.725607812500002,23,0xFF,0x02
20.725699500000001,23,0xFF,0xDA
20.725790562499999,23,0xFF,0xA4
20.725897312499999,23,0xFF,0xFF
20.725994062500000,23,0xFF,0xFF
20.726090812500001,23,0xFF,0xFF
20.726188499999999,23,0xFF,0xFF
20.726285250000000,23,0xFF,0xFF
20.726382687499999,23,0xFF,0xFF
20.726480062499999,23,0xFF,0xFF
20.726577437500001,23,0xFF,0xFF
20.726674875000000,23,0xFF,0xFF
20.726772250000000,23,0xFF,0xFF
20.726869624999999,23,0xFF,0xFF
20.726967062500002,23,0xFF,0xFF
20.727063437500000,23,0xFF,0xFF
20.727160500000000,23,0xFF,0xFF
20.728649874999999,24,0xFF,0x10
20.729743625000001,24,0xFF,0x06
20.729835312500001,24,0xFF,0x20
20.729935375000000,24,0xFF,0x00
20.730027124999999,24,0xFF,0x00
20.730118187500000,24,0xFF,0x00
20.730218250000000,24,0xFF,0x5F
20.730309625000000,24,0xFF,0xEE
20.730416375000001,24,0xFF,0xFF
20.730513125000002,24,0xFF,0xFF
20.730609874999999,24,0xFF,0xFF
20.730707937500000,24,0xFF,0xFF
20.730804625000001,24,0xFF,0xFF
20.730901374999998,24,0xFF,0xFF
20.731015437500002,24,0xFF,0xFF
20.732856000000002,25,0xFF,0x12
20.732947750000001,25,0xFF,0x02
20.733039125000001,25,0xFF,0x5C
20.733130562500001,25,0xFF,0x58
20.733237312499998,25,0xFF,0xFF
20.733333999999999,25,0xFF,0xFF
20.733431437499998,25,0xFF,0xFF
20.733529125000000,25,0xFF,0xFF
20.733625875000001,25,0xFF,0xFF
20.733723312500000,25,0xFF,0xFF
20.733820687500000,25,0xFF,0xFF
20.733918062499999,25,0xFF,0xFF
20.734015500000002,25,0xFF,0xFF
20.734112875000001,25,0xFF,0xFF
20.734210250000000,25,0xFF,0xFF
20.734307687499999,25,0xFF,0xFF
20.734405062499999,25,0xFF,0xFF
20.734502124999999,25,0xFF,0xFF
20.734599562500001,25,0xFF,0xFF
20.734695937500000,25,0xFF,0xFF
20.734793000000000,25,0xFF,0xFF
20.736218312500000,26,0xFF,0x0F
20.736309687500000,26,0xFF,0x0C
20.736401437500000,26,0xFF,0x11
20.736492500000001,26,0xFF,0x00
20.736583875000001,26,0xFF,0x00
20.736675625000000,26,0xFF,0x00
20.736767000000000,26,0xFF,0x00
20.736858375000001,26,0xFF,0x0A
20.736950125000000,26,0xFF,0x01
20.737041187500001,26,0xFF,0x10
20.737132937500000,26,0xFF,0x03
20.737224312500000,26,0xFF,0x00
20.737315687500001,26,0xFF,0x2A
20.737408125000002,26,0xFF,0xB9
20.737514874999999,26,0xFF,0xFF
20.737611562500000,26,0xFF,0xFF
20.737708312500001,26,0xFF,0xFF
20.737806062499999,26,0xFF,0xFF
20.737902750000000,26,0xFF,0xFF
20.737999500000001,26,0xFF,0xFF
20.738113937500000,26,0xFF,0xFF
20.740452187500001,27,0xFF,0x02
20.740543562500001,27,0xFF,0x10
20.740634624999998,27,0xFF,0x01
20.740725999999999,27,0xFF,0x07
20.740817750000001,27,0xFF,0x02
20.740909125000002,27,0xFF,0x00
20.741000562499998,27,0xFF,0x00
20.741091937499998,27,0xFF,0x00
20.741183312499999,27,0xFF,0x00
20.741275062500002,27,0xFF,0x00
20.741375125000001,27,0xFF,0x00
20.741466875000000,27,0xFF,0x00
20.741557937500001,27,0xFF,0x00
20.741649625000001,27,0xFF,0x00
20.741740687499998,27,0xFF,0x01
20.741832062499999,27,0xFF,0x00
20.741923499999999,27,0xFF,0x5B
20.742014874999999,27,0xFF,0xE0
20.742121624999999,27,0xFF,0xFF
20.742218375000000,27,0xFF,0xFF
20.742315437500000,27,0xFF,0xFF
20.742413500000001,27,0xFF,0xFF
20.742510187499999,27,0xFF,0xFF
20.742606937500000,27,0xFF,0xFF
20.742721000000000,27,0xFF,0xFF
24.711975437500001,28,0xFF,0x07
24.712066812500002,28,0xFF,0x02
24.712158187499998,28,0xFF,0xDA
24.712249249999999,28,0xFF,0xA4
24.712356000000000,28,0xFF,0xFF
24.712452750000001,28,0xFF,0xFF
24.712549500000002,28,0xFF,0xFF
24.712647187500000,28,0xFF,0xFF
24.712743937500001,28,0xFF,0xFF
24.712841312500000,28,0xFF,0xFF
24.712938749999999,28,0xFF,0xFF
24.713036124999999,28,0xFF,0xFF
24.713133562500001,28,0xFF,0xFF
24.713230937500001,28,0xFF,0xFF
24.713328312500000,28,0xFF,0xFF
24.713425749999999,28,0xFF,0xFF
24.713522125000001,28,0xFF,0xFF
24.713619187500001,28,0xFF,0xFF
24.716110874999998,29,0xFF,0x10
24.716202249999998,29,0xFF,0x06
24.716293687499999,29,0xFF,0x20
24.716393750000002,29,0xFF,0x00
24.716485124999998,29,0xFF,0x00
24.716576499999999,29,0xFF,0x00
24.716676562499998,29,0xFF,0x5F
24.716767999999998,29,0xFF,0xEE
24.716874749999999,29,0xFF,0xFF
24.716971437500000,29,0xFF,0xFF
24.717068187500001,29,0xFF,0xFF
24.717166562500001,29,0xFF,0xFF
24.717263312499998,29,0xFF,0xFF
24.717360062499999,29,0xFF,0xFF
24.717474124999999,29,0xFF,0xFF
24.719314687499999,30,0xFF,0x12
24.719406124999999,30,0xFF,0x02
24.719497499999999,30,0xFF,0x5C
24.719588562500000,30,0xFF,0x58
24.719695312500001,30,0xFF,0xFF
24.719792000000002,30,0xFF,0xFF
24.719888749999999,30,0xFF,0xFF
24.719986500000001,30,0xFF,0xFF
24.720083249999998,30,0xFF,0xFF
24.720180625000001,30,0xFF,0xFF
24.720278000000000,30,0xFF,0xFF
24.720375437500000,30,0xFF,0xFF
24.720472812499999,30,0xFF,0xFF
24.720570187500002,30,0xFF,0xFF
24.720667625000001,30,0xFF,0xFF
24.720765000000000,30,0xFF,0xFF
24.720862437499999,30,0xFF,0xFF
24.720958812500001,30,0xFF,0xFF
24.721056187500000,30,0xFF,0xFF
24.721152937500001,30,0xFF,0xFF
24.721250000000001,30,0xFF,0xFF
24.722674312500001,31,0xFF,0x0F
24.722765687500001,31,0xFF,0x0C
24.722865750000000,31,0xFF,0x0E
24.722957500000000,31,0xFF,0x00
24.723048875000000,31,0xFF,0x00
24.723140312500000,31,0xFF,0x00
24.723231687500000,31,0xFF,0x00
24.723323437499999,31,0xFF,0x0A
24.723414812500000,31,0xFF,0x01
24.723593250000000,31,0xFF,0x10
24.723684625000001,31,0xFF,0x03
24.723776062500001,31,0xFF,0x00
24.723867125000002,31,0xFF,0x0D
24.723958499999998,31,0xFF,0x7B
24.725066937499999,31,0xFF,0xFF
24.725163625000000,31,0xFF,0xFF
24.725260375000001,31,0xFF,0xFF
24.725358437499999,31,0xFF,0xFF
24.725455187500000,31,0xFF,0xFF
24.725551937500001,31,0xFF,0xFF
24.725666000000000,31,0xFF,0xFF
24.727048937500001,32,0xFF,0x02
24.727140312500001,32,0xFF,0x10
24.727232062500001,32,0xFF,0x01
24.727323125000002,32,0xFF,0x07
24.727414499999998,32,0xFF,0x02
24.727506250000001,32,0xFF,0x00
24.727597625000001,32,0xFF,0x00
24.727689000000002,32,0xFF,0x00
24.727780437500002,32,0xFF,0x00
24.727872125000001,32,0xFF,0x00
24.727963187499999,32,0xFF,0x00
24.728054624999999,32,0xFF,0x00
24.728145999999999,32,0xFF,0x00
24.728237750000002,32,0xFF,0x00
24.728328812499999,32,0xFF,0x01
24.728420499999999,32,0xFF,0x00
24.728511937499999,32,0xFF,0x5B
24.728603312499999,32,0xFF,0xE0
24.728710062499999,32,0xFF,0xFF
24.728806750000000,32,0xFF,0xFF
24.728903812500000,32,0xFF,0xFF
24.729001562499999,32,0xFF,0xFF
24.729099000000001,32,0xFF,0xFF
24.729195687499999,32,0xFF,0xFF
24.729309749999999,32,0xFF,0xFF
28.698434937500000,33,0xFF,0x07
28.698526375000000,33,0xFF,0x02
28.698626437500000,33,0xFF,0xDA
28.698717812500000,33,0xFF,0xA4
28.698824562500000,33,0xFF,0xFF
28.698921625000001,33,0xFF,0xFF
28.699018375000001,33,0xFF,0xFF
28.699116437499999,33,0xFF,0xFF
28.699213125000000,33,0xFF,0xFF
28.699310562499999,33,0xFF,0xFF
28.700409312500000,33,0xFF,0xFF
28.700506687499999,33,0xFF,0xFF
28.700604062499998,33,0xFF,0xFF
28.700701500000001,33,0xFF,0xFF
28.700798875000000,33,0xFF,0xFF
28.700895312499998,33,0xFF,0xFF
28.700991999999999,33,0xFF,0xFF
28.701089062499999,33,0xFF,0xFF
28.702578437500001,34,0xFF,0x10
28.702669812500002,34,0xFF,0x06
28.702761187499998,34,0xFF,0x20
28.702852249999999,34,0xFF,0x00
28.702943999999999,34,0xFF,0x00
28.703035374999999,34,0xFF,0x00
28.703126812499999,34,0xFF,0x5F
28.703218187499999,34,0xFF,0xEE
28.703324937500000,34,0xFF,0xFF
28.703421625000001,34,0xFF,0xFF
28.703518687500001,34,0xFF,0xFF
28.703616437499999,34,0xFF,0xFF
28.703713187500000,34,0xFF,0xFF
28.703809937500001,34,0xFF,0xFF
28.703924000000001,34,0xFF,0xFF
28.706919687500001,35,0xFF,0x12
28.707011062500001,35,0xFF,0x02
28.707102812500001,35,0xFF,0x5C
28.707193875000002,35,0xFF,0x58
28.707300937500001,35,0xFF,0xFF
28.707397687499999,35,0xFF,0xFF
28.707494375000000,35,0xFF,0xFF
28.707592125000001,35,0xFF,0xFF
28.707688874999999,35,0xFF,0xFF
28.707786250000002,35,0xFF,0xFF
28.707883687500001,35,0xFF,0xFF
28.707981062500000,35,0xFF,0xFF
28.708078437499999,35,0xFF,0xFF
28.708175874999998,35,0xFF,0xFF
28.708273250000001,35,0xFF,0xFF
28.708370625000001,35,0xFF,0xFF
28.708468062500000,35,0xFF,0xFF
28.708565437499999,35,0xFF,0xFF
28.708662875000002,35,0xFF,0xFF
28.708759250000000,35,0xFF,0xFF
28.708856312500000,35,0xFF,0xFF
28.711278249999999,36,0xFF,0x0F
28.711369687500000,36,0xFF,0x0C
28.711461062500000,36,0xFF,0x17
28.711552437500000,36,0xFF,0x00
28.711643875000000,36,0xFF,0x00
28.711735250000000,36,0xFF,0x00
28.711826625000000,36,0xFF,0x00
28.711918375000000,36,0xFF,0x0A
28.712009750000000,36,0xFF,0x01
28.712101187500000,36,0xFF,0x02
28.712192875000000,36,0xFF,0x03
28.712283937500001,36,0xFF,0x00
28.712375687500000,36,0xFF,0x96
28.712466750000001,36,0xFF,0xE7
28.712573500000001,36,0xFF,0xFF
28.712670187499999,36,0xFF,0xFF
28.712767312499999,36,0xFF,0xFF
28.712865000000001,36,0xFF,0xFF
28.712961750000002,36,0xFF,0xFF
28.713058812500002,36,0xFF,0xFF
28.713172875000001,36,0xFF,0xFF
28.714651562499999,37,0xFF,0x03
28.714742937499999,37,0xFF,0x1C
28.714834000000000,37,0xFF,0x01
28.714925375000000,37,0xFF,0x17
28.715017124999999,37,0xFF,0xFF
28.715108187500000,37,0xFF,0xFF
28.715199937500000,37,0xFF,0x00
28.715291312500000,37,0xFF,0x07
28.715383062499999,37,0xFF,0x07
28.715474437499999,37,0xFF,0x00
28.715565812500000,37,0xFF,0x00
28.715657250000000,37,0xFF,0x00
28.715748937499999,37,0xFF,0x23
28.715840374999999,37,0xFF,0x10
28.715931749999999,37,0xFF,0x11
28.716023125000000,37,0xFF,0x82
28.716114874999999,37,0xFF,0x06
28.716205937500000,37,0xFF,0xF7
28.716297312500000,37,0xFF,0x23
28.716389062499999,37,0xFF,0x00
28.716480125000000,37,0xFF,0xD5
28.716571875000000,37,0xFF,0xC3
28.716663250000000,37,0xFF,0x10
28.716754999999999,37,0xFF,0xEE
28.716846374999999,37,0xFF,0x45
28.716938062499999,37,0xFF,0xF7
28.717029499999999,37,0xFF,0x23
28.717120874999999,37,0xFF,0x00
28.717212624999998,37,0xFF,0x49
28.717303687499999,37,0xFF,0x4B
28.717410437500000,37,0xFF,0xFF
28.717507125000001,37,0xFF,0xFF
28.717603874999998,37,0xFF,0xFF
28.717701625000000,37,0xFF,0xFF
28.717798312500001,37,0xFF,0xFF
28.717895062499998,37,0xFF,0xFF
28.718009124999998,37,0xFF,0xFF
32.629371562499998,38,0xFF,0x07
32.629462937500001,38,0xFF,0x02
32.629554312499998,38,0xFF,0xDA
32.629645375000003,38,0xFF,0xA4
32.629752125000003,38,0xFF,0xFF
32.629848875000000,38,0xFF,0xFF
32.629945624999998,38,0xFF,0xFF
32.630043687499999,38,0xFF,0xFF
32.630140750000002,38,0xFF,0xFF
32.630238124999998,38,0xFF,0xFF
32.630335500000001,38,0xFF,0xFF
32.630432937499997,38,0xFF,0xFF
32.630530312499999,38,0xFF,0xFF
32.630627750000002,38,0xFF,0xFF
32.630725124999998,38,0xFF,0xFF
32.630822500000001,38,0xFF,0xFF
32.630918937499999,38,0xFF,0xFF
32.631016000000002,38,0xFF,0xFF
32.632505312500001,39,0xFF,0x10
32.632596687499998,39,0xFF,0x06
32.632688125000001,39,0xFF,0x20
32.632779499999998,39,0xFF,0x00
32.632870562500003,39,0xFF,0x00
32.632962312499998,39,0xFF,0x00
32.633053687500002,39,0xFF,0x5F
32.633145062499999,39,0xFF,0xEE
32.633251812499999,39,0xFF,0xFF
32.633348875000003,39,0xFF,0xFF
32.633445625000000,39,0xFF,0xFF
32.633543375000002,39,0xFF,0xFF
32.633640062500000,39,0xFF,0xFF
32.633736812499997,39,0xFF,0xFF
32.633850875000000,39,0xFF,0xFF
32.637012374999998,40,0xFF,0x12
32.637103750000001,40,0xFF,0x02
32.637203812499997,40,0xFF,0x5C
32.637294875000002,40,0xFF,0x58
32.637401937500002,40,0xFF,0xFF
32.637498999999998,40,0xFF,0xFF
32.637595750000003,40,0xFF,0xFF
32.637693499999997,40,0xFF,0xFF
32.637790187500002,40,0xFF,0xFF
32.637887937499997,40,0xFF,0xFF
32.637985312500000,40,0xFF,0xFF
32.638082750000002,40,0xFF,0xFF
32.638180124999998,40,0xFF,0xFF
32.638277562500001,40,0xFF,0xFF
32.638374937499997,40,0xFF,0xFF
32.638472312499999,40,0xFF,0xFF
32.638569750000002,40,0xFF,0xFF
32.638667124999998,40,0xFF,0xFF
32.638764562500000,40,0xFF,0xFF
32.638860937499999,40,0xFF,0xFF
32.638958000000002,40,0xFF,0xFF
32.640382312500002,41,0xFF,0x0F
32.640473687499998,41,0xFF,0x0C
32.640565062500002,41,0xFF,0x17
32.640656499999999,41,0xFF,0x00
32.640748187500002,41,0xFF,0x00
32.640839249999999,41,0xFF,0x00
32.640930687500003,41,0xFF,0x00
32.641022062499999,41,0xFF,0x0A
32.641113437500003,41,0xFF,0x01
32.641205187499999,41,0xFF,0x02
32.641296562500003,41,0xFF,0x03
32.641387937499999,41,0xFF,0x00
32.641479687500002,41,0xFF,0x96
32.641570750000000,41,0xFF,0xE7
32.641677500000000,41,0xFF,0xFF
32.641774249999997,41,0xFF,0xFF
32.641870937500002,41,0xFF,0xFF
32.641968687499997,41,0xFF,0xFF
32.642065750000000,41,0xFF,0xFF
32.642162499999998,41,0xFF,0xFF
32.642276562500001,41,0xFF,0xFF
32.643754874999999,42,0xFF,0x03
32.643846312500003,42,0xFF,0x1C
32.643937999999999,42,0xFF,0x01
32.644029062500003,42,0xFF,0x17
32.644120500000000,42,0xFF,0xFF
32.644211875000003,42,0xFF,0xFF
32.644303562499999,42,0xFF,0x00
32.644395000000003,42,0xFF,0x07
32.644486687499999,42,0xFF,0x07
32.645580812500000,42,0xFF,0x00
32.645672187499997,42,0xFF,0x00
32.645763250000002,42,0xFF,0x00
32.645854624999998,42,0xFF,0x23
32.645946375000001,42,0xFF,0x10
32.646037749999998,42,0xFF,0x11
32.646129500000001,42,0xFF,0x82
32.646220562499998,42,0xFF,0x06
32.646312250000001,42,0xFF,0xF7
32.646403312499999,42,0xFF,0x23
32.646495062500001,42,0xFF,0x00
32.646586437499998,42,0xFF,0xD5
32.646677500000003,42,0xFF,0xC3
32.646769249999998,42,0xFF,0x10
32.646860312500003,42,0xFF,0xEE
32.646951687500000,42,0xFF,0x45
32.647043125000003,42,0xFF,0xF7
32.647134812499999,42,0xFF,0x23
32.647226250000003,42,0xFF,0x00
32.647317937499999,42,0xFF,0x49
32.647409000000003,42,0xFF,0x4B
32.647515749999997,42,0xFF,0xFF
32.647612500000001,42,0xFF,0xFF
32.647709249999998,42,0xFF,0xFF
32.647806937500000,42,0xFF,0xFF
32.647903687499998,42,0xFF,0xFF
32.648000437500002,42,0xFF,0xFF
32.648114499999998,42,0xFF,0xFF
36.562617000000003,43,0xFF,0x07
36.562708437500000,43,0xFF,0x02
36.562799499999997,43,0xFF,0xDA
36.562890875000001,43,0xFF,0xA4
36.562997625000001,43,0xFF,0xFF
36.563094374999999,43,0xFF,0xFF
36.563191062500003,43,0xFF,0xFF
36.563288812499998,43,0xFF,0xFF
36.563385562500002,43,0xFF,0xFF
36.563482937499998,43,0xFF,0xFF
36.563580312500001,43,0xFF,0xFF
36.563677437499997,43,0xFF,0xFF
36.563774500000001,43,0xFF,0xFF
36.563871562499997,43,0xFF,0xFF
36.563968937500000,43,0xFF,0xFF
36.564066312500003,43,0xFF,0xFF
36.564162750000001,43,0xFF,0xFF
36.564259125000000,43,0xFF,0xFF
36.565748437499998,44,0xFF,0x10
36.565839875000002,44,0xFF,0x06
36.565930937499999,44,0xFF,0x20
36.566022312500003,44,0xFF,0x00
36.566113687500000,44,0xFF,0x00
36.566205437500003,44,0xFF,0x00
36.566296812499999,44,0xFF,0x5F
36.566388250000003,44,0xFF,0xEE
36.566495000000003,44,0xFF,0xFF
36.566591687500001,44,0xFF,0xFF
36.566688437499998,44,0xFF,0xFF
36.566786187500000,44,0xFF,0xFF
36.566882874999997,44,0xFF,0xFF
36.566979625000002,44,0xFF,0xFF
36.567093687499998,44,0xFF,0xFF
36.569252812499997,45,0xFF,0x12
36.569344250000000,45,0xFF,0x02
36.569435624999997,45,0xFF,0x5C
36.569526687500002,45,0xFF,0x58
36.569633750000001,45,0xFF,0xFF
36.570873937499996,45,0xFF,0xFF
36.570971312499999,45,0xFF,0xFF
36.571069062500001,45,0xFF,0xFF
36.571165749999999,45,0xFF,0xFF
36.571263187500001,45,0xFF,0xFF
36.571359937499999,45,0xFF,0xFF
36.571457312500002,45,0xFF,0xFF
36.571554687499997,45,0xFF,0xFF
36.571651750000001,45,0xFF,0xFF
36.571749187499996,45,0xFF,0xFF
36.571846562499999,45,0xFF,0xFF
36.571944000000002,45,0xFF,0xFF
36.572041374999998,45,0xFF,0xFF
36.572138750000001,45,0xFF,0xFF
36.572235187499999,45,0xFF,0xFF
36.572332250000002,45,0xFF,0xFF
36.573757187500000,46,0xFF,0x0F
36.573848562499997,46,0xFF,0x0C
36.573940000000000,46,0xFF,0x17
36.574031062499998,46,0xFF,0x00
36.574122750000001,46,0xFF,0x00
36.574213812499998,46,0xFF,0x00
36.574313875000001,46,0xFF,0x00
36.574405312499998,46,0xFF,0x0A
36.574496687500002,46,0xFF,0x01
36.574588437499997,46,0xFF,0x02
36.574679500000002,46,0xFF,0x03
36.574771187499998,46,0xFF,0x00
36.574862625000002,46,0xFF,0x96
36.574953999999998,46,0xFF,0xE7
36.575060749999999,46,0xFF,0xFF
36.575157437500003,46,0xFF,0xFF
36.575254187500001,46,0xFF,0xFF
36.575351937500002,46,0xFF,0xFF
36.575448999999999,46,0xFF,0xFF
36.575545374999997,46,0xFF,0xFF
36.575659500000000,46,0xFF,0xFF
36.577138124999998,47,0xFF,0x03
36.577229500000001,47,0xFF,0x1C
36.577320937499998,47,0xFF,0x01
36.577412000000002,47,0xFF,0x17
36.577503374999999,47,0xFF,0xFF
36.577594750000003,47,0xFF,0xFF
36.577686499999999,47,0xFF,0x00
36.577777562500003,47,0xFF,0x07
36.577868937500000,47,0xFF,0x07
36.577960687500003,47,0xFF,0x00
36.578052062499999,47,0xFF,0x00
36.578143812500002,47,0xFF,0x00
36.578235187499999,47,0xFF,0x23
36.578326625000003,47,0xFF,0x10
36.578417999999999,47,0xFF,0x11
36.578509062499997,47,0xFF,0x82
36.578600437500000,47,0xFF,0x06
36.578691874999997,47,0xFF,0xF7
36.578783562500000,47,0xFF,0x23
36.578874624999997,47,0xFF,0x00
36.578966375000000,47,0xFF,0xD5
36.579057749999997,47,0xFF,0xC3
36.579149500000000,47,0xFF,0x10
36.579240875000004,47,0xFF,0xEE
36.579332250000000,47,0xFF,0x45
36.579423687499997,47,0xFF,0xF7
36.579515062500001,47,0xFF,0x23
36.579606437499997,47,0xFF,0x00
36.579698187500000,47,0xFF,0x49
36.579789249999997,47,0xFF,0x4B
36.580888687500000,47,0xFF,0xFF
36.580985374999997,47,0xFF,0xFF
36.581082125000002,47,0xFF,0xFF
36.581179874999997,47,0xFF,0xFF
36.581276562500001,47,0xFF,0xFF
36.581373312499998,47,0xFF,0xFF
36.581487375000002,47,0xFF,0xFF
40.496691937500003,48,0xFF,0x07
40.496783312500000,48,0xFF,0x02
40.496875062500003,48,0xFF,0xDA
40.496966125000000,48,0xFF,0xA4
40.497073187500000,48,0xFF,0xFF
40.497169937499997,48,0xFF,0xFF
40.497267000000001,48,0xFF,0xFF
40.497364687500003,48,0xFF,0xFF
40.497461437500000,48,0xFF,0xFF
40.497558812500003,48,0xFF,0xFF
40.497655562500000,48,0xFF,0xFF
40.497753000000003,48,0xFF,0xFF
40.497850374999999,48,0xFF,0xFF
40.497947750000002,48,0xFF,0xFF
40.498045187499997,48,0xFF,0xFF
40.498142562500000,48,0xFF,0xFF
40.498238937499998,48,0xFF,0xFF
40.498336000000002,48,0xFF,0xFF
40.499825375000000,49,0xFF,0x10
40.499916749999997,49,0xFF,0x06
40.500007812500002,49,0xFF,0x20
40.500099562499997,49,0xFF,0x00
40.500190937500001,49,0xFF,0x00
40.500282687499997,49,0xFF,0x00
40.500373750000001,49,0xFF,0x5F
40.500465124999998,49,0xFF,0xEE
40.500571874999999,49,0xFF,0xFF
40.500668625000003,49,0xFF,0xFF
40.500765687500000,49,0xFF,0xFF
40.500863750000001,49,0xFF,0xFF
40.500960437499998,49,0xFF,0xFF
40.501057187500002,49,0xFF,0xFF
40.501171249999999,49,0xFF,0xFF
40.503329749999999,50,0xFF,0x12
40.503421125000003,50,0xFF,0x02
40.503512499999999,50,0xFF,0x5C
40.503603562499997,50,0xFF,0x58
40.503710312499997,50,0xFF,0xFF
40.503807062500002,50,0xFF,0xFF
40.503904124999998,50,0xFF,0xFF
40.504001812500000,50,0xFF,0xFF
40.504098562499998,50,0xFF,0xFF
40.504196000000000,50,0xFF,0xFF
40.504293375000003,50,0xFF,0xFF
40.504390749999999,50,0xFF,0xFF
40.504488187500002,50,0xFF,0xFF
40.504585562499997,50,0xFF,0xFF
40.504682937500000,50,0xFF,0xFF
40.504780375000003,50,0xFF,0xFF
40.504877749999999,50,0xFF,0xFF
40.504975187500001,50,0xFF,0xFF
40.506074249999998,50,0xFF,0xFF
40.506170937500002,50,0xFF,0xFF
40.506268062499998,50,0xFF,0xFF
40.507693000000003,51,0xFF,0x0F
40.507784375000000,51,0xFF,0x0C
40.507875812499996,51,0xFF,0x17
40.507967187500000,51,0xFF,0x00
40.508058249999998,51,0xFF,0x00
40.508149937500001,51,0xFF,0x00
40.508241374999997,51,0xFF,0x00
40.508332437500002,51,0xFF,0x0A
40.508423812499998,51,0xFF,0x01
40.508515562500001,51,0xFF,0x02
40.508606624999999,51,0xFF,0x03
40.508698312500002,51,0xFF,0x00
40.508789749999998,51,0xFF,0x96
40.508881125000002,51,0xFF,0xE7
40.508987875000003,51,0xFF,0xFF
40.509084625000000,51,0xFF,0xFF
40.509181312499997,51,0xFF,0xFF
40.509279062499999,51,0xFF,0xFF
40.509375812499997,51,0xFF,0xFF
40.509472500000001,51,0xFF,0xFF
40.509586624999997,51,0xFF,0xFF
40.511064937500002,52,0xFF,0x03
40.511156312499999,52,0xFF,0x1C
40.511247687500003,52,0xFF,0x01
40.511338750000000,52,0xFF,0x17
40.511430187499997,52,0xFF,0xFF
40.511521562500000,52,0xFF,0xFF
40.511612937499997,52,0xFF,0x00
40.511704375000001,52,0xFF,0x07
40.511795437499998,52,0xFF,0x07
40.511887125000001,52,0xFF,0x00
40.511978562499998,52,0xFF,0x00
40.512069937500002,52,0xFF,0x00
40.512161687499997,52,0xFF,0x23
40.512252750000002,52,0xFF,0x10
40.512344124999998,52,0xFF,0x11
40.512435500000002,52,0xFF,0x82
40.512526937499999,52,0xFF,0x06
40.512618312500003,52,0xFF,0xF7
40.512710062499998,52,0xFF,0x23
40.512801437500002,52,0xFF,0x00
40.512893187499998,52,0xFF,0xD5
40.512984562500002,52,0xFF,0xC3
40.513076312499997,52,0xFF,0x10
40.513167312500002,52,0xFF,0xEE
40.513259062499998,52,0xFF,0x45
40.513350437500002,52,0xFF,0xF7
40.513442187499997,52,0xFF,0x23
40.513533250000002,52,0xFF,0x00
40.513624999999998,52,0xFF,0x49
40.513716062500002,52,0xFF,0x4B
40.513822812500003,52,0xFF,0xFF
40.513919500000000,52,0xFF,0xFF
40.514016249999997,52,0xFF,0xFF
40.514113999999999,52,0xFF,0xFF
40.514210687499997,52,0xFF,0xFF
40.514307437500001,52,0xFF,0xFF
40.514421499999997,52,0xFF,0xFF
44.428847437500004,53,0xFF,0x07
44.428938812500000,53,0xFF,0x02
44.429029874999998,53,0xFF,0xDA
44.429121250000001,53,0xFF,0xA4
44.429228000000002,53,0xFF,0xFF
44.429324749999999,53,0xFF,0xFF
44.429421437499997,53,0xFF,0xFF
44.429519187499999,53,0xFF,0xFF
44.429615937500003,53,0xFF,0xFF
44.429713312499999,53,0xFF,0xFF
44.429810750000001,53,0xFF,0xFF
44.429908124999997,53,0xFF,0xFF
44.430005187500001,53,0xFF,0xFF
44.430102562499997,53,0xFF,0xFF
44.430199999999999,53,0xFF,0xFF
44.431299375000002,53,0xFF,0xFF
44.431396124999999,53,0xFF,0xFF
44.431493187500003,53,0xFF,0xFF
44.432982500000001,54,0xFF,0x10
44.433073937499998,54,0xFF,0x06
44.433165625000001,54,0xFF,0x20
44.433256687499998,54,0xFF,0x00
44.433348437500001,54,0xFF,0x00
44.433439499999999,54,0xFF,0x00
44.433530875000002,54,0xFF,0x5F
44.433622312499999,54,0xFF,0xEE
44.433729000000000,54,0xFF,0xFF
44.433825749999997,54,0xFF,0xFF
44.433922500000001,54,0xFF,0xFF
44.434020250000003,54,0xFF,0xFF
44.434116937500001,54,0xFF,0xFF
44.434213687499998,54,0xFF,0xFF
44.434327750000001,54,0xFF,0xFF
44.436486875000000,55,0xFF,0x12
44.436578249999997,55,0xFF,0x02
44.436669687500000,55,0xFF,0x5C
44.436760749999998,55,0xFF,0x58
44.436867812499997,55,0xFF,0xFF
44.436964562500002,55,0xFF,0xFF
44.437061249999999,55,0xFF,0xFF
44.437159000000001,55,0xFF,0xFF
44.437255749999998,55,0xFF,0xFF
44.437353125000001,55,0xFF,0xFF
44.437450562499997,55,0xFF,0xFF
44.437547937500000,55,0xFF,0xFF
44.437645312500003,55,0xFF,0xFF
44.437742749999998,55,0xFF,0xFF
44.437840125000001,55,0xFF,0xFF
44.437937499999997,55,0xFF,0xFF
44.438034937499999,55,0xFF,0xFF
44.438132000000003,55,0xFF,0xFF
44.438229374999999,55,0xFF,0xFF
44.438325812499997,55,0xFF,0xFF
44.438422875000001,55,0xFF,0xFF
44.439847812499998,56,0xFF,0x0F
44.439939187500002,56,0xFF,0x0C
44.440030624999999,56,0xFF,0x17
44.440130687500002,56,0xFF,0x00
44.440222062499998,56,0xFF,0x00
44.441477562499998,56,0xFF,0x00
44.441569000000001,56,0xFF,0x00
44.441660687499997,56,0xFF,0x0A
44.441751750000002,56,0xFF,0x01
44.441843124999998,56,0xFF,0x02
44.441934875000001,56,0xFF,0x03
44.442026249999998,56,0xFF,0x00
44.442118000000001,56,0xFF,0x96
44.442209374999997,56,0xFF,0xE7
44.442316124999998,56,0xFF,0xFF
44.442412875000002,56,0xFF,0xFF
44.442509625000000,56,0xFF,0xFF
44.442607312500002,56,0xFF,0xFF
44.442704062499999,56,0xFF,0xFF
44.442800812500003,56,0xFF,0xFF
44.442914875000000,56,0xFF,0xFF
44.444393187499998,57,0xFF,0x03
44.444484625000001,57,0xFF,0x1C
44.444575999999998,57,0xFF,0x01
44.444667375000002,57,0xFF,0x17
44.444758812499998,57,0xFF,0xFF
44.444850187500002,57,0xFF,0xFF
44.444941874999998,57,0xFF,0x00
44.445033312500001,57,0xFF,0x07
44.445124999999997,57,0xFF,0x07
44.445216437500001,57,0xFF,0x00
44.445308124999997,57,0xFF,0x00
44.445399562500000,57,0xFF,0x00
44.445491250000003,57,0xFF,0x23
44.445582687500000,57,0xFF,0x10
44.445674062499997,57,0xFF,0x11
44.445765812499999,57,0xFF,0x82
44.445857187500003,57,0xFF,0x06
44.445957249999999,57,0xFF,0xF7
44.446048625000003,57,0xFF,0x23
44.446140062500000,57,0xFF,0x00
44.446231437500003,57,0xFF,0xD5
44.446322500000001,57,0xFF,0xC3
44.446413874999998,57,0xFF,0x10
44.446505625000000,57,0xFF,0xEE
44.446596999999997,57,0xFF,0x45
44.446688062500002,57,0xFF,0xF7
44.446779499999998,57,0xFF,0x23
44.446870875000002,57,0xFF,0x00
44.446962249999999,57,0xFF,0x49
44.447053687500002,57,0xFF,0x4B
44.447160375000003,57,0xFF,0xFF
44.447257125000000,57,0xFF,0xFF
44.447354187499997,57,0xFF,0xFF
44.447451937499999,57,0xFF,0xFF
44.447548687500003,57,0xFF,0xFF
44.447645375000000,57,0xFF,0xFF
44.447759437499997,57,0xFF,0xFF
48.362769187500000,58,0xFF,0x07
48.362860562500003,58,0xFF,0x02
48.362952312499999,58,0xFF,0xDA
48.363043374999997,58,0xFF,0xA4
48.363150437500003,58,0xFF,0xFF
48.363247187500001,58,0xFF,0xFF
48.363343937499998,58,0xFF,0xFF
48.363441999999999,58,0xFF,0xFF
48.363538687499997,58,0xFF,0xFF
48.363636124999999,58,0xFF,0xFF
48.363733500000002,58,0xFF,0xFF
48.363830937499998,58,0xFF,0xFF
48.363928312500001,58,0xFF,0xFF
48.364025687500003,58,0xFF,0xFF
48.364123124999999,58,0xFF,0xFF
48.364220500000002,58,0xFF,0xFF
48.364316875000000,58,0xFF,0xFF
48.364413999999996,58,0xFF,0xFF
48.366905625000001,59,0xFF,0x10
48.366997062499998,59,0xFF,0x06
48.367088437500001,59,0xFF,0x20
48.367179812499998,59,0xFF,0x00
48.367271562500001,59,0xFF,0x00
48.367362624999998,59,0xFF,0x00
48.367454375000001,59,0xFF,0x5F
48.367545437499999,59,0xFF,0xEE
48.367652124999999,59,0xFF,0xFF
48.367748874999997,59,0xFF,0xFF
48.367845625000001,59,0xFF,0xFF
48.367943375000003,59,0xFF,0xFF
48.368040062500000,59,0xFF,0xFF
48.368136812499998,59,0xFF,0xFF
48.368250875000001,59,0xFF,0xFF
48.370409687500000,60,0xFF,0x12
48.370501062499997,60,0xFF,0x02
48.370601125000000,60,0xFF,0x5C
48.370692499999997,60,0xFF,0x58
48.370799249999997,60,0xFF,0xFF
48.370896312500001,60,0xFF,0xFF
48.370993374999998,60,0xFF,0xFF
48.371091125000000,60,0xFF,0xFF
48.371187874999997,60,0xFF,0xFF
48.371285562499999,60,0xFF,0xFF
48.371383000000002,60,0xFF,0xFF
48.371480374999997,60,0xFF,0xFF
48.371576812500003,60,0xFF,0xFF
48.371674187499998,60,0xFF,0xFF
48.371771562500001,60,0xFF,0xFF
48.371868999999997,60,0xFF,0xFF
48.371966375000000,60,0xFF,0xFF
48.372064125000001,60,0xFF,0xFF
48.372161499999997,60,0xFF,0xFF
48.372257937500002,60,0xFF,0xFF
48.372354999999999,60,0xFF,0xFF
48.373779937499997,61,0xFF,0x0F
48.373871312500000,61,0xFF,0x0C
48.373962749999997,61,0xFF,0x17
48.374054125000001,61,0xFF,0x00
48.374145875000004,61,0xFF,0x00
48.374236937500001,61,0xFF,0x00
48.374328312499998,61,0xFF,0x00
48.374420062500000,61,0xFF,0x0A
48.374511437499997,61,0xFF,0x01
48.374602812500001,61,0xFF,0x02
48.374694187499998,61,0xFF,0x03
48.374785937500000,61,0xFF,0x00
48.374877312499997,61,0xFF,0x96
48.374969749999998,61,0xFF,0xE7
48.375076499999999,61,0xFF,0xFF
48.375173187500003,61,0xFF,0xFF
48.375269937500001,61,0xFF,0xFF
48.375367687500002,61,0xFF,0xFF
48.375464375000000,61,0xFF,0xFF
48.376563500000003,61,0xFF,0xFF
48.376677874999999,61,0xFF,0xFF
48.378156562500003,62,0xFF,0x03
48.378247937499999,62,0xFF,0x1C
48.378338999999997,62,0xFF,0x01
48.378430375000001,62,0xFF,0x17
48.378522125000003,62,0xFF,0xFF
48.378613187500001,62,0xFF,0xFF
48.378704937499997,62,0xFF,0x00
48.378796312500000,62,0xFF,0x07
48.378887687499997,62,0xFF,0x07
48.378979125000001,62,0xFF,0x00
48.379070812499997,62,0xFF,0x00
48.379161875000001,62,0xFF,0x00
48.379253624999997,62,0xFF,0x23
48.379345000000001,62,0xFF,0x10
48.379436750000004,62,0xFF,0x11
48.379528125000000,62,0xFF,0x82
48.379619875000003,62,0xFF,0x06
48.379711250000000,62,0xFF,0xF7
48.379802625000004,62,0xFF,0x23
48.379894374999999,62,0xFF,0x00
48.379994437500002,62,0xFF,0xD5
48.380085500000000,62,0xFF,0xC3
48.380177250000003,62,0xFF,0x10
48.380268312500000,62,0xFF,0xEE
48.380360000000003,62,0xFF,0x45
48.380451437500000,62,0xFF,0xF7
48.380543125000003,62,0xFF,0x23
48.380634187500000,62,0xFF,0x00
48.380725937500003,62,0xFF,0x49
48.380817000000000,62,0xFF,0x4B
48.380923750000001,62,0xFF,0xFF
48.381020499999998,62,0xFF,0xFF
48.381117187500003,62,0xFF,0xFF
48.381214937499998,62,0xFF,0xFF
48.381311687500002,62,0xFF,0xFF
48.381408374999999,62,0xFF,0xFF
48.381522500000003,62,0xFF,0xFF
52.300499812500000,63,0xFF,0x07
52.300599875000003,63,0xFF,0x02
52.300691624999999,63,0xFF,0xDA
52.301785000000002,63,0xFF,0xA4
52.301891750000003,63,0xFF,0xFF
52.302006187499998,63,0xFF,0xFF
52.302102875000003,63,0xFF,0xFF
52.302200624999998,63,0xFF,0xFF
52.302297375000002,63,0xFF,0xFF
52.302394437499999,63,0xFF,0xFF
52.302756375000001,63,0xFF,0xFF
52.302853749999997,63,0xFF,0xFF
52.302951125000000,63,0xFF,0xFF
52.303048562500003,63,0xFF,0xFF
52.303145937499998,63,0xFF,0xFF
52.303243312500001,63,0xFF,0xFF
52.303340062499998,63,0xFF,0xFF
52.303437125000002,63,0xFF,0xFF
52.304908437500004,64,0xFF,0x10
52.305034874999997,64,0xFF,0x06
52.305126625000000,64,0xFF,0x01
52.305217687499997,64,0xFF,0x00
52.305309375000000,64,0xFF,0x00
52.305400812499997,64,0xFF,0x00
52.305492187500001,64,0xFF,0xA5
52.305583562499997,64,0xFF,0xAF
52.305690312499998,64,0xFF,0xFF
52.305787062500002,64,0xFF,0xFF
52.305884124999999,64,0xFF,0xFF
52.305981875000001,64,0xFF,0xFF
52.306078562499998,64,0xFF,0xFF
52.306175312500002,64,0xFF,0xFF
52.306289374999999,64,0xFF,0xFF
52.307855437500002,65,0xFF,0x08
52.307946812499999,65,0xFF,0x03
52.308046875000002,65,0xFF,0x00
52.308138312499999,65,0xFF,0x6E
52.308229687500003,65,0xFF,0x30
52.308345125000002,65,0xFF,0xFF
52.308441812500000,65,0xFF,0xFF
52.308538562499997,65,0xFF,0xFF
52.308723687499999,65,0xFF,0xFF
52.308820437500003,65,0xFF,0xFF
52.308917812499999,65,0xFF,0xFF
52.309015562500001,65,0xFF,0xFF
52.309112937499997,65,0xFF,0xFF
52.309210374999999,65,0xFF,0xFF
52.309307750000002,65,0xFF,0xFF
52.309405124999998,65,0xFF,0xFF
52.309502562500001,65,0xFF,0xFF
52.309599937500003,65,0xFF,0xFF
52.309697374999999,65,0xFF,0xFF
52.309794750000002,65,0xFF,0xFF
52.309891499999999,65,0xFF,0xFF
52.309988875000002,65,0xFF,0xFF
52.310086624999997,65,0xFF,0xFF
52.310184000000000,65,0xFF,0xFF
52.310281375000002,65,0xFF,0xFF
52.310378812499998,65,0xFF,0xFF
52.310476187500001,65,0xFF,0xFF
52.310573625000004,65,0xFF,0xFF
52.310670999999999,65,0xFF,0xFF
52.311770750000001,65,0xFF,0xFF
52.311868124999997,65,0xFF,0xFF
52.311965562499999,65,0xFF,0xFF
52.312070937500003,65,0xFF,0xFF
52.312168312499999,65,0xFF,0xFF
52.312265750000002,65,0xFF,0xFF
52.312363124999997,65,0xFF,0xFF
52.312460562500000,65,0xFF,0xFF
52.312557937500003,65,0xFF,0xFF
52.312655312499999,65,0xFF,0xFF
52.312752750000001,65,0xFF,0xFF
52.312850124999997,65,0xFF,0xFF
52.312947187500001,65,0xFF,0xFF
52.313061625000003,65,0xFF,0xFF
52.313158999999999,65,0xFF,0xFF
52.313256375000002,65,0xFF,0xFF
52.313353812499997,65,0xFF,0xFF
52.313451187500000,65,0xFF,0xFF
52.313548625000003,65,0xFF,0xFF
52.313645999999999,65,0xFF,0xFF
52.313743375000001,65,0xFF,0xFF
52.313839812499999,65,0xFF,0xFF
52.313936875000003,65,0xFF,0xFF
52.345193500000001,66,0xFF,0x07
52.345284874999997,66,0xFF,0x02
52.345376625000000,66,0xFF,0xDA
52.345467687499998,66,0xFF,0xA4
52.345574437499998,66,0xFF,0xFF
52.345671125000003,66,0xFF,0xFF
52.345767875000000,66,0xFF,0xFF
52.345865625000002,66,0xFF,0xFF
52.345962374999999,66,0xFF,0xFF
52.346059750000002,66,0xFF,0xFF
52.346157124999998,66,0xFF,0xFF
52.346262562500002,66,0xFF,0xFF
52.346359937499997,66,0xFF,0xFF
52.346457375000000,66,0xFF,0xFF
52.346554750000003,66,0xFF,0xFF
52.346652124999999,66,0xFF,0xFF
52.346748562499997,66,0xFF,0xFF
52.346845625000000,66,0xFF,0xFF
52.348327937500002,67,0xFF,0x10
52.348419312499999,67,0xFF,0x06
52.348511062500002,67,0xFF,0x08
52.348602124999999,67,0xFF,0x00
52.348693875000002,67,0xFF,0x00
52.348793937499998,67,0xFF,0x00
52.348885000000003,67,0xFF,0xD2
52.348977374999997,67,0xFF,0x5C
52.349084124999997,67,0xFF,0xFF
52.349198187500001,67,0xFF,0xFF
52.349295249999997,67,0xFF,0xFF
52.349392999999999,67,0xFF,0xFF
52.349489749999996,67,0xFF,0xFF
52.349586437500001,67,0xFF,0xFF
52.349700499999997,67,0xFF,0xFF
52.352165874999997,68,0xFF,0x06
52.352257250000001,68,0xFF,0x02
52.352348999999997,68,0xFF,0xEB
52.352440062500001,68,0xFF,0x97
52.352546750000002,68,0xFF,0xFF
52.352643499999999,68,0xFF,0xFF
52.352740937500002,68,0xFF,0xFF
52.352839000000003,68,0xFF,0xFF
52.352935687500000,68,0xFF,0xFF
52.353032437499998,68,0xFF,0xFF
52.353129812500001,68,0xFF,0xFF
52.353226874999997,68,0xFF,0xFF
52.353324312500000,68,0xFF,0xFF
52.353421687500003,68,0xFF,0xFF
52.353519124999998,68,0xFF,0xFF
52.353616500000001,68,0xFF,0xFF
52.353713562499998,68,0xFF,0xFF
52.353811312500000,68,0xFF,0xFF
52.353908687500002,68,0xFF,0xFF
52.354006062499998,68,0xFF,0xFF
52.354102500000003,68,0xFF,0xFF
52.354199874999999,68,0xFF,0xFF
52.354296937500003,68,0xFF,0xFF
52.354394374999998,68,0xFF,0xFF
52.354491750000001,68,0xFF,0xFF
52.354589124999997,68,0xFF,0xFF
52.354686562500000,68,0xFF,0xFF
52.354783937500002,68,0xFF,0xFF
52.354881374999998,68,0xFF,0xFF
52.354978750000001,68,0xFF,0xFF
52.355076124999997,68,0xFF,0xFF
52.355172875000001,68,0xFF,0xFF
52.355287312500003,68,0xFF,0xFF
52.355384687499999,68,0xFF,0xFF
52.355482062500002,68,0xFF,0xFF
52.355579124999998,68,0xFF,0xFF
52.355676187500002,68,0xFF,0xFF
52.357200937499996,69,0xFF,0x10
52.357292312500000,69,0xFF,0x06
52.357383687499997,69,0xFF,0x08
52.357474750000002,69,0xFF,0x00
52.357566124999998,69,0xFF,0x00
52.357657875000001,69,0xFF,0x02
52.357749249999998,69,0xFF,0x90
52.357840312500002,69,0xFF,0x7C
52.357947062500003,69,0xFF,0xFF
52.358043812500000,69,0xFF,0xFF
52.358140562499997,69,0xFF,0xFF
52.358238249999999,69,0xFF,0xFF
52.358334999999997,69,0xFF,0xFF
52.358431750000001,69,0xFF,0xFF
52.358545812499997,69,0xFF,0xFF
52.362116562499999,70,0xFF,0x0E
52.362207937500003,70,0xFF,0x0B
52.362299000000000,70,0xFF,0x02
52.362390750000003,70,0xFF,0x00
52.362482125000000,70,0xFF,0x00
52.362573187499997,70,0xFF,0x00
52.362664562500001,70,0xFF,0x00
52.362756312499997,70,0xFF,0x00
52.362847687500000,70,0xFF,0x00
52.362939124999997,70,0xFF,0x00
52.363030500000001,70,0xFF,0x00
52.363122250000004,70,0xFF,0x96
52.363213312500001,70,0xFF,0xBA
52.363320000000002,70,0xFF,0xFF
52.363416437500000,70,0xFF,0xFF
52.363513124999997,70,0xFF,0xFF
52.363610874999999,70,0xFF,0xFF
52.363707625000004,70,0xFF,0xFF
52.363804375000001,70,0xFF,0xFF
52.363918437499997,70,0xFF,0xFF
52.378766374999998,71,0xFF,0x07
52.378857750000002,71,0xFF,0x02
52.378958187499997,71,0xFF,0xDA
52.379049250000001,71,0xFF,0xA4
52.379156312500001,71,0xFF,0xFF
52.379253062499998,71,0xFF,0xFF
52.379367812500000,71,0xFF,0xFF
52.379465500000002,71,0xFF,0xFF
52.379562249999999,71,0xFF,0xFF
52.379659625000002,71,0xFF,0xFF
52.379756687499999,71,0xFF,0xFF
52.379854125000001,71,0xFF,0xFF
52.379951499999997,71,0xFF,0xFF
52.380048937500000,71,0xFF,0xFF
52.380146312500003,71,0xFF,0xFF
52.380243374999999,71,0xFF,0xFF
52.380357437500003,71,0xFF,0xFF
52.380454499999999,71,0xFF,0xFF
52.382940187499997,72,0xFF,0x10
52.383031562500001,72,0xFF,0x06
52.383122999999998,72,0xFF,0x08
52.383214062500002,72,0xFF,0x00
52.383305749999998,72,0xFF,0x00
52.383414812500000,72,0xFF,0x00
52.383506250000003,72,0xFF,0xD2
52.383597625000000,72,0xFF,0x5C
52.383704375000001,72,0xFF,0xFF
52.383801124999998,72,0xFF,0xFF
52.383897812500003,72,0xFF,0xFF
52.383995562499997,72,0xFF,0xFF
52.384092312500002,72,0xFF,0xFF
52.384188999999999,72,0xFF,0xFF
52.384312125000001,72,0xFF,0xFF
52.385775125000002,73,0xFF,0x06
52.385866499999999,73,0xFF,0x02
52.385966562500002,73,0xFF,0xEB
52.386057937499999,73,0xFF,0x97
52.386164687499999,73,0xFF,0xFF
52.386262062500002,73,0xFF,0xFF
52.386367499999999,73,0xFF,0xFF
52.386465250000001,73,0xFF,0xFF
52.386561937499998,73,0xFF,0xFF
52.386659375000001,73,0xFF,0xFF
52.386756750000004,73,0xFF,0xFF
52.386854124999999,73,0xFF,0xFF
52.386951250000003,73,0xFF,0xFF
52.387048624999998,73,0xFF,0xFF
52.387146000000001,73,0xFF,0xFF
52.387243437499997,73,0xFF,0xFF
52.387340812500000,73,0xFF,0xFF
52.387437187499998,73,0xFF,0xFF
52.387534625000001,73,0xFF,0xFF
52.387632000000004,73,0xFF,0xFF
52.387729437499999,73,0xFF,0xFF
52.387826812500002,73,0xFF,0xFF
52.387924187499998,73,0xFF,0xFF
52.388021250000001,73,0xFF,0xFF
52.388118687499997,73,0xFF,0xFF
52.388216062500000,73,0xFF,0xFF
52.388313437500003,73,0xFF,0xFF
52.388427562499999,73,0xFF,0xFF
52.388524937500001,73,0xFF,0xFF
52.388622312499997,73,0xFF,0xFF
52.388719750000000,73,0xFF,0xFF
52.388817125000003,73,0xFF,0xFF
52.388914562499998,73,0xFF,0xFF
52.389011625000002,73,0xFF,0xFF
52.389108999999998,73,0xFF,0xFF
52.389206375000001,73,0xFF,0xFF
52.389302812499999,73,0xFF,0xFF
52.389425875000001,73,0xFF,0xFF
52.391958250000002,74,0xFF,0x10
52.392049624999999,74,0xFF,0x06
52.392141062500002,74,0xFF,0x08
52.392232437499999,74,0xFF,0x00
52.392323500000003,74,0xFF,0x00
52.392423874999999,74,0xFF,0x03
52.392515312500002,74,0xFF,0xB1
52.392606687499999,74,0xFF,0x6C
52.392713062500000,74,0xFF,0xFF
52.392809812499998,74,0xFF,0xFF
52.392906562500002,74,0xFF,0xFF
52.393004312499997,74,0xFF,0xFF
52.393101000000001,74,0xFF,0xFF
52.393197749999999,74,0xFF,0xFF
52.393320812500001,74,0xFF,0xFF
52.410668500000000,75,0xFF,0x07
52.410759874999997,75,0xFF,0x02
52.410851624999999,75,0xFF,0xDA
52.411945000000003,75,0xFF,0xA4
52.412052062500003,75,0xFF,0xFF
52.412148812500000,75,0xFF,0xFF
52.412245562499997,75,0xFF,0xFF
52.412343624999998,75,0xFF,0xFF
52.412440687500002,75,0xFF,0xFF
52.412538062499998,75,0xFF,0xFF
52.412635437500001,75,0xFF,0xFF
52.412732875000003,75,0xFF,0xFF
52.412830249999999,75,0xFF,0xFF
52.412927687500002,75,0xFF,0xFF
52.413025062499997,75,0xFF,0xFF
52.413122437500000,75,0xFF,0xFF
52.413219187499998,75,0xFF,0xFF
52.413316250000001,75,0xFF,0xFF
52.414799562500001,76,0xFF,0x10
52.414890999999997,76,0xFF,0x06
52.414991062500000,76,0xFF,0x08
52.415082437499997,76,0xFF,0x00
52.415174187500000,76,0xFF,0x00
52.415265562499997,76,0xFF,0x00
52.415356937500000,76,0xFF,0xD2
52.415448374999997,76,0xFF,0x5C
52.415563749999997,76,0xFF,0xFF
52.415660500000001,76,0xFF,0xFF
52.415757249999999,76,0xFF,0xFF
52.415855312500000,76,0xFF,0xFF
52.415951999999997,76,0xFF,0xFF
52.416049749999999,76,0xFF,0xFF
52.416163812500002,76,0xFF,0xFF
52.417627125000003,77,0xFF,0x06
52.417727562499998,77,0xFF,0x02
52.417818625000002,77,0xFF,0xEB
52.417909999999999,77,0xFF,0x97
52.418016750000000,77,0xFF,0xFF
52.418113499999997,77,0xFF,0xFF
52.418210187500001,77,0xFF,0xFF
52.418307937500003,77,0xFF,0xFF
52.418404687500001,77,0xFF,0xFF
52.418510437499997,77,0xFF,0xFF
52.418607812499999,77,0xFF,0xFF
52.418705187500002,77,0xFF,0xFF
52.418802624999998,77,0xFF,0xFF
52.418900000000001,77,0xFF,0xFF
52.418997437500003,77,0xFF,0xFF
52.419094125000001,77,0xFF,0xFF
52.419191562499996,77,0xFF,0xFF
52.419288937499999,77,0xFF,0xFF
52.419386312500002,77,0xFF,0xFF
52.419482750000000,77,0xFF,0xFF
52.419579437499998,77,0xFF,0xFF
52.419676875000000,77,0xFF,0xFF
52.419774250000003,77,0xFF,0xFF
52.419871687499999,77,0xFF,0xFF
52.419969062500002,77,0xFF,0xFF
52.420066437499997,77,0xFF,0xFF
52.420163500000001,77,0xFF,0xFF
52.420260937499997,77,0xFF,0xFF
52.420358312499999,77,0xFF,0xFF
52.420455750000002,77,0xFF,0xFF
52.420569812499998,77,0xFF,0xFF
52.420667187500001,77,0xFF,0xFF
52.420764624999997,77,0xFF,0xFF
52.420862000000000,77,0xFF,0xFF
52.421961750000001,77,0xFF,0xFF
52.422059124999997,77,0xFF,0xFF
52.422156562500000,77,0xFF,0xFF
52.422253937500003,77,0xFF,0xFF
52.422351312499998,77,0xFF,0xFF
52.422448062500003,77,0xFF,0xFF
52.422553812499999,77,0xFF,0xFF
52.422651187500001,77,0xFF,0xFF
52.422748624999997,77,0xFF,0xFF
52.422845312500002,77,0xFF,0xFF
52.422942374999998,77,0xFF,0xFF
52.424508437500002,78,0xFF,0x10
52.424599812499999,78,0xFF,0x06
52.424691250000002,78,0xFF,0x08
52.424782624999999,78,0xFF,0x00
52.424874000000003,78,0xFF,0x00
52.424965437499999,78,0xFF,0x04
52.425056812500003,78,0xFF,0x56
52.425148187500000,78,0xFF,0x1C
52.425254937500000,78,0xFF,0xFF
52.425351687499997,78,0xFF,0xFF
52.425448750000001,78,0xFF,0xFF
52.425555500000002,78,0xFF,0xFF
52.425652187499999,78,0xFF,0xFF
52.425748937500003,78,0xFF,0xFF
52.425863000000000,78,0xFF,0xFF
52.432219312500003,79,0xFF,0x05
52.432310687499999,79,0xFF,0x3E
52.432401749999997,79,0xFF,0xD5
52.432493125000001,79,0xFF,0xC3
52.432602250000002,79,0xFF,0x10
52.432693937499998,79,0xFF,0xEE
52.432785375000002,79,0xFF,0x45
52.432876749999998,79,0xFF,0xF7
52.432968437500001,79,0xFF,0x23
52.433059874999998,79,0xFF,0x00
52.433151250000002,79,0xFF,0x01
52.433242312499999,79,0xFF,0x01
52.433333687500003,79,0xFF,0x31
52.433425124999999,79,0xFF,0x02
52.433516812500002,79,0xFF,0x02
52.433616874999998,79,0xFF,0x01
52.433707937500003,79,0xFF,0x42
52.433799687499999,79,0xFF,0x47
52.433891062500003,79,0xFF,0x31
52.433982812499998,79,0xFF,0x31
52.434074187500002,79,0xFF,0x31
52.434165937499998,79,0xFF,0x38
52.434257312500002,79,0xFF,0x32
52.434348749999998,79,0xFF,0x34
52.434440125000002,79,0xFF,0x33
52.434531499999999,79,0xFF,0x42
52.434631937500001,79,0xFF,0x00
52.434723624999997,79,0xFF,0x23
52.434815062500000,79,0xFF,0xF7
52.434906750000003,79,0xFF,0x06
52.434997812500001,79,0xFF,0x82
52.435089249999997,79,0xFF,0x11
52.435180937500000,79,0xFF,0x10
52.435272374999997,79,0xFF,0x23
52.435363750000000,79,0xFF,0x01
52.435455124999997,79,0xFF,0x01
52.435546562500001,79,0xFF,0x01
52.435646937500003,79,0xFF,0x00
52.435738000000001,79,0xFF,0x00
52.435829750000003,79,0xFF,0x01
52.435920812500001,79,0xFF,0xF6
52.436012499999997,79,0xFF,0x00
52.436103562500001,79,0xFF,0x01
52.436195312499997,79,0xFF,0x00
52.436286687500001,79,0xFF,0x00
52.436378437499997,79,0xFF,0x00
52.436469500000001,79,0xFF,0x00
52.436578875000002,79,0xFF,0x01
52.436669937500000,79,0xFF,0x00
52.436761375000003,79,0xFF,0x01
52.436853062499999,79,0xFF,0x01
52.436944124999997,79,0xFF,0x06
52.437035874999999,79,0xFF,0x01
52.437126937499997,79,0xFF,0x01
52.437218687500000,79,0xFF,0x00
52.437309749999997,79,0xFF,0x00
52.437401437500000,79,0xFF,0x01
52.437492499999998,79,0xFF,0x00
52.437592562500001,79,0xFF,0x01
52.437684312499997,79,0xFF,0x02
52.437775687500000,79,0xFF,0x23
52.437867437500003,79,0xFF,0xD9
52.437958500000001,79,0xFF,0x3C
52.438049874999997,79,0xFF,0x5D
52.438156624999998,79,0xFF,0xFF
52.438253000000003,79,0xFF,0xFF
52.438349750000000,79,0xFF,0xFF
52.438447500000002,79,0xFF,0xFF
52.438544187500000,79,0xFF,0xFF
52.438658625000002,79,0xFF,0xFF
52.438773062499997,79,0xFF,0xFF
54.265886500000001,80,0xFF,0x07
54.265977874999997,80,0xFF,0x02
54.266069625000000,80,0xFF,0xDA
54.266160687499998,80,0xFF,0xA4
54.266267437499998,80,0xFF,0xFF
54.266364187500002,80,0xFF,0xFF
54.266460562500001,80,0xFF,0xFF
54.266575937500001,80,0xFF,0xFF
54.266673062499997,80,0xFF,0xFF
54.266770437500000,80,0xFF,0xFF
54.266867499999996,80,0xFF,0xFF
54.266964874999999,80,0xFF,0xFF
54.267062312500002,80,0xFF,0xFF
54.267159687499998,80,0xFF,0xFF
54.267257062500001,80,0xFF,0xFF
54.267354500000003,80,0xFF,0xFF
54.267451250000001,80,0xFF,0xFF
54.267556624999997,80,0xFF,0xFF
54.267653375000002,80,0xFF,0xFF
54.267750437499998,80,0xFF,0xFF
54.269208374999998,81,0xFF,0x10
54.269299812500002,81,0xFF,0x06
54.269391187499998,81,0xFF,0x00
54.269482562500002,81,0xFF,0x00
54.269592000000003,81,0xFF,0x01
54.269683375000000,81,0xFF,0x00
54.269774812500003,81,0xFF,0x20
54.269866187500000,81,0xFF,0xEA
54.269972937500000,81,0xFF,0xFF
54.270069624999998,81,0xFF,0xFF
54.270166375000002,81,0xFF,0xFF
54.270264124999997,81,0xFF,0xFF
54.270360875000001,81,0xFF,0xFF
54.270457562499999,81,0xFF,0xFF
54.270598312499999,81,0xFF,0xFF
54.305939375000001,82,0xFF,0x07
54.306030749999998,82,0xFF,0x02
54.306121812500002,82,0xFF,0xDA
54.306213249999999,82,0xFF,0xA4
54.306319625000000,82,0xFF,0xFF
54.306416374999998,82,0xFF,0xFF
54.306513125000002,82,0xFF,0xFF
54.306610812499997,82,0xFF,0xFF
54.306716250000001,82,0xFF,0xFF
54.306813624999997,82,0xFF,0xFF
54.306911062499999,82,0xFF,0xFF
54.307008437500002,82,0xFF,0xFF
54.307105812499998,82,0xFF,0xFF
54.307203250000001,82,0xFF,0xFF
54.307299937499998,82,0xFF,0xFF
54.307397375000001,82,0xFF,0xFF
54.307493749999999,82,0xFF,0xFF
54.307590812500003,82,0xFF,0xFF
54.309073124999998,83,0xFF,0x10
54.309173562500000,83,0xFF,0x06
54.309264937499997,83,0xFF,0x08
54.309356312500000,83,0xFF,0x00
54.309447749999997,83,0xFF,0x00
54.309539437500000,83,0xFF,0x00
54.309630875000003,83,0xFF,0xD2
54.309739624999999,83,0xFF,0x5C
54.309846312499999,83,0xFF,0xFF
54.309943062499997,83,0xFF,0xFF
54.310040125000000,83,0xFF,0xFF
54.310137875000002,83,0xFF,0xFF
54.310234625000000,83,0xFF,0xFF
54.310331312499997,83,0xFF,0xFF
54.310445437500000,83,0xFF,0xFF
54.311908750000001,84,0xFF,0x06
54.312000124999997,84,0xFF,0x02
54.312091500000001,84,0xFF,0xEB
54.312182937499998,84,0xFF,0x97
54.312289624999998,84,0xFF,0xFF
54.312386375000003,84,0xFF,0xFF
54.312483125000000,84,0xFF,0xFF
54.312580812500002,84,0xFF,0xFF
54.312678249999998,84,0xFF,0xFF
54.312775625000000,84,0xFF,0xFF
54.312873062500003,84,0xFF,0xFF
54.312970437499999,84,0xFF,0xFF
54.313067812500002,84,0xFF,0xFF
54.313165249999997,84,0xFF,0xFF
54.313262625000000,84,0xFF,0xFF
54.313360062500003,84,0xFF,0xFF
54.314459749999997,84,0xFF,0xFF
54.314557187500000,84,0xFF,0xFF
54.314654562500003,84,0xFF,0xFF
54.314760312499999,84,0xFF,0xFF
54.314857687500002,84,0xFF,0xFF
54.314955124999997,84,0xFF,0xFF
54.315052500000000,84,0xFF,0xFF
54.315149875000003,84,0xFF,0xFF
54.315247312499999,84,0xFF,0xFF
54.315344375000002,84,0xFF,0xFF
54.315441749999998,84,0xFF,0xFF
54.315539187500001,84,0xFF,0xFF
54.315636562500003,84,0xFF,0xFF
54.315750999999999,84,0xFF,0xFF
54.315848375000002,84,0xFF,0xFF
54.315945749999997,84,0xFF,0xFF
54.316043187500000,84,0xFF,0xFF
54.316140562500003,84,0xFF,0xFF
54.316237937499999,84,0xFF,0xFF
54.316334687500003,84,0xFF,0xFF
54.316432124999999,84,0xFF,0xFF
54.316529500000001,84,0xFF,0xFF
54.316626874999997,84,0xFF,0xFF
54.316723312500002,84,0xFF,0xFF
54.316820000000000,84,0xFF,0xFF
54.316917437500003,84,0xFF,0xFF
54.317014812499998,84,0xFF,0xFF
54.317112250000001,84,0xFF,0xFF
54.317209624999997,84,0xFF,0xFF
54.317306687500000,84,0xFF,0xFF
54.317404437500002,84,0xFF,0xFF
54.317501812499998,84,0xFF,0xFF
54.317598875000002,84,0xFF,0xFF
54.317695937499998,84,0xFF,0xFF
54.317810687500000,84,0xFF,0xFF
54.317907062499998,84,0xFF,0xFF
54.318004125000002,84,0xFF,0xFF
54.319611562500000,85,0xFF,0x10
54.319702937499997,85,0xFF,0x06
54.319803000000000,85,0xFF,0x08
54.319894750000003,85,0xFF,0x00
54.319985812500001,85,0xFF,0x00
54.320086250000003,85,0xFF,0x05
54.320177937499999,85,0xFF,0x77
54.320269000000003,85,0xFF,0x0C
54.320375749999997,85,0xFF,0xFF
54.320472500000001,85,0xFF,0xFF
54.320569187499999,85,0xFF,0xFF
54.320666937500000,85,0xFF,0xFF
54.320790000000002,85,0xFF,0xFF
54.320886750000000,85,0xFF,0xFF
54.321009812500002,85,0xFF,0xFF
54.326360437500000,86,0xFF,0x05
54.326451812499997,86,0xFF,0x1B
54.326543250000000,86,0xFF,0xD5
54.326634624999997,86,0xFF,0xC3
54.326734999999999,86,0xFF,0x10
54.326844125000001,86,0xFF,0xEE
54.326935499999998,86,0xFF,0x45
54.327026875000001,86,0xFF,0xF7
54.327118624999997,86,0xFF,0x23
54.327210000000001,86,0xFF,0x00
54.327301749999997,86,0xFF,0x02
54.327392812500001,86,0xFF,0x01
54.327484187499998,86,0xFF,0x0E
54.327575937500001,86,0xFF,0x03
54.327666999999998,86,0xFF,0x02
54.327758687500001,86,0xFF,0x00
54.327858749999997,86,0xFF,0x01
54.327950187500001,86,0xFF,0x00
54.328041562499997,86,0xFF,0x23
54.328132937500001,86,0xFF,0xF7
54.328224374999998,86,0xFF,0x45
54.328315750000002,86,0xFF,0xEE
54.328407499999997,86,0xFF,0x10
54.328498562500002,86,0xFF,0xC3
54.328590249999998,86,0xFF,0xD5
54.328681687500001,86,0xFF,0xAA
54.328773062499998,86,0xFF,0x4C
54.328873437500000,86,0xFF,0xC2
54.328964874999997,86,0xFF,0x94
54.329071624999997,86,0xFF,0xFF
54.329168312500002,86,0xFF,0xFF
54.329265062499999,86,0xFF,0xFF
54.329362812500001,86,0xFF,0xFF
54.329459499999999,86,0xFF,0xFF
54.329556250000003,86,0xFF,0xFF
54.329670312499999,86,0xFF,0xFF
54.337008249999997,87,0xFF,0x07
54.337099625000000,87,0xFF,0x02
54.337199687499997,87,0xFF,0xDA
54.337291125000000,87,0xFF,0xA4
54.337397875000001,87,0xFF,0xFF
54.337494562499998,87,0xFF,0xFF
54.337591625000002,87,0xFF,0xFF
54.337689374999997,87,0xFF,0xFF
54.337786125000001,87,0xFF,0xFF
54.337900500000003,87,0xFF,0xFF
54.337997937499999,87,0xFF,0xFF
54.338095312500002,87,0xFF,0xFF
54.338192749999997,87,0xFF,0xFF
54.338290125000000,87,0xFF,0xFF
54.338387500000003,87,0xFF,0xFF
54.338484937499999,87,0xFF,0xFF
54.338582312500002,87,0xFF,0xFF
54.338679687499997,87,0xFF,0xFF
54.338776125000003,87,0xFF,0xFF
54.338899187499997,87,0xFF,0xFF
54.340357812500002,88,0xFF,0x10
54.340449249999999,88,0xFF,0x06
54.340540937500002,88,0xFF,0x00
54.340632374999998,88,0xFF,0x00
54.340723750000002,88,0xFF,0x02
54.340815499999998,88,0xFF,0x00
54.340924250000000,88,0xFF,0x73
54.341015624999997,88,0xFF,0xBF
54.341122374999998,88,0xFF,0xFF
54.341219062500002,88,0xFF,0xFF
54.341315812500000,88,0xFF,0xFF
54.341413562500001,88,0xFF,0xFF
54.341510312499999,88,0xFF,0xFF
54.341607000000003,88,0xFF,0xFF
54.341721062500000,88,0xFF,0xFF
54.376033124999999,89,0xFF,0x07
54.376124500000003,89,0xFF,0x02
54.376215562500001,89,0xFF,0xDA
54.376306937499997,89,0xFF,0xA4
54.376413687499998,89,0xFF,0xFF
54.376510437500002,89,0xFF,0xFF
54.376607187499999,89,0xFF,0xFF
54.376704875000001,89,0xFF,0xFF
54.376801624999999,89,0xFF,0xFF
54.376899000000002,89,0xFF,0xFF
54.376996437499997,89,0xFF,0xFF
54.377093812500000,89,0xFF,0xFF
54.377190187499998,89,0xFF,0xFF
54.377287625000001,89,0xFF,0xFF
54.377384999999997,89,0xFF,0xFF
54.377482437499999,89,0xFF,0xFF
54.377578812499998,89,0xFF,0xFF
54.377675875000001,89,0xFF,0xFF
54.379159187500001,90,0xFF,0x10
54.379250624999997,90,0xFF,0x06
54.379350687500001,90,0xFF,0x08
54.379442062499997,90,0xFF,0x00
54.379533437500001,90,0xFF,0x00
54.379624874999998,90,0xFF,0x00
54.379716250000001,90,0xFF,0xD2
54.379807624999998,90,0xFF,0x5C
54.379914374999998,90,0xFF,0xFF
54.380011125000003,90,0xFF,0xFF
54.380107875000000,90,0xFF,0xFF
54.380205562500002,90,0xFF,0xFF
54.380302312500000,90,0xFF,0xFF
54.380399062499997,90,0xFF,0xFF
54.380513125000000,90,0xFF,0xFF
54.381976437500001,91,0xFF,0x06
54.382067812499997,91,0xFF,0x02
54.382167875000000,91,0xFF,0xEB
54.382259312499997,91,0xFF,0x97
54.382365999999998,91,0xFF,0xFF
54.382462750000002,91,0xFF,0xFF
54.382559812499998,91,0xFF,0xFF
54.382657875000000,91,0xFF,0xFF
54.382754624999997,91,0xFF,0xFF
54.382852000000000,91,0xFF,0xFF
54.382949437500002,91,0xFF,0xFF
54.383046812499998,91,0xFF,0xFF
54.383144250000001,91,0xFF,0xFF
54.383241624999997,91,0xFF,0xFF
54.383338999999999,91,0xFF,0xFF
54.383436437500002,91,0xFF,0xFF
54.384536124999997,91,0xFF,0xFF
54.384633562499999,91,0xFF,0xFF
54.384730937500002,91,0xFF,0xFF
54.384827999999999,91,0xFF,0xFF
54.384925437500002,91,0xFF,0xFF
54.385022812499997,91,0xFF,0xFF
54.385120187500000,91,0xFF,0xFF
54.385217625000003,91,0xFF,0xFF
54.385314999999999,91,0xFF,0xFF
54.385412437500001,91,0xFF,0xFF
54.385508812499999,91,0xFF,0xFF
54.385606187500002,91,0xFF,0xFF
54.385703249999999,91,0xFF,0xFF
54.385800312500002,91,0xFF,0xFF
54.385897749999998,91,0xFF,0xFF
54.385995125000001,91,0xFF,0xFF
54.386092562499996,91,0xFF,0xFF
54.386189937499999,91,0xFF,0xFF
54.386287312500002,91,0xFF,0xFF
54.386383750000000,91,0xFF,0xFF
54.386481125000003,91,0xFF,0xFF
54.386578499999999,91,0xFF,0xFF
54.386675937500002,91,0xFF,0xFF
54.386773312499997,91,0xFF,0xFF
54.386870750000000,91,0xFF,0xFF
54.386967812499996,91,0xFF,0xFF
54.387073500000000,91,0xFF,0xFF
54.387170937500002,91,0xFF,0xFF
54.387267999999999,91,0xFF,0xFF
54.387365375000002,91,0xFF,0xFF
54.387462812499997,91,0xFF,0xFF
54.387560187500000,91,0xFF,0xFF
54.387656937499997,91,0xFF,0xFF
54.387754312500000,91,0xFF,0xFF
54.387851687500003,91,0xFF,0xFF
54.387949124999999,91,0xFF,0xFF
54.388063500000001,91,0xFF,0xFF
54.388160937499997,91,0xFF,0xFF
54.388258312500000,91,0xFF,0xFF
54.388355750000002,91,0xFF,0xFF
54.388453124999998,91,0xFF,0xFF
54.388550500000001,91,0xFF,0xFF
54.388646937499999,91,0xFF,0xFF
54.388744312500002,91,0xFF,0xFF
54.388841687499998,91,0xFF,0xFF
54.388938812500001,91,0xFF,0xFF
54.389062187500002,91,0xFF,0xFF
54.389159624999998,91,0xFF,0xFF
54.389257000000001,91,0xFF,0xFF
54.389354375000003,91,0xFF,0xFF
54.389451812499999,91,0xFF,0xFF
54.389549187500002,91,0xFF,0xFF
54.389646562499998,91,0xFF,0xFF
54.389744000000000,91,0xFF,0xFF
54.389841375000003,91,0xFF,0xFF
54.389938437500000,91,0xFF,0xFF
54.390035500000003,91,0xFF,0xFF
54.390132937499999,91,0xFF,0xFF
54.390230312500002,91,0xFF,0xFF
54.390327687499997,91,0xFF,0xFF
54.390424125000003,91,0xFF,0xFF
54.390521499999998,91,0xFF,0xFF
54.390618937500001,91,0xFF,0xFF
54.390716312499997,91,0xFF,0xFF
54.390813687500000,91,0xFF,0xFF
54.390911125000002,91,0xFF,0xFF
54.391008499999998,91,0xFF,0xFF
54.391114250000001,91,0xFF,0xFF
54.391211624999997,91,0xFF,0xFF
54.391308062500002,91,0xFF,0xFF
54.391404750000000,91,0xFF,0xFF
54.393188000000002,92,0xFF,0x10
54.393288062499998,92,0xFF,0x06
54.393379437500002,92,0xFF,0x08
54.393470812499999,92,0xFF,0x00
54.394573250000001,92,0xFF,0x00
54.394664624999997,92,0xFF,0x06
54.394756375000000,92,0xFF,0x14
54.394847437499998,92,0xFF,0x3C
54.394954187499998,92,0xFF,0xFF
54.395050875000003,92,0xFF,0xFF
54.395147625000000,92,0xFF,0xFF
54.395245375000002,92,0xFF,0xFF
54.395342062499999,92,0xFF,0xFF
54.395438812499997,92,0xFF,0xFF
54.395552875000000,92,0xFF,0xFF
54.401348124999998,93,0xFF,0x05
54.401448500000001,93,0xFF,0x23
54.401539562499998,93,0xFF,0xD5
54.401631312500001,93,0xFF,0xC3
54.401722374999999,93,0xFF,0x10
54.401814125000001,93,0xFF,0xEE
54.401905499999998,93,0xFF,0x45
54.401996875000002,93,0xFF,0xF7
54.402088312499998,93,0xFF,0x23
54.402179687500002,93,0xFF,0x00
54.402271062499999,93,0xFF,0x03
54.402362812500002,93,0xFF,0x01
54.402462874999998,93,0xFF,0x16
54.402554250000001,93,0xFF,0x04
54.402645999999997,93,0xFF,0x04
54.402737062500002,93,0xFF,0x11
54.402828812499997,93,0xFF,0x01
54.402920187500001,93,0xFF,0x00
54.403011562499998,93,0xFF,0x23
54.403103312500001,93,0xFF,0xF7
54.403194374999998,93,0xFF,0x06
54.403286062500001,93,0xFF,0x82
54.403377124999999,93,0xFF,0x11
54.403477562500001,93,0xFF,0x10
54.404570937499997,93,0xFF,0x23
54.404662375000001,93,0xFF,0x00
54.404754062499997,93,0xFF,0x23
54.404845500000000,93,0xFF,0xF7
54.404936874999997,93,0xFF,0x45
54.405028625000000,93,0xFF,0xEE
54.405119999999997,93,0xFF,0x10
54.405211375000000,93,0xFF,0xC3
54.405302812499997,93,0xFF,0xD5
54.405394500000000,93,0xFF,0x83
54.405485874999997,93,0xFF,0x49
54.405577624999999,93,0xFF,0x70
54.405668687499997,93,0xFF,0xE0
54.405775437499997,93,0xFF,0xFF
54.405872187500002,93,0xFF,0xFF
54.405968874999999,93,0xFF,0xFF
54.406066625000001,93,0xFF,0xFF
54.406190062500002,93,0xFF,0xFF
54.406286750000000,93,0xFF,0xFF
54.406409875000001,93,0xFF,0xFF
54.415676437499997,94,0xFF,0x07
54.415767812500000,94,0xFF,0x02
54.415859187499997,94,0xFF,0xDA
54.415950250000002,94,0xFF,0xA4
54.416057000000002,94,0xFF,0xFF
54.416153749999999,94,0xFF,0xFF
54.416251437500001,94,0xFF,0xFF
54.416349187500003,94,0xFF,0xFF
54.416445937500001,94,0xFF,0xFF
54.416542687499998,94,0xFF,0xFF
54.416640062500001,94,0xFF,0xFF
54.416737437499997,94,0xFF,0xFF
54.416834874999999,94,0xFF,0xFF
54.416932250000002,94,0xFF,0xFF
54.417029624999998,94,0xFF,0xFF
54.417126750000001,94,0xFF,0xFF
54.417232437499997,94,0xFF,0xFF
54.417329875000000,94,0xFF,0xFF
54.417426249999998,94,0xFF,0xFF
54.417522624999997,94,0xFF,0xFF
54.418981312500001,95,0xFF,0x10
54.419072687499998,95,0xFF,0x06
54.419164062500002,95,0xFF,0x00
54.419264187499998,95,0xFF,0x00
54.419355875000001,95,0xFF,0x03
54.419447249999997,95,0xFF,0x00
54.419547687500000,95,0xFF,0x42
54.419638749999997,95,0xFF,0x8C
54.419745499999998,95,0xFF,0xFF
54.419841875000003,95,0xFF,0xFF
54.419938937500000,95,0xFF,0xFF
54.420037000000001,95,0xFF,0xFF
54.420133749999998,95,0xFF,0xFF
54.420248125000001,95,0xFF,0xFF
54.420362249999997,95,0xFF,0xFF
54.450454437499999,96,0xFF,0x07
54.450545812500003,96,0xFF,0x02
54.450645874999999,96,0xFF,0xDA
54.450736937499997,96,0xFF,0xA4
54.450843999999996,96,0xFF,0xFF
54.450940437500002,96,0xFF,0xFF
54.451037124999999,96,0xFF,0xFF
54.451134875000001,96,0xFF,0xFF
54.451231624999998,96,0xFF,0xFF
54.451346000000001,96,0xFF,0xFF
54.451443437499996,96,0xFF,0xFF
54.451540812499999,96,0xFF,0xFF
54.451638187500002,96,0xFF,0xFF
54.451735624999998,96,0xFF,0xFF
54.451833000000001,96,0xFF,0xFF
54.451929374999999,96,0xFF,0xFF
54.452026125000003,96,0xFF,0xFF
54.452123187500000,96,0xFF,0xFF
54.454770312500003,97,0xFF,0x10
54.454861687499999,97,0xFF,0x06
54.454952749999997,97,0xFF,0x08
54.455052812500000,97,0xFF,0x00
54.455144562500003,97,0xFF,0x00
54.455235937499999,97,0xFF,0x00
54.455327687500002,97,0xFF,0xD2
54.455418750000000,97,0xFF,0x5C
54.455525500000000,97,0xFF,0xFF
54.455622249999998,97,0xFF,0xFF
54.455718937500002,97,0xFF,0xFF
54.455816687499997,97,0xFF,0xFF
54.455913437500001,97,0xFF,0xFF
54.456010124999999,97,0xFF,0xFF
54.456124250000002,97,0xFF,0xFF
54.457586874999997,98,0xFF,0x06
54.457678250000001,98,0xFF,0x02
54.457769312499998,98,0xFF,0xEB
54.457860750000002,98,0xFF,0x97
54.457967437500002,98,0xFF,0xFF
54.458064187500000,98,0xFF,0xFF
54.458160624999998,98,0xFF,0xFF
54.458258312500000,98,0xFF,0xFF
54.458355062499997,98,0xFF,0xFF
54.458452437500000,98,0xFF,0xFF
54.458549875000003,98,0xFF,0xFF
54.458647249999999,98,0xFF,0xFF
54.458744625000001,98,0xFF,0xFF
54.458842062499997,98,0xFF,0xFF
54.458939437500000,98,0xFF,0xFF
54.459036875000002,98,0xFF,0xFF
54.459134249999998,98,0xFF,0xFF
54.459230624999996,98,0xFF,0xFF
54.459327687500000,98,0xFF,0xFF
54.459425125000003,98,0xFF,0xFF
54.459522499999999,98,0xFF,0xFF
54.459619937500001,98,0xFF,0xFF
54.459717312499997,98,0xFF,0xFF
54.459814687500000,98,0xFF,0xFF
54.459912125000002,98,0xFF,0xFF
54.460009499999998,98,0xFF,0xFF
54.460106875000001,98,0xFF,0xFF
54.460204312499997,98,0xFF,0xFF
54.460300687500002,98,0xFF,0xFF
54.460415437499996,98,0xFF,0xFF
54.460512812499999,98,0xFF,0xFF
54.460610250000002,98,0xFF,0xFF
54.460707624999998,98,0xFF,0xFF
54.460805062500000,98,0xFF,0xFF
54.460902437500003,98,0xFF,0xFF
54.460999812499999,98,0xFF,0xFF
54.461097250000002,98,0xFF,0xFF
54.461194624999997,98,0xFF,0xFF
54.461291375000002,98,0xFF,0xFF
54.461405749999997,98,0xFF,0xFF
54.461503187500000,98,0xFF,0xFF
54.461600562500003,98,0xFF,0xFF
54.461697999999998,98,0xFF,0xFF
54.461795062500002,98,0xFF,0xFF
54.461892124999999,98,0xFF,0xFF
54.461989812500001,98,0xFF,0xFF
54.462087250000003,98,0xFF,0xFF
54.462184624999999,98,0xFF,0xFF
54.462281062499997,98,0xFF,0xFF
54.462395749999999,98,0xFF,0xFF
54.462492187499997,98,0xFF,0xFF
54.462589250000001,98,0xFF,0xFF
54.465193624999998,99,0xFF,0x10
54.465285062500001,99,0xFF,0x06
54.465376437499998,99,0xFF,0x08
54.465467500000003,99,0xFF,0x00
54.465558874999999,99,0xFF,0x00
54.465650625000002,99,0xFF,0x07
54.465741687500000,99,0xFF,0x35
54.465833062500003,99,0xFF,0x2C
54.465939812499997,99,0xFF,0xFF
54.466036250000002,99,0xFF,0xFF
54.466133312499998,99,0xFF,0xFF
54.466231000000001,99,0xFF,0xFF
54.466327749999998,99,0xFF,0xFF
54.466442499999999,99,0xFF,0xFF
54.466556562500003,99,0xFF,0xFF
54.470897187500000,100,0xFF,0x05
54.470988562499997,100,0xFF,0x14
54.471079625000002,100,0xFF,0xD5
54.471171312499997,100,0xFF,0xC3
54.471262375000002,100,0xFF,0x10
54.471354124999998,100,0xFF,0xEE
54.471445500000002,100,0xFF,0x45
54.471536937499998,100,0xFF,0xF7
54.471637312500000,100,0xFF,0x23
54.471728687499997,100,0xFF,0x00
54.471820437500000,100,0xFF,0x04
54.471911812499997,100,0xFF,0x01
54.472003250000000,100,0xFF,0x07
54.472094624999997,100,0xFF,0x05
54.472186375000000,100,0xFF,0x00
54.472277437499997,100,0xFF,0xFE
54.472369125000000,100,0xFF,0x04
54.472460562499997,100,0xFF,0x25
54.472552250000000,100,0xFF,0x72
54.472652312500003,100,0xFF,0x0B
54.472743375000000,100,0xFF,0x4D
54.472834812499997,100,0xFF,0xA3
54.472941499999997,100,0xFF,0xFF
54.473038250000002,100,0xFF,0xFF
54.473134999999999,100,0xFF,0xFF
54.473232750000001,100,0xFF,0xFF
54.473329437499999,100,0xFF,0xFF
54.473434875000002,100,0xFF,0xFF
54.473549249999998,100,0xFF,0xFF
54.479735437499997,101,0xFF,0x07
54.479826812500001,101,0xFF,0x02
54.479918562500004,101,0xFF,0xDA
54.480018625000000,101,0xFF,0xA4
54.480125375000000,101,0xFF,0xFF
54.480222062499998,101,0xFF,0xFF
54.480318812500002,101,0xFF,0xFF
54.480416562499997,101,0xFF,0xFF
54.480513625000000,101,0xFF,0xFF
54.480610687499997,101,0xFF,0xFF
54.480708437499999,101,0xFF,0xFF
54.480805812500002,101,0xFF,0xFF
54.480902874999998,101,0xFF,0xFF
54.481000312500001,101,0xFF,0xFF
54.481097687499997,101,0xFF,0xFF
54.481195062499999,101,0xFF,0xFF
54.481292500000002,101,0xFF,0xFF
54.481389874999998,101,0xFF,0xFF
54.481504312500000,101,0xFF,0xFF
54.481601374999997,101,0xFF,0xFF
54.483058999999997,102,0xFF,0x10
54.483150375000001,102,0xFF,0x06
54.483241812499998,102,0xFF,0x00
54.483333187500001,102,0xFF,0x00
54.483424937499997,102,0xFF,0x04
54.483525312499999,102,0xFF,0x00
54.483616687500003,102,0xFF,0xD5
54.484710124999999,102,0xFF,0x15
54.484816875000000,102,0xFF,0xFF
54.484913562499997,102,0xFF,0xFF
54.485010312500002,102,0xFF,0xFF
54.485108062499997,102,0xFF,0xFF
54.485204750000001,102,0xFF,0xFF
54.485301499999998,102,0xFF,0xFF
54.485415562500002,102,0xFF,0xFF
54.488198437500003,103,0xFF,0x14
54.488289875000000,103,0xFF,0x1A
54.488381562500003,103,0xFF,0xD5
54.488472999999999,103,0xFF,0xC3
54.488564375000003,103,0xFF,0x10
54.488664437499999,103,0xFF,0xEE
54.488755812500003,103,0xFF,0x45
54.488847249999999,103,0xFF,0xF7
54.488938937500002,103,0xFF,0x23
54.489038999999998,103,0xFF,0x00
54.489130750000001,103,0xFF,0x13
54.489222124999998,103,0xFF,0x55
54.489313875000001,103,0xFF,0xBB
54.489405249999997,103,0xFF,0x96
54.489523374999997,103,0xFF,0x53
54.489614375000002,103,0xFF,0xF9
54.489706124999998,103,0xFF,0x58
54.489797500000002,103,0xFF,0xE3
54.489889249999997,103,0xFF,0x2A
54.489980625000001,103,0xFF,0x60
54.490072062499998,103,0xFF,0x74
54.490163437500001,103,0xFF,0xE8
54.490255187499997,103,0xFF,0x2B
54.490346250000002,103,0xFF,0x19
54.490437937499998,103,0xFF,0x93
54.490538000000001,103,0xFF,0x78
54.490629062499998,103,0xFF,0x37
54.490720500000002,103,0xFF,0xFA
54.490827250000002,103,0xFF,0xFF
54.490923937500000,103,0xFF,0xFF
54.491020687499997,103,0xFF,0xFF
54.491118749999998,103,0xFF,0xFF
54.491215812500002,103,0xFF,0xFF
54.491312187500000,103,0xFF,0xFF
54.491426625000003,103,0xFF,0xFF
54.520278312499997,104,0xFF,0x07
54.520369687500001,104,0xFF,0x02
54.520470125000003,104,0xFF,0xDA
54.520561187500000,104,0xFF,0xA4
54.520667937500001,104,0xFF,0xFF
54.520764624999998,104,0xFF,0xFF
54.520861062500003,104,0xFF,0xFF
54.520959124999997,104,0xFF,0xFF
54.521055875000002,104,0xFF,0xFF
54.521153249999998,104,0xFF,0xFF
54.521250625000000,104,0xFF,0xFF
54.521348062500003,104,0xFF,0xFF
54.521445437499999,104,0xFF,0xFF
54.521542812500002,104,0xFF,0xFF
54.521648249999998,104,0xFF,0xFF
54.521745625000001,104,0xFF,0xFF
54.521842062499999,104,0xFF,0xFF
54.521939125000003,104,0xFF,0xFF
54.523422437500003,105,0xFF,0x10
54.523600875000000,105,0xFF,0x06
54.524693937499997,105,0xFF,0x08
54.524785375000000,105,0xFF,0x00
54.524876749999997,105,0xFF,0x00
54.524968125000001,105,0xFF,0x00
54.525068187499997,105,0xFF,0xD2
54.525159625000001,105,0xFF,0x5C
54.525266312500001,105,0xFF,0xFF
54.525362749999999,105,0xFF,0xFF
54.525459812500003,105,0xFF,0xFF
54.525557874999997,105,0xFF,0xFF
54.525654625000001,105,0xFF,0xFF
54.525751312499999,105,0xFF,0xFF
54.525865437500002,105,0xFF,0xFF
54.527328750000002,106,0xFF,0x06
54.527420124999999,106,0xFF,0x02
54.527511187499996,106,0xFF,0xEB
54.527602562500000,106,0xFF,0x97
54.527709312500001,106,0xFF,0xFF
54.527806062499998,106,0xFF,0xFF
54.527902750000003,106,0xFF,0xFF
54.528000499999997,106,0xFF,0xFF
54.528097250000002,106,0xFF,0xFF
54.528193999999999,106,0xFF,0xFF
54.528291375000002,106,0xFF,0xFF
54.528388749999998,106,0xFF,0xFF
54.528486187500000,106,0xFF,0xFF
54.528583562500003,106,0xFF,0xFF
54.528680999999999,106,0xFF,0xFF
54.528778375000002,106,0xFF,0xFF
54.528875749999997,106,0xFF,0xFF
54.528973187500000,106,0xFF,0xFF
54.529070562500003,106,0xFF,0xFF
54.529166937500001,106,0xFF,0xFF
54.529264374999997,106,0xFF,0xFF
54.529361750000000,106,0xFF,0xFF
54.529459187500002,106,0xFF,0xFF
54.529556562499998,106,0xFF,0xFF
54.529652937500003,106,0xFF,0xFF
54.529750374999999,106,0xFF,0xFF
54.529847750000002,106,0xFF,0xFF
54.529945124999998,106,0xFF,0xFF
54.530042562500000,106,0xFF,0xFF
54.530139937500003,106,0xFF,0xFF
54.530236687500000,106,0xFF,0xFF
54.530334062500003,106,0xFF,0xFF
54.530431499999999,106,0xFF,0xFF
54.530528875000002,106,0xFF,0xFF
54.530625937499998,106,0xFF,0xFF
54.530731375000002,106,0xFF,0xFF
54.532250687500003,107,0xFF,0x10
54.532342125000000,107,0xFF,0x06
54.532433500000003,107,0xFF,0x08
54.532524875000000,107,0xFF,0x00
54.532616625000003,107,0xFF,0x00
54.532734374999997,107,0xFF,0x08
54.532825437500001,107,0xFF,0xDA
54.532916812499998,107,0xFF,0xDD
54.533023562499999,107,0xFF,0xFF
54.533120312500003,107,0xFF,0xFF
54.533217375000000,107,0xFF,0xFF
54.533315062500002,107,0xFF,0xFF
54.533412124999998,107,0xFF,0xFF
54.533508875000003,107,0xFF,0xFF
54.533622937499999,107,0xFF,0xFF
54.538189375000002,108,0xFF,0x05
54.538280749999998,108,0xFF,0x12
54.538372125000002,108,0xFF,0xD5
54.538463562499999,108,0xFF,0xC3
54.538554937500002,108,0xFF,0x10
54.538646687499998,108,0xFF,0xEE
54.538738062500002,108,0xFF,0x45
54.538829437499999,108,0xFF,0xF7
54.538929875000001,108,0xFF,0x23
54.539021249999998,108,0xFF,0x00
54.539113000000000,108,0xFF,0x05
54.539204062499998,108,0xFF,0x11
54.539295750000001,108,0xFF,0x05
54.539387187499997,108,0xFF,0x06
54.539478562500001,108,0xFF,0x04
54.539569937499998,108,0xFF,0x03
54.539661375000001,108,0xFF,0x82
54.539752749999998,108,0xFF,0x9B
54.539844500000001,108,0xFF,0xB2
54.539944562499997,108,0xFF,0x3D
54.540051249999998,108,0xFF,0xFF
54.540148000000002,108,0xFF,0xFF
54.540244749999999,108,0xFF,0xFF
54.540342500000001,108,0xFF,0xFF
54.540439187499999,108,0xFF,0xFF
54.540536250000002,108,0xFF,0xFF
54.540650687499998,108,0xFF,0xFF
54.547686374999998,109,0xFF,0x07
54.547777812500001,109,0xFF,0x02
54.547878187499997,109,0xFF,0xDA
54.547969250000001,109,0xFF,0xA4
54.548076312500001,109,0xFF,0xFF
54.548173062499998,109,0xFF,0xFF
54.548270125000002,109,0xFF,0xFF
54.548367874999997,109,0xFF,0xFF
54.548464625000001,109,0xFF,0xFF
54.548561999999997,109,0xFF,0xFF
54.548659375000000,109,0xFF,0xFF
54.548756812500002,109,0xFF,0xFF
54.548854187499998,109,0xFF,0xFF
54.548951562500001,109,0xFF,0xFF
54.549048999999997,109,0xFF,0xFF
54.549146374999999,109,0xFF,0xFF
54.549243437500003,109,0xFF,0xFF
54.549340874999999,109,0xFF,0xFF
54.549437249999997,109,0xFF,0xFF
54.549534625000000,109,0xFF,0xFF
54.550993312499998,110,0xFF,0x10
54.551084687500001,110,0xFF,0x06
54.551176062499998,110,0xFF,0x00
54.551267125000003,110,0xFF,0x00
54.551358874999998,110,0xFF,0x05
54.551449937500003,110,0xFF,0x00
54.551541312499999,110,0xFF,0xE4
54.551632750000003,110,0xFF,0x26
54.551739437499997,110,0xFF,0xFF
54.551836187500001,110,0xFF,0xFF
54.551932937499998,110,0xFF,0xFF
54.552030687500000,110,0xFF,0xFF
54.552127749999997,110,0xFF,0xFF
54.552224125000002,110,0xFF,0xFF
54.552338562499997,110,0xFF,0xFF
54.589391687499997,111,0xFF,0x07
54.589491812500000,111,0xFF,0x02
54.589583187499997,111,0xFF,0xDA
54.589674250000002,111,0xFF,0xA4
54.589781312500001,111,0xFF,0xFF
54.589878062499999,111,0xFF,0xFF
54.589983437500003,111,0xFF,0xFF
54.590081187499997,111,0xFF,0xFF
54.590177937500002,111,0xFF,0xFF
54.590275312499998,111,0xFF,0xFF
54.590372687500000,111,0xFF,0xFF
54.590469124999998,111,0xFF,0xFF
54.590566500000001,111,0xFF,0xFF
54.590663937499997,111,0xFF,0xFF
54.590761312500000,111,0xFF,0xFF
54.590858375000003,111,0xFF,0xFF
54.590972437500000,111,0xFF,0xFF
54.591069500000003,111,0xFF,0xFF
54.592552812500003,112,0xFF,0x10
54.592652937499999,112,0xFF,0x06
54.592744000000003,112,0xFF,0x08
54.592835375000000,112,0xFF,0x00
54.592927125000003,112,0xFF,0x00
54.593018125000000,112,0xFF,0x00
54.593109562499997,112,0xFF,0xD2
54.593200937500001,112,0xFF,0x5C
54.593307687500001,112,0xFF,0xFF
54.593404437499998,112,0xFF,0xFF
54.593501125000003,112,0xFF,0xFF
54.593598874999998,112,0xFF,0xFF
54.593695625000002,112,0xFF,0xFF
54.594795374999997,112,0xFF,0xFF
54.594909749999999,112,0xFF,0xFF
54.596373062500000,113,0xFF,0x06
54.596464500000003,113,0xFF,0x02
54.596555562500001,113,0xFF,0xEB
54.596646937499997,113,0xFF,0x97
54.596753687499998,113,0xFF,0xFF
54.596850375000002,113,0xFF,0xFF
54.596947437499999,113,0xFF,0xFF
54.597045187500001,113,0xFF,0xFF
54.597141937499998,113,0xFF,0xFF
54.597239312500001,113,0xFF,0xFF
54.597336749999997,113,0xFF,0xFF
54.597434124999999,113,0xFF,0xFF
54.597530499999998,113,0xFF,0xFF
54.597627937500000,113,0xFF,0xFF
54.597725312500003,113,0xFF,0xFF
54.597822687499999,113,0xFF,0xFF
54.597920125000002,113,0xFF,0xFF
54.598016500000000,113,0xFF,0xFF
54.598113937500003,113,0xFF,0xFF
54.598211312499998,113,0xFF,0xFF
54.598308687500001,113,0xFF,0xFF
54.598406124999997,113,0xFF,0xFF
54.598503500000000,113,0xFF,0xFF
54.598600249999997,113,0xFF,0xFF
54.598697625000000,113,0xFF,0xFF
54.598795062500002,113,0xFF,0xFF
54.598892437499998,113,0xFF,0xFF
54.599006500000002,113,0xFF,0xFF
54.599103937499997,113,0xFF,0xFF
54.599201312500000,113,0xFF,0xFF
54.599298687500003,113,0xFF,0xFF
54.599396124999998,113,0xFF,0xFF
54.599493500000001,113,0xFF,0xFF
54.599589874999999,113,0xFF,0xFF
54.599687312500002,113,0xFF,0xFF
54.599784687499998,113,0xFF,0xFF
54.599882125000001,113,0xFF,0xFF
54.599996500000003,113,0xFF,0xFF
54.600093937499999,113,0xFF,0xFF
54.600191000000002,113,0xFF,0xFF
54.600288687499997,113,0xFF,0xFF
54.600386125000000,113,0xFF,0xFF
54.600483500000003,113,0xFF,0xFF
54.600579875000001,113,0xFF,0xFF
54.600677312499997,113,0xFF,0xFF
54.602243375000000,114,0xFF,0x10
54.602334749999997,114,0xFF,0x06
54.602434812500000,114,0xFF,0x08
54.602526187499997,114,0xFF,0x00
54.602617937500000,114,0xFF,0x00
54.602709312499996,114,0xFF,0x09
54.602809749999999,114,0xFF,0xFB
54.602900812500003,114,0xFF,0xCD
54.603007562499997,114,0xFF,0xFF
54.603104250000001,114,0xFF,0xFF
54.603200999999999,114,0xFF,0xFF
54.603299062500000,114,0xFF,0xFF
54.603395812499997,114,0xFF,0xFF
54.603492500000002,114,0xFF,0xFF
54.603606624999998,114,0xFF,0xFF
54.608930874999999,115,0xFF,0x05
54.609048625000000,115,0xFF,0x1B
54.609139687499997,115,0xFF,0xD5
54.609231375000000,115,0xFF,0xC3
54.609331437500003,115,0xFF,0x10
54.609422875000000,115,0xFF,0xEE
54.609514562500003,115,0xFF,0x45
54.609605625000000,115,0xFF,0xF7
54.609697062499997,115,0xFF,0x23
54.609788750000000,115,0xFF,0x00
54.609880124999997,115,0xFF,0x06
54.609971874999999,115,0xFF,0x11
54.610063250000003,115,0xFF,0x0E
54.610154312500001,115,0xFF,0x07
54.610245749999997,115,0xFF,0x04
54.610346125000000,115,0xFF,0x05
54.610437500000003,115,0xFF,0x01
54.610528937500000,115,0xFF,0x80
54.610620312499996,115,0xFF,0x4B
54.610712062499999,115,0xFF,0xE2
54.610803437500003,115,0xFF,0x52
54.610894812500000,115,0xFF,0xA1
54.610986562500003,115,0xFF,0x61
54.611077625000000,115,0xFF,0xFC
54.611169375000003,115,0xFF,0x12
54.611260437500000,115,0xFF,0x9A
54.611360812500003,115,0xFF,0x6B
54.611452187499999,115,0xFF,0x40
54.611543625000003,115,0xFF,0xF4
54.611650375000004,115,0xFF,0xFF
54.611747062500001,115,0xFF,0xFF
54.611843812499998,115,0xFF,0xFF
54.611941562500000,115,0xFF,0xFF
54.612055937500003,115,0xFF,0xFF
54.612152687500000,115,0xFF,0xFF
54.612266750000003,115,0xFF,0xFF
54.620074687500001,116,0xFF,0x07
54.620166062499997,116,0xFF,0x02
54.620266125000001,116,0xFF,0xDA
54.620357499999997,116,0xFF,0xA4
54.620464249999998,116,0xFF,0xFF
54.620561000000002,116,0xFF,0xFF
54.620657749999999,116,0xFF,0xFF
54.620755437500002,116,0xFF,0xFF
54.620852499999998,116,0xFF,0xFF
54.620949937500001,116,0xFF,0xFF
54.621047312499996,116,0xFF,0xFF
54.621144749999999,116,0xFF,0xFF
54.621242125000002,116,0xFF,0xFF
54.621339499999998,116,0xFF,0xFF
54.621436937500000,116,0xFF,0xFF
54.621534312500003,116,0xFF,0xFF
54.621631375000000,116,0xFF,0xFF
54.621728750000003,116,0xFF,0xFF
54.621825500000000,116,0xFF,0xFF
54.621922937500003,116,0xFF,0xFF
54.623381562500001,117,0xFF,0x10
54.623472937499997,117,0xFF,0x06
54.623564000000002,117,0xFF,0x00
54.623664437499997,117,0xFF,0x00
54.623755500000001,117,0xFF,0x06
54.624936249999998,117,0xFF,0x00
54.625027312500002,117,0xFF,0xB7
54.625127749999997,117,0xFF,0x73
54.625234437499998,117,0xFF,0xFF
54.625331187500002,117,0xFF,0xFF
54.625427937500000,117,0xFF,0xFF
54.625525687500001,117,0xFF,0xFF
54.625622374999999,117,0xFF,0xFF
54.625719125000003,117,0xFF,0xFF
54.625833187500000,117,0xFF,0xFF
54.653734937499998,118,0xFF,0x07
54.653835312500000,118,0xFF,0x02
54.654928750000003,118,0xFF,0xDA
54.655020125000000,118,0xFF,0xA4
54.655126875000001,118,0xFF,0xFF
54.655241250000003,118,0xFF,0xFF
54.655338000000000,118,0xFF,0xFF
54.655436062500002,118,0xFF,0xFF
54.655532812499999,118,0xFF,0xFF
54.655630187500002,118,0xFF,0xFF
54.655727562499997,118,0xFF,0xFF
54.655825000000000,118,0xFF,0xFF
54.655922375000003,118,0xFF,0xFF
54.656019812499999,118,0xFF,0xFF
54.656116875000002,118,0xFF,0xFF
54.656222562499998,118,0xFF,0xFF
54.656319000000003,118,0xFF,0xFF
54.656416062500000,118,0xFF,0xFF
54.657899062500000,119,0xFF,0x10
54.657990437499997,119,0xFF,0x06
54.658081812500001,119,0xFF,0x08
54.658173249999997,119,0xFF,0x00
54.658264625000001,119,0xFF,0x00
54.658355999999998,119,0xFF,0x00
54.658447750000001,119,0xFF,0xD2
54.658539124999997,119,0xFF,0x5C
54.658645874999998,119,0xFF,0xFF
54.658742625000002,119,0xFF,0xFF
54.658839000000000,119,0xFF,0xFF
54.658937062500002,119,0xFF,0xFF
54.659033812499999,119,0xFF,0xFF
54.659130562500003,119,0xFF,0xFF
54.659262312499997,119,0xFF,0xFF
54.660725624999998,120,0xFF,0x06
54.660817000000002,120,0xFF,0x02
54.660908437499998,120,0xFF,0xEB
54.660999437500003,120,0xFF,0x97
54.661106187500003,120,0xFF,0xFF
54.661202937500001,120,0xFF,0xFF
54.661299687499998,120,0xFF,0xFF
54.661397375000000,120,0xFF,0xFF
54.661494124999997,120,0xFF,0xFF
54.661591562500000,120,0xFF,0xFF
54.661688937500003,120,0xFF,0xFF
54.661786312499999,120,0xFF,0xFF
54.661883750000001,120,0xFF,0xFF
54.661981124999997,120,0xFF,0xFF
54.662078187500001,120,0xFF,0xFF
54.662175562500003,120,0xFF,0xFF
54.662281312499999,120,0xFF,0xFF
54.662378750000002,120,0xFF,0xFF
54.662476124999998,120,0xFF,0xFF
54.662573500000001,120,0xFF,0xFF
54.662670937500003,120,0xFF,0xFF
54.662768312499999,120,0xFF,0xFF
54.662865062500003,120,0xFF,0xFF
54.662962437499999,120,0xFF,0xFF
54.663059875000002,120,0xFF,0xFF
54.663157249999998,120,0xFF,0xFF
54.663271312500001,120,0xFF,0xFF
54.663368749999997,120,0xFF,0xFF
54.663466124999999,120,0xFF,0xFF
54.663563500000002,120,0xFF,0xFF
54.663660937499998,120,0xFF,0xFF
54.663758312500001,120,0xFF,0xFF
54.663855374999997,120,0xFF,0xFF
54.664955124999999,120,0xFF,0xFF
54.665052500000002,120,0xFF,0xFF
54.665148937500000,120,0xFF,0xFF
54.665263312500002,120,0xFF,0xFF
54.666787999999997,121,0xFF,0x10
54.666879437500000,121,0xFF,0x06
54.666970499999998,121,0xFF,0x08
54.667061875000002,121,0xFF,0x00
54.667161937499998,121,0xFF,0x00
54.667271000000000,121,0xFF,0x0A
54.667362437500003,121,0xFF,0x98
54.667453812500000,121,0xFF,0xFD
54.667560562500000,121,0xFF,0xFF
54.667657249999998,121,0xFF,0xFF
54.667754000000002,121,0xFF,0xFF
54.667852437500002,121,0xFF,0xFF
54.667949499999999,121,0xFF,0xFF
54.668046187500003,121,0xFF,0xFF
54.668160250000000,121,0xFF,0xFF
54.685440187499999,122,0xFF,0x07
54.685540250000003,122,0xFF,0x02
54.685631999999998,122,0xFF,0xDA
54.685723062500003,122,0xFF,0xA4
54.685830125000003,122,0xFF,0xFF
54.685926875000000,122,0xFF,0xFF
54.686023624999997,122,0xFF,0xFF
54.686121312499999,122,0xFF,0xFF
54.686218062499997,122,0xFF,0xFF
54.686315437499999,122,0xFF,0xFF
54.686412875000002,122,0xFF,0xFF
54.686510249999998,122,0xFF,0xFF
54.686607000000002,122,0xFF,0xFF
54.686704374999998,122,0xFF,0xFF
54.686801812500001,122,0xFF,0xFF
54.686899187500003,122,0xFF,0xFF
54.686996250000000,122,0xFF,0xFF
54.687093312499997,122,0xFF,0xFF
54.688576625000003,123,0xFF,0x10
54.688668062500000,123,0xFF,0x06
54.688759437500003,123,0xFF,0x08
54.688850500000001,123,0xFF,0x00
54.688942249999997,123,0xFF,0x00
54.689033625000000,123,0xFF,0x00
54.689125375000003,123,0xFF,0xD2
54.689216437500001,123,0xFF,0x5C
54.689323125000001,123,0xFF,0xFF
54.689419562499999,123,0xFF,0xFF
54.689516312499997,123,0xFF,0xFF
54.689613999999999,123,0xFF,0xFF
54.689710750000003,123,0xFF,0xFF
54.689807812500000,123,0xFF,0xFF
54.689921875000003,123,0xFF,0xFF
54.691385187500003,124,0xFF,0x06
54.691476625000000,124,0xFF,0x02
54.691567999999997,124,0xFF,0xEB
54.691659062500001,124,0xFF,0x97
54.691765812500002,124,0xFF,0xFF
54.691862499999999,124,0xFF,0xFF
54.691959249999996,124,0xFF,0xFF
54.692056999999998,124,0xFF,0xFF
54.692153750000003,124,0xFF,0xFF
54.692251124999999,124,0xFF,0xFF
54.692348500000001,124,0xFF,0xFF
54.692453937499998,124,0xFF,0xFF
54.692551312500001,124,0xFF,0xFF
54.692648749999996,124,0xFF,0xFF
54.692746124999999,124,0xFF,0xFF
54.692843500000002,124,0xFF,0xFF
54.692940937499998,124,0xFF,0xFF
54.693038312500001,124,0xFF,0xFF
54.693135687500003,124,0xFF,0xFF
54.693233124999999,124,0xFF,0xFF
54.693330187500003,124,0xFF,0xFF
54.693444562499998,124,0xFF,0xFF
54.693542000000001,124,0xFF,0xFF
54.693639374999997,124,0xFF,0xFF
54.693736812499999,124,0xFF,0xFF
54.693834187500002,124,0xFF,0xFF
54.694933937499997,124,0xFF,0xFF
54.695031000000000,124,0xFF,0xFF
54.695128062499997,124,0xFF,0xFF
54.695225437500000,124,0xFF,0xFF
54.695322875000002,124,0xFF,0xFF
54.695428562499998,124,0xFF,0xFF
54.695526000000001,124,0xFF,0xFF
54.695623374999997,124,0xFF,0xFF
54.695720812499999,124,0xFF,0xFF
54.695818187500002,124,0xFF,0xFF
54.695915562499998,124,0xFF,0xFF
54.696012312500002,124,0xFF,0xFF
54.696109687499998,124,0xFF,0xFF
54.696207125000001,124,0xFF,0xFF
54.696304499999997,124,0xFF,0xFF
54.696418562500000,124,0xFF,0xFF
54.696516000000003,124,0xFF,0xFF
54.696613374999998,124,0xFF,0xFF
54.696710812500001,124,0xFF,0xFF
54.696808187499997,124,0xFF,0xFF
54.696904562500002,124,0xFF,0xFF
54.697009999999999,124,0xFF,0xFF
54.698591374999999,125,0xFF,0x10
54.698691812500002,125,0xFF,0x06
54.698783187499998,125,0xFF,0x08
54.698874562500002,125,0xFF,0x00
54.698966312499998,125,0xFF,0x00
54.699057687500002,125,0xFF,0x0B
54.699149437499997,125,0xFF,0xB9
54.699240500000002,125,0xFF,0xED
54.699347250000002,125,0xFF,0xFF
54.699443937500000,125,0xFF,0xFF
54.699540687499997,125,0xFF,0xFF
54.699638437499999,125,0xFF,0xFF
54.699735124999997,125,0xFF,0xFF
54.699832874999998,125,0xFF,0xFF
54.699946937500002,125,0xFF,0xFF
54.706838625000003,126,0xFF,0x05
54.706938687499999,126,0xFF,0x6D
54.707029749999997,126,0xFF,0xD5
54.707121437500000,126,0xFF,0xC3
54.707212499999997,126,0xFF,0x10
54.707303937500001,126,0xFF,0xEE
54.707395624999997,126,0xFF,0x45
54.707504687499998,126,0xFF,0xF7
54.707595750000003,126,0xFF,0x23
54.707687499999999,126,0xFF,0x00
54.707778875000002,126,0xFF,0x07
54.707870624999998,126,0xFF,0x11
54.707962000000002,126,0xFF,0x60
54.708053437499998,126,0xFF,0x08
54.708145125000001,126,0xFF,0x01
54.708236562499998,126,0xFF,0x3B
54.708327937500002,126,0xFF,0x00
54.708419312499998,126,0xFF,0x23
54.708519375000002,126,0xFF,0xF7
54.708611124999997,126,0xFF,0x06
54.708702500000001,126,0xFF,0x82
54.708794249999997,126,0xFF,0x11
54.708885312500001,126,0xFF,0x10
54.708977062499997,126,0xFF,0x23
54.709068437500001,126,0xFF,0x00
54.709159812499998,126,0xFF,0x04
54.709251187500001,126,0xFF,0x00
54.709342937499997,126,0xFF,0x4E
54.709451999999999,126,0xFF,0x00
54.709543062500003,126,0xFF,0x47
54.709634500000000,126,0xFF,0x00
54.709726187500003,126,0xFF,0x50
54.709817624999999,126,0xFF,0x00
54.709909312500002,126,0xFF,0x20
54.710000749999999,126,0xFF,0x00
54.710092125000003,126,0xFF,0x31
54.710183812499999,126,0xFF,0x00
54.710275250000002,126,0xFF,0x35
54.710366312500000,126,0xFF,0x00
54.710466375000003,126,0xFF,0x31
54.710558124999999,126,0xFF,0x00
54.710649500000002,126,0xFF,0x30
54.710740874999999,126,0xFF,0x00
54.710832250000003,126,0xFF,0x00
54.710923999999999,126,0xFF,0x00
54.711015062500003,126,0xFF,0x00
54.711106437500000,126,0xFF,0x00
54.711197875000003,126,0xFF,0x00
54.711289562499999,126,0xFF,0x00
54.711381000000003,126,0xFF,0x00
54.711481374999998,126,0xFF,0x00
54.711572750000002,126,0xFF,0x00
54.711664187499998,126,0xFF,0x00
54.711755562500002,126,0xFF,0x00
54.711846937499999,126,0xFF,0x00
54.711938375000003,126,0xFF,0x00
54.712030062499998,126,0xFF,0x00
54.712121500000002,126,0xFF,0x00
54.712212874999999,126,0xFF,0x00
54.712304250000003,126,0xFF,0x00
54.712395999999998,126,0xFF,0x00
54.712496062500001,126,0xFF,0x00
54.712587812499997,126,0xFF,0x00
54.712679187500001,126,0xFF,0x00
54.712770562499998,126,0xFF,0x00
54.712862312500000,126,0xFF,0x00
54.712953687499997,126,0xFF,0x00
54.713045125000001,126,0xFF,0x00
54.713136499999997,126,0xFF,0x00
54.713228250000000,126,0xFF,0x00
54.713319312499998,126,0xFF,0x00
54.713411000000001,126,0xFF,0x00
54.713511062499997,126,0xFF,0x00
54.713602500000000,126,0xFF,0x00
54.713693874999997,126,0xFF,0x00
54.713794249999999,126,0xFF,0x00
54.713885687500003,126,0xFF,0x00
54.714979374999999,126,0xFF,0x00
54.715071125000001,126,0xFF,0x00
54.715171187499998,126,0xFF,0x00
54.715262937500000,126,0xFF,0x00
54.715354312499997,126,0xFF,0x00
54.715445687500001,126,0xFF,0x00
54.715537124999997,126,0xFF,0x00
54.715628812500000,126,0xFF,0x00
54.715720249999997,126,0xFF,0x00
54.715811312500001,126,0xFF,0x00
54.715902999999997,126,0xFF,0x00
54.715994062500002,126,0xFF,0x00
54.716085812499998,126,0xFF,0x00
54.716185875000001,126,0xFF,0x00
54.716277249999997,126,0xFF,0x00
54.716369000000000,126,0xFF,0x00
54.716460062499998,126,0xFF,0x00
54.716551437500001,126,0xFF,0x00
54.716642874999998,126,0xFF,0x00
54.716734562500001,126,0xFF,0x00
54.716825999999998,126,0xFF,0x00
54.716917375000001,126,0xFF,0x00
54.717008749999998,126,0xFF,0x00
54.717100187500002,126,0xFF,0x00
54.717200562499997,126,0xFF,0x00
54.717291937500001,126,0xFF,0x00
54.717382999999998,126,0xFF,0x00
54.717474750000001,126,0xFF,0x00
54.717566124999998,126,0xFF,0x00
54.717657875000000,126,0xFF,0x00
54.717748937499998,126,0xFF,0x02
54.717840312500002,126,0xFF,0xE1
54.717931687499998,126,0xFF,0x84
54.718023125000002,126,0xFF,0x31
54.718129875000002,126,0xFF,0xFF
54.718226562500000,126,0xFF,0xFF
54.718323312499997,126,0xFF,0xFF
54.718421062499999,126,0xFF,0xFF
54.718535437500002,126,0xFF,0xFF
54.718631875000000,126,0xFF,0xFF
54.718746250000002,126,0xFF,0xFF
54.729905437500001,127,0xFF,0x07
54.729996812499998,127,0xFF,0x02
54.730096875000001,127,0xFF,0xDA
54.730188249999998,127,0xFF,0xA4
54.730294999999998,127,0xFF,0xFF
54.730391750000003,127,0xFF,0xFF
54.730488500000000,127,0xFF,0xFF
54.730586562500001,127,0xFF,0xFF
54.730683249999998,127,0xFF,0xFF
54.730780687500001,127,0xFF,0xFF
54.730878062499997,127,0xFF,0xFF
54.730975500000000,127,0xFF,0xFF
54.731072875000002,127,0xFF,0xFF
54.731170249999998,127,0xFF,0xFF
54.731267687500001,127,0xFF,0xFF
54.731365062499997,127,0xFF,0xFF
54.731462125000000,127,0xFF,0xFF
54.731567875000003,127,0xFF,0xFF
54.731664250000001,127,0xFF,0xFF
54.731761312499998,127,0xFF,0xFF
54.733219624999997,128,0xFF,0x10
54.733311062500000,128,0xFF,0x06
54.733402437499997,128,0xFF,0x00
54.733493812500001,128,0xFF,0x00
54.733602875000003,128,0xFF,0x07
54.733694312499999,128,0xFF,0x00
54.733785687500003,128,0xFF,0x86
54.733877062500000,128,0xFF,0x40
54.734986187499999,128,0xFF,0xFF
54.735082875000003,128,0xFF,0xFF
54.735179625000001,128,0xFF,0xFF
54.735277687500002,128,0xFF,0xFF
54.735374749999998,128,0xFF,0xFF
54.735471187500004,128,0xFF,0xFF
54.735603249999997,128,0xFF,0xFF
54.767929937500000,129,0xFF,0x07
54.768030000000003,129,0xFF,0x02
54.768121375000000,129,0xFF,0xDA
54.768212437499997,129,0xFF,0xA4
54.768319187499998,129,0xFF,0xFF
54.768415937500002,129,0xFF,0xFF
54.768512687499999,129,0xFF,0xFF
54.768610375000002,129,0xFF,0xFF
54.768733812500003,129,0xFF,0xFF
54.768831187499998,129,0xFF,0xFF
54.768928625000001,129,0xFF,0xFF
54.769025999999997,129,0xFF,0xFF
54.769123374999999,129,0xFF,0xFF
54.769220812500002,129,0xFF,0xFF
54.769318187499998,129,0xFF,0xFF
54.769415625000001,129,0xFF,0xFF
54.769511999999999,129,0xFF,0xFF
54.769609062500002,129,0xFF,0xFF
54.771091749999997,130,0xFF,0x10
54.771183125000000,130,0xFF,0x06
54.771274875000003,130,0xFF,0x08
54.771365937500001,130,0xFF,0x00
54.771457624999996,130,0xFF,0x00
54.771548687500001,130,0xFF,0x00
54.771648749999997,130,0xFF,0xD2
54.771757812499999,130,0xFF,0x5C
54.771864562499999,130,0xFF,0xFF
54.771961312499997,130,0xFF,0xFF
54.772058062500001,130,0xFF,0xFF
54.772155750000003,130,0xFF,0xFF
54.772252500000000,130,0xFF,0xFF
54.772349249999998,130,0xFF,0xFF
54.772463625000000,130,0xFF,0xFF
54.773926937500001,131,0xFF,0x06
54.775020687500003,131,0xFF,0x02
54.775112062500000,131,0xFF,0xEB
54.775203500000003,131,0xFF,0x97
54.775310249999997,131,0xFF,0xFF
54.775406937500001,131,0xFF,0xFF
54.775503687499999,131,0xFF,0xFF
54.775601750000000,131,0xFF,0xFF
54.775698499999997,131,0xFF,0xFF
54.775795875000000,131,0xFF,0xFF
54.775893312500003,131,0xFF,0xFF
54.775990000000000,131,0xFF,0xFF
54.776087437500003,131,0xFF,0xFF
54.776184812499999,131,0xFF,0xFF
54.776282187500001,131,0xFF,0xFF
54.776379624999997,131,0xFF,0xFF
54.776477000000000,131,0xFF,0xFF
54.776574437500003,131,0xFF,0xFF
54.776671812499998,131,0xFF,0xFF
54.776777187500002,131,0xFF,0xFF
54.776874624999998,131,0xFF,0xFF
54.776972000000001,131,0xFF,0xFF
54.777069437500003,131,0xFF,0xFF
54.777166812499999,131,0xFF,0xFF
54.777263875000003,131,0xFF,0xFF
54.777361249999998,131,0xFF,0xFF
54.777458687500001,131,0xFF,0xFF
54.777556062499997,131,0xFF,0xFF
54.777652812500001,131,0xFF,0xFF
54.777767187499997,131,0xFF,0xFF
54.777864624999999,131,0xFF,0xFF
54.777962000000002,131,0xFF,0xFF
54.778059437499998,131,0xFF,0xFF
54.778156812500001,131,0xFF,0xFF
54.778254187500004,131,0xFF,0xFF
54.778351624999999,131,0xFF,0xFF
54.778449000000002,131,0xFF,0xFF
54.778546374999998,131,0xFF,0xFF
54.778643125000002,131,0xFF,0xFF
54.778766187499997,131,0xFF,0xFF
54.778863250000001,131,0xFF,0xFF
54.780408625000000,132,0xFF,0x10
54.780500062500003,132,0xFF,0x06
54.780591125000001,132,0xFF,0x08
54.780682812499997,132,0xFF,0x00
54.780773875000001,132,0xFF,0x00
54.780865624999997,132,0xFF,0x0C
54.780956687500002,132,0xFF,0x5E
54.781048062499998,132,0xFF,0x9D
54.781154812499999,132,0xFF,0xFF
54.781251562500003,132,0xFF,0xFF
54.781347937500001,132,0xFF,0xFF
54.781445687500003,132,0xFF,0xFF
54.781542437500001,132,0xFF,0xFF
54.781639499999997,132,0xFF,0xFF
54.781753562500000,132,0xFF,0xFF
54.796337375000000,133,0xFF,0x07
54.796428749999997,133,0xFF,0x02
54.796519812500001,133,0xFF,0xDA
54.796611187499998,133,0xFF,0xA4
54.796717937499999,133,0xFF,0xFF
54.796814687500003,133,0xFF,0xFF
54.796911375000001,133,0xFF,0xFF
54.797009125000002,133,0xFF,0xFF
54.797105875000000,133,0xFF,0xFF
54.797203250000003,133,0xFF,0xFF
54.797300687499998,133,0xFF,0xFF
54.797397750000002,133,0xFF,0xFF
54.797495124999998,133,0xFF,0xFF
54.797592500000000,133,0xFF,0xFF
54.797689937500003,133,0xFF,0xFF
54.797786312500001,133,0xFF,0xFF
54.797892062499997,133,0xFF,0xFF
54.797989125000001,133,0xFF,0xFF
54.799472437500000,134,0xFF,0x10
54.799563874999997,134,0xFF,0x06
54.799655250000001,134,0xFF,0x08
54.799746312499998,134,0xFF,0x00
54.799838000000001,134,0xFF,0x00
54.799929437499998,134,0xFF,0x00
54.800021125000001,134,0xFF,0xD2
54.800121249999997,134,0xFF,0x5C
54.800227937499997,134,0xFF,0xFF
54.800324687500002,134,0xFF,0xFF
54.800421749999998,134,0xFF,0xFF
54.800519500000000,134,0xFF,0xFF
54.800616249999997,134,0xFF,0xFF
54.800712937500002,134,0xFF,0xFF
54.800826999999998,134,0xFF,0xFF
54.802290374999998,135,0xFF,0x06
54.802381750000002,135,0xFF,0x02
54.802473124999999,135,0xFF,0xEB
54.802564500000003,135,0xFF,0x97
54.802671250000003,135,0xFF,0xFF
54.802768000000000,135,0xFF,0xFF
54.802873374999997,135,0xFF,0xFF
54.802971124999999,135,0xFF,0xFF
54.803068187500003,135,0xFF,0xFF
54.803165624999998,135,0xFF,0xFF
54.803263000000001,135,0xFF,0xFF
54.803360374999997,135,0xFF,0xFF
54.803457812500000,135,0xFF,0xFF
54.803555187500002,135,0xFF,0xFF
54.803652624999998,135,0xFF,0xFF
54.803749000000003,135,0xFF,0xFF
54.803863374999999,135,0xFF,0xFF
54.803960812500002,135,0xFF,0xFF
54.805059874999998,135,0xFF,0xFF
54.805157250000001,135,0xFF,0xFF
54.805254687500003,135,0xFF,0xFF
54.805352062499999,135,0xFF,0xFF
54.805449500000002,135,0xFF,0xFF
54.805546874999997,135,0xFF,0xFF
54.805644250000000,135,0xFF,0xFF
54.805741687500003,135,0xFF,0xFF
54.805839062499999,135,0xFF,0xFF
54.805936437500002,135,0xFF,0xFF
54.806033874999997,135,0xFF,0xFF
54.806130937500001,135,0xFF,0xFF
54.806228312499996,135,0xFF,0xFF
54.806325749999999,135,0xFF,0xFF
54.806423125000002,135,0xFF,0xFF
54.806520499999998,135,0xFF,0xFF
54.806616937500003,135,0xFF,0xFF
54.806713999999999,135,0xFF,0xFF
54.808232687500002,136,0xFF,0x10
54.808324062499999,136,0xFF,0x06
54.808415437500003,136,0xFF,0x08
54.808506500000000,136,0xFF,0x00
54.808598250000003,136,0xFF,0x00
54.808689312500000,136,0xFF,0x0D
54.808781062500003,136,0xFF,0x7F
54.808872125000001,136,0xFF,0x8D
54.808978812500001,136,0xFF,0xFF
54.809076249999997,136,0xFF,0xFF
54.809173000000001,136,0xFF,0xFF
54.809270687500003,136,0xFF,0xFF
54.809368124999999,136,0xFF,0xFF
54.809464812500003,136,0xFF,0xFF
54.809578937500000,136,0xFF,0xFF
54.813102937499998,137,0xFF,0x05
54.813194312500002,137,0xFF,0x12
54.813285749999999,137,0xFF,0xD5
54.813376812500003,137,0xFF,0xC3
54.813476874999999,137,0xFF,0x10
54.813568250000003,137,0xFF,0xEE
54.813659999999999,137,0xFF,0x45
54.813751375000002,137,0xFF,0xF7
54.813851812499998,137,0xFF,0x23
54.813960500000000,137,0xFF,0x00
54.814052250000003,137,0xFF,0x08
54.815145625000000,137,0xFF,0x11
54.815245750000003,137,0xFF,0x05
54.815337124999999,137,0xFF,0x09
54.815428875000002,137,0xFF,0x04
54.815519875000000,137,0xFF,0x0D
54.815620000000003,137,0xFF,0x4F
54.815711687499999,137,0xFF,0x64
54.815803125000002,137,0xFF,0xD6
54.815894187500000,137,0xFF,0x6B
54.816000875000000,137,0xFF,0xFF
54.816097624999998,137,0xFF,0xFF
54.816194375000002,137,0xFF,0xFF
54.816292062499997,137,0xFF,0xFF
54.816388812500001,137,0xFF,0xFF
54.816485249999999,137,0xFF,0xFF
54.816599625000002,137,0xFF,0xFF
54.822794125000001,138,0xFF,0x07
54.822885499999998,138,0xFF,0x02
54.822994562500000,138,0xFF,0xDA
54.823086000000004,138,0xFF,0xA4
54.823192749999997,138,0xFF,0xFF
54.823289437500001,138,0xFF,0xFF
54.823386187499999,138,0xFF,0xFF
54.823483937500001,138,0xFF,0xFF
54.823580624999998,138,0xFF,0xFF
54.823678062500001,138,0xFF,0xFF
54.823775124999997,138,0xFF,0xFF
54.823871875000002,138,0xFF,0xFF
54.823986249999997,138,0xFF,0xFF
54.824083625000000,138,0xFF,0xFF
54.825180062500003,138,0xFF,0xFF
54.825277437499999,138,0xFF,0xFF
54.825374875000001,138,0xFF,0xFF
54.825472249999997,138,0xFF,0xFF
54.825655687500003,138,0xFF,0xFF
54.825752749999999,138,0xFF,0xFF
54.827211437499997,139,0xFF,0x10
54.827302812500001,139,0xFF,0x06
54.827394187499998,139,0xFF,0x00
54.827485250000002,139,0xFF,0x00
54.827576687499999,139,0xFF,0x08
54.827668375000002,139,0xFF,0x00
54.827759437499999,139,0xFF,0xB8
54.827850875000003,139,0xFF,0x50
54.827983937500001,139,0xFF,0xFF
54.828080687499998,139,0xFF,0xFF
54.828178062500001,139,0xFF,0xFF
54.828275812500003,139,0xFF,0xFF
54.828372562500000,139,0xFF,0xFF
54.828469249999998,139,0xFF,0xFF
54.828583687500000,139,0xFF,0xFF
54.856450750000000,140,0xFF,0x07
54.856550812499997,140,0xFF,0x02
54.856642187500000,140,0xFF,0xDA
54.856733249999998,140,0xFF,0xA4
54.856839999999998,140,0xFF,0xFF
54.856936750000003,140,0xFF,0xFF
54.857033437500000,140,0xFF,0xFF
54.857157874999999,140,0xFF,0xFF
54.857254937500002,140,0xFF,0xFF
54.857352374999998,140,0xFF,0xFF
54.857449750000001,140,0xFF,0xFF
54.857547125000004,140,0xFF,0xFF
54.857644187500000,140,0xFF,0xFF
54.857740937499997,140,0xFF,0xFF
54.857838312500000,140,0xFF,0xFF
54.857935750000003,140,0xFF,0xFF
54.858032125000001,140,0xFF,0xFF
54.858155250000003,140,0xFF,0xFF
54.859638562500002,141,0xFF,0x10
54.859729937499999,141,0xFF,0x06
54.859820999999997,141,0xFF,0x08
54.859912749999999,141,0xFF,0x00
54.860004125000003,141,0xFF,0x00
54.860104562499998,141,0xFF,0x00
54.860196250000001,141,0xFF,0xD2
54.860287312499999,141,0xFF,0x5C
54.860394062499999,141,0xFF,0xFF
54.860490812499997,141,0xFF,0xFF
54.860587500000001,141,0xFF,0xFF
54.860685250000003,141,0xFF,0xFF
54.860782000000000,141,0xFF,0xFF
54.860878687499998,141,0xFF,0xFF
54.860992812500001,141,0xFF,0xFF
54.862455437500003,142,0xFF,0x06
54.862546812500000,142,0xFF,0x02
54.862638250000003,142,0xFF,0xEB
54.862729312500001,142,0xFF,0x97
54.862836375000001,142,0xFF,0xFF
54.862933124999998,142,0xFF,0xFF
54.863030187500001,142,0xFF,0xFF
54.863136562500003,142,0xFF,0xFF
54.863233312500000,142,0xFF,0xFF
54.863330687500003,142,0xFF,0xFF
54.863428124999999,142,0xFF,0xFF
54.863525500000002,142,0xFF,0xFF
54.863622874999997,142,0xFF,0xFF
54.863720312500000,142,0xFF,0xFF
54.863817687500003,142,0xFF,0xFF
54.863915062499998,142,0xFF,0xFF
54.864011499999997,142,0xFF,0xFF
54.864125874999999,142,0xFF,0xFF
54.865199937500002,142,0xFF,0xFF
54.865297374999997,142,0xFF,0xFF
54.865394750000000,142,0xFF,0xFF
54.865492125000003,142,0xFF,0xFF
54.865589562499999,142,0xFF,0xFF
54.865686937500001,142,0xFF,0xFF
54.865784374999997,142,0xFF,0xFF
54.865881750000000,142,0xFF,0xFF
54.865979125000003,142,0xFF,0xFF
54.866076562499998,142,0xFF,0xFF
54.866190937500001,142,0xFF,0xFF
54.866288375000003,142,0xFF,0xFF
54.866385749999999,142,0xFF,0xFF
54.866483125000002,142,0xFF,0xFF
54.866580562499998,142,0xFF,0xFF
54.866677937500000,142,0xFF,0xFF
54.866774687499998,142,0xFF,0xFF
54.866871437500002,142,0xFF,0xFF
54.866968499999999,142,0xFF,0xFF
54.868493187500000,143,0xFF,0x10
54.868584562499997,143,0xFF,0x06
54.868676312500000,143,0xFF,0x08
54.868767687499997,143,0xFF,0x00
54.868867750000000,143,0xFF,0x00
54.868959125000003,143,0xFF,0x0E
54.869050562500000,143,0xFF,0x1C
54.869141937499997,143,0xFF,0xBD
54.869248687499997,143,0xFF,0xFF
54.869345437500002,143,0xFF,0xFF
54.869442124999999,143,0xFF,0xFF
54.869539875000001,143,0xFF,0xFF
54.869636624999998,143,0xFF,0xFF
54.869733312500003,143,0xFF,0xFF
54.869847437499999,143,0xFF,0xFF
54.872527562499997,144,0xFF,0x0E
54.872618937500000,144,0xFF,0x0B
54.872709999999998,144,0xFF,0x01
54.872810375000000,144,0xFF,0x00
54.872901437499998,144,0xFF,0x00
54.872993187500001,144,0xFF,0x00
54.873084249999998,144,0xFF,0x00
54.873176000000001,144,0xFF,0x00
54.873267374999998,144,0xFF,0x00
54.873367437500001,144,0xFF,0x00
54.873459187500004,144,0xFF,0x00
54.873550562500000,144,0xFF,0xD2
54.873641937499997,144,0xFF,0x97
54.873748687499997,144,0xFF,0xFF
54.873845437500002,144,0xFF,0xFF
54.873942187499999,144,0xFF,0xFF
54.874040250000000,144,0xFF,0xFF
54.874136937499998,144,0xFF,0xFF
54.875211000000000,144,0xFF,0xFF
54.875325125000003,144,0xFF,0xFF
66.065447500000005,145,0xFF,0x07
66.065538875000001,145,0xFF,0x02
66.065630249999998,145,0xFF,0xDA
66.065721312500003,145,0xFF,0xA4
66.065828062500003,145,0xFF,0xFF
66.065924812500000,145,0xFF,0xFF
66.066021875000004,145,0xFF,0xFF
66.066119624999999,145,0xFF,0xFF
66.066216312500003,145,0xFF,0xFF
66.066313750000006,145,0xFF,0xFF
66.066411125000002,145,0xFF,0xFF
66.066508499999998,145,0xFF,0xFF
66.066605937500000,145,0xFF,0xFF
66.066702312499999,145,0xFF,0xFF
66.066799750000001,145,0xFF,0xFF
66.066897124999997,145,0xFF,0xFF
66.066993499999995,145,0xFF,0xFF
66.067090562499999,145,0xFF,0xFF
66.068573937500005,146,0xFF,0x10
66.068665312500002,146,0xFF,0x06
66.068756375000007,146,0xFF,0x08
66.068847750000003,146,0xFF,0x00
66.070124312499999,146,0xFF,0x00
66.070224374999995,146,0xFF,0x00
66.070315750000006,146,0xFF,0xD2
66.070407125000003,146,0xFF,0x5C
66.070513875000003,146,0xFF,0xFF
66.070610625000000,146,0xFF,0xFF
66.070707687500004,146,0xFF,0xFF
66.070805437499999,146,0xFF,0xFF
66.070902125000003,146,0xFF,0xFF
66.070998875000001,146,0xFF,0xFF
66.071112937500004,146,0xFF,0xFF
66.072576249999997,147,0xFF,0x06
66.072667687500001,147,0xFF,0x02
66.072759375000004,147,0xFF,0xEB
66.072850437499994,147,0xFF,0x97
66.072957187499995,147,0xFF,0xFF
66.073053937500006,147,0xFF,0xFF
66.073150687500004,147,0xFF,0xFF
66.073248375000006,147,0xFF,0xFF
66.073345125000003,147,0xFF,0xFF
66.073442499999999,147,0xFF,0xFF
66.073539937500001,147,0xFF,0xFF
66.073637312499997,147,0xFF,0xFF
66.073734750000000,147,0xFF,0xFF
66.073832124999996,147,0xFF,0xFF
66.073929500000006,147,0xFF,0xFF
66.074026937499994,147,0xFF,0xFF
66.074124312500004,147,0xFF,0xFF
66.074221687500000,147,0xFF,0xFF
66.074318125000005,147,0xFF,0xFF
66.074415500000001,147,0xFF,0xFF
66.074512937500003,147,0xFF,0xFF
66.074609312500002,147,0xFF,0xFF
66.074706687499997,147,0xFF,0xFF
66.074804125000000,147,0xFF,0xFF
66.074901499999996,147,0xFF,0xFF
66.074998875000006,147,0xFF,0xFF
66.075096312499994,147,0xFF,0xFF
66.075193687500004,147,0xFF,0xFF
66.075291125000007,147,0xFF,0xFF
66.075388500000003,147,0xFF,0xFF
66.075485874999998,147,0xFF,0xFF
66.075583312500001,147,0xFF,0xFF
66.075680375000005,147,0xFF,0xFF
66.075777750000000,147,0xFF,0xFF
66.075874187500006,147,0xFF,0xFF
66.075971249999995,147,0xFF,0xFF
66.077490937500002,148,0xFF,0x10
66.077582312499999,148,0xFF,0x06
66.077673375000003,148,0xFF,0x08
66.077765124999999,148,0xFF,0x00
66.077856187500004,148,0xFF,0x00
66.077947875000007,148,0xFF,0x0F
66.078038937499997,148,0xFF,0x3D
66.078130312499994,148,0xFF,0xAD
66.078237062499994,148,0xFF,0xFF
66.078333812500006,148,0xFF,0xFF
66.078430874999995,148,0xFF,0xFF
66.078528625000004,148,0xFF,0xFF
66.078625312499994,148,0xFF,0xFF
66.078722062500006,148,0xFF,0xFF
66.078836124999995,148,0xFF,0xFF
66.082846875000001,149,0xFF,0x0E
66.082938249999998,149,0xFF,0x0B
66.083029999999994,149,0xFF,0x02
66.083121062499998,149,0xFF,0x00
66.083212437499995,149,0xFF,0x00
66.083303812500006,149,0xFF,0x00
66.083395187500003,149,0xFF,0x00
66.083486937499998,149,0xFF,0x00
66.083578000000003,149,0xFF,0x00
66.083669374999999,149,0xFF,0x00
66.083760812500003,149,0xFF,0x00
66.083852500000006,149,0xFF,0x96
66.083943562499996,149,0xFF,0xBA
66.084050312499997,149,0xFF,0xFF
66.084147062499994,149,0xFF,0xFF
66.084243812500006,149,0xFF,0xFF
66.084341499999994,149,0xFF,0xFF
66.084438250000005,149,0xFF,0xFF
66.084536000000000,149,0xFF,0xFF
66.084650062500003,149,0xFF,0xFF
66.086787500000000,150,0xFF,0x05
66.086878874999996,150,0xFF,0x13
66.086970625000006,150,0xFF,0xD5
66.087062000000003,150,0xFF,0xC3
66.087153437500007,150,0xFF,0x10
66.087244812500003,150,0xFF,0xEE
66.087336187500000,150,0xFF,0x45
66.087427937499996,150,0xFF,0xF7
66.087519000000000,150,0xFF,0x23
66.087619375000003,150,0xFF,0x00
66.087710812500006,150,0xFF,0x09
66.087802499999995,150,0xFF,0x11
66.087893937499999,150,0xFF,0x06
66.087994312500001,150,0xFF,0x80
66.088085375000006,150,0xFF,0x04
66.088177125000001,150,0xFF,0x12
66.088268499999998,150,0xFF,0x00
66.088360249999994,150,0xFF,0xE0
66.088451312499998,150,0xFF,0x29
66.088551687500001,150,0xFF,0x5D
66.088643062499997,150,0xFF,0xC8
66.088749812499998,150,0xFF,0xFF
66.088846250000003,150,0xFF,0xFF
66.088942937499993,150,0xFF,0xFF
66.089040687500002,150,0xFF,0xFF
66.090140062499998,150,0xFF,0xFF
66.090236500000003,150,0xFF,0xFF
66.090350874999999,150,0xFF,0xFF
68.028513250000003,151,0xFF,0x07
68.028604937500006,151,0xFF,0x02
68.028696374999996,151,0xFF,0xDA
68.028796437500006,151,0xFF,0xA4
68.028903499999998,151,0xFF,0xFF
68.029000249999996,151,0xFF,0xFF
68.029097312499999,151,0xFF,0xFF
68.029195000000001,151,0xFF,0xFF
68.029291749999999,151,0xFF,0xFF
68.029389124999994,151,0xFF,0xFF
68.029486562499997,151,0xFF,0xFF
68.029583937500007,151,0xFF,0xFF
68.029681374999996,151,0xFF,0xFF
68.029787062500006,151,0xFF,0xFF
68.029884499999994,151,0xFF,0xFF
68.029981875000004,151,0xFF,0xFF
68.030079250000000,151,0xFF,0xFF
68.030176687500003,151,0xFF,0xFF
68.030273062500001,151,0xFF,0xFF
68.030369500000006,151,0xFF,0xFF
68.032830437499996,152,0xFF,0x10
68.032930875000005,152,0xFF,0x06
68.033022625000001,152,0xFF,0x00
68.033113624999999,152,0xFF,0x00
68.033205062500002,152,0xFF,0x09
68.033296750000005,152,0xFF,0x00
68.033387812499996,152,0xFF,0x89
68.033479249999999,152,0xFF,0x63
68.033586000000000,152,0xFF,0xFF
68.033682687500004,152,0xFF,0xFF
68.033797125000007,152,0xFF,0xFF
68.033894875000001,152,0xFF,0xFF
68.033991562500006,152,0xFF,0xFF
68.034088312500003,152,0xFF,0xFF
68.034202375000007,152,0xFF,0xFF
68.345910375000003,153,0xFF,0x05
68.346001749999999,153,0xFF,0x12
68.346093124999996,153,0xFF,0xD5
68.346184187500000,153,0xFF,0xC3
68.346275625000004,153,0xFF,0x10
68.346367000000001,153,0xFF,0xEE
68.346467062499997,153,0xFF,0x45
68.346558812500007,153,0xFF,0xF7
68.346649874999997,153,0xFF,0x23
68.346741249999994,153,0xFF,0x00
68.346841624999996,153,0xFF,0x0A
68.346932687500001,153,0xFF,0x11
68.347024437499996,153,0xFF,0x05
68.347115812499993,153,0xFF,0x01
68.347207562500003,153,0xFF,0x01
68.347298624999993,153,0xFF,0x38
68.347398999999996,153,0xFF,0x7F
68.347490062500000,153,0xFF,0xC6
68.347581812499996,153,0xFF,0x70
68.347672875000001,153,0xFF,0xE4
68.347779625000001,153,0xFF,0xFF
68.347876312500006,153,0xFF,0xFF
68.347973062500003,153,0xFF,0xFF
68.348070812499998,153,0xFF,0xFF
68.348176187500002,153,0xFF,0xFF
68.348272937499999,153,0xFF,0xFF
68.348387375000001,153,0xFF,0xFF
68.355889375000004,154,0xFF,0x07
68.355989437500000,154,0xFF,0x02
68.356080500000004,154,0xFF,0xDA
68.356171937499994,154,0xFF,0xA4
68.356278625000002,154,0xFF,0xFF
68.356375374999999,154,0xFF,0xFF
68.356472437500003,154,0xFF,0xFF
68.356570500000004,154,0xFF,0xFF
68.356667562499993,154,0xFF,0xFF
68.356764999999996,154,0xFF,0xFF
68.356862375000006,154,0xFF,0xFF
68.356959750000001,154,0xFF,0xFF
68.357057187500004,154,0xFF,0xFF
68.357154562500000,154,0xFF,0xFF
68.357251000000005,154,0xFF,0xFF
68.357348375000001,154,0xFF,0xFF
68.357444749999999,154,0xFF,0xFF
68.357542187500002,154,0xFF,0xFF
68.357638562500000,154,0xFF,0xFF
68.357735625000004,154,0xFF,0xFF
68.359194312499994,155,0xFF,0x10
68.359285687500005,155,0xFF,0x06
68.359377062500002,155,0xFF,0x00
68.359468125000006,155,0xFF,0x00
68.359559875000002,155,0xFF,0x0A
68.359651249999999,155,0xFF,0x00
68.359742624999996,155,0xFF,0xDA
68.359834062499999,155,0xFF,0x36
68.359940812500000,155,0xFF,0xFF
68.360037500000004,155,0xFF,0xFF
68.360134250000002,155,0xFF,0xFF
68.360258312499994,155,0xFF,0xFF
68.360355062500005,155,0xFF,0xFF
68.360451812500003,155,0xFF,0xFF
68.360565875000006,155,0xFF,0xFF
68.399431312499999,156,0xFF,0x07
68.399522687499996,156,0xFF,0x02
68.399623125000005,156,0xFF,0xDA
68.399714500000002,156,0xFF,0xA4
68.399821250000002,156,0xFF,0xFF
68.399918312500006,156,0xFF,0xFF
68.400015062500003,156,0xFF,0xFF
68.400112812499998,156,0xFF,0xFF
68.400209500000003,156,0xFF,0xFF
68.400306937500005,156,0xFF,0xFF
68.400403624999996,156,0xFF,0xFF
68.400501062499998,156,0xFF,0xFF
68.400598437499994,156,0xFF,0xFF
68.400695812500004,156,0xFF,0xFF
68.400792249999995,156,0xFF,0xFF
68.400889625000005,156,0xFF,0xFF
68.400986062499996,156,0xFF,0xFF
68.401083125000000,156,0xFF,0xFF
68.403568437499999,157,0xFF,0x10
68.403659812499995,157,0xFF,0x06
68.403751562500005,157,0xFF,0x08
68.403842624999996,157,0xFF,0x00
68.403934375000006,157,0xFF,0x00
68.404025750000002,157,0xFF,0x00
68.404117124999999,157,0xFF,0xD2
68.404208562500003,157,0xFF,0x5C
68.404315249999996,157,0xFF,0xFF
68.404411687500001,157,0xFF,0xFF
68.404508437499999,157,0xFF,0xFF
68.404606125000001,157,0xFF,0xFF
68.404702874999998,157,0xFF,0xFF
68.404799624999995,157,0xFF,0xFF
68.404913687499999,157,0xFF,0xFF
68.406377000000006,158,0xFF,0x06
68.406468375000003,158,0xFF,0x02
68.406559812500007,158,0xFF,0xEB
68.406650874999997,158,0xFF,0x97
68.406757937500004,158,0xFF,0xFF
68.406854624999994,158,0xFF,0xFF
68.406951375000006,158,0xFF,0xFF
68.407049125000000,158,0xFF,0xFF
68.407145874999998,158,0xFF,0xFF
68.407243249999993,158,0xFF,0xFF
68.407340625000003,158,0xFF,0xFF
68.407446062500000,158,0xFF,0xFF
68.407543437499996,158,0xFF,0xFF
68.407640874999998,158,0xFF,0xFF
68.407738249999994,158,0xFF,0xFF
68.407834625000007,158,0xFF,0xFF
68.407932062499995,158,0xFF,0xFF
68.408028437499993,158,0xFF,0xFF
68.408125812500003,158,0xFF,0xFF
68.408223250000006,158,0xFF,0xFF
68.408320625000002,158,0xFF,0xFF
68.408435062500004,158,0xFF,0xFF
68.408532437500000,158,0xFF,0xFF
68.408628875000005,158,0xFF,0xFF
68.408726250000001,158,0xFF,0xFF
68.408823624999997,158,0xFF,0xFF
68.408921062499999,158,0xFF,0xFF
68.409018125000003,158,0xFF,0xFF
68.409115499999999,158,0xFF,0xFF
68.409212937500001,158,0xFF,0xFF
68.409310312499997,158,0xFF,0xFF
68.409424375000000,158,0xFF,0xFF
68.409521812500003,158,0xFF,0xFF
68.409619187499999,158,0xFF,0xFF
68.409716562499995,158,0xFF,0xFF
68.409813999999997,158,0xFF,0xFF
68.409911374999993,158,0xFF,0xFF
68.410008125000004,158,0xFF,0xFF
68.410105500000000,158,0xFF,0xFF
68.410202937500003,158,0xFF,0xFF
68.410300312499999,158,0xFF,0xFF
68.410414375000002,158,0xFF,0xFF
68.410511749999998,158,0xFF,0xFF
68.410609187500000,158,0xFF,0xFF
68.410706562499996,158,0xFF,0xFF
68.410803999999999,158,0xFF,0xFF
68.410901374999995,158,0xFF,0xFF
68.410998437499998,158,0xFF,0xFF
68.411095812499994,158,0xFF,0xFF
68.411193249999997,158,0xFF,0xFF
68.411290625000007,158,0xFF,0xFF
68.411405062499995,158,0xFF,0xFF
68.411502437500005,158,0xFF,0xFF
68.411599874999993,158,0xFF,0xFF
68.411697250000003,158,0xFF,0xFF
68.411794624999999,158,0xFF,0xFF
68.411892062500002,158,0xFF,0xFF
68.411988750000006,158,0xFF,0xFF
68.412086187499995,158,0xFF,0xFF
68.413185562500004,158,0xFF,0xFF
68.413282624999994,158,0xFF,0xFF
68.413380062499996,158,0xFF,0xFF
68.413477437500006,158,0xFF,0xFF
68.413574812500002,158,0xFF,0xFF
68.413672250000005,158,0xFF,0xFF
68.413769625000000,158,0xFF,0xFF
68.413867062500003,158,0xFF,0xFF
68.413963437500001,158,0xFF,0xFF
68.414060812499997,158,0xFF,0xFF
68.414158250000000,158,0xFF,0xFF
68.414255624999996,158,0xFF,0xFF
68.414352687499999,158,0xFF,0xFF
68.414458124999996,158,0xFF,0xFF
68.414555500000006,158,0xFF,0xFF
68.414652875000002,158,0xFF,0xFF
68.414750312500004,158,0xFF,0xFF
68.414847687500000,158,0xFF,0xFF
68.414944750000004,158,0xFF,0xFF
68.415041500000001,158,0xFF,0xFF
68.415138874999997,158,0xFF,0xFF
68.415236312499999,158,0xFF,0xFF
68.415333687499995,158,0xFF,0xFF
68.415448124999998,158,0xFF,0xFF
68.415545499999993,158,0xFF,0xFF
68.415642875000003,158,0xFF,0xFF
68.415740312500006,158,0xFF,0xFF
68.415837687500002,158,0xFF,0xFF
68.415935125000004,158,0xFF,0xFF
68.416031500000003,158,0xFF,0xFF
68.416128874999998,158,0xFF,0xFF
68.416226312500001,158,0xFF,0xFF
68.416323687499997,158,0xFF,0xFF
68.416438124999999,158,0xFF,0xFF
68.416535499999995,158,0xFF,0xFF
68.416632875000005,158,0xFF,0xFF
68.416817374999994,158,0xFF,0xFF
68.416914750000004,158,0xFF,0xFF
68.417011812499993,158,0xFF,0xFF
68.417109249999996,158,0xFF,0xFF
68.417205624999994,158,0xFF,0xFF
68.417302375000006,158,0xFF,0xFF
68.419157937500003,159,0xFF,0x10
68.419249312500000,159,0xFF,0x06
68.419340375000004,159,0xFF,0x08
68.419432125000000,159,0xFF,0x00
68.419523499999997,159,0xFF,0x00
68.419623937500006,159,0xFF,0x10
68.419714999999997,159,0xFF,0xE3
68.419806374999993,159,0xFF,0x4E
68.419913124999994,159,0xFF,0xFF
68.420009812499998,159,0xFF,0xFF
68.420106875000002,159,0xFF,0xFF
68.420204624999997,159,0xFF,0xFF
68.420301374999994,159,0xFF,0xFF
68.420398125000006,159,0xFF,0xFF
68.420512187499995,159,0xFF,0xFF
68.425546249999996,160,0xFF,0x03
68.425637624999993,160,0xFF,0x1C
68.425729000000004,160,0xFF,0x01
68.425820437499993,160,0xFF,0x17
68.425911812500004,160,0xFF,0xFF
68.426003562500000,160,0xFF,0xFF
68.426094937499997,160,0xFF,0x00
68.426186312499993,160,0xFF,0x07
68.426277749999997,160,0xFF,0x00
68.426369124999994,160,0xFF,0x00
68.426495875000001,160,0xFF,0x00
68.426587624999996,160,0xFF,0x02
68.426678999999993,160,0xFF,0x23
68.426779062500003,160,0xFF,0x10
68.426870437500000,160,0xFF,0x11
68.426962187499996,160,0xFF,0x82
68.427053562500006,160,0xFF,0x06
68.427145312500002,160,0xFF,0xF7
68.427236687499999,160,0xFF,0x23
68.427327750000003,160,0xFF,0x00
68.427419499999999,160,0xFF,0xD5
68.427510874999996,160,0xFF,0xC3
68.427602625000006,160,0xFF,0x10
68.427693687499996,160,0xFF,0xEE
68.427794062499999,160,0xFF,0x45
68.427885500000002,160,0xFF,0xF7
68.427977187500005,160,0xFF,0x23
68.428068624999995,160,0xFF,0x00
68.428160312499998,160,0xFF,0x94
68.428251375000002,160,0xFF,0xE2
68.428358125000003,160,0xFF,0xFF
68.428454875000000,160,0xFF,0xFF
68.428551562500004,160,0xFF,0xFF
68.428649312499999,160,0xFF,0xFF
68.428746062499997,160,0xFF,0xFF
68.428842812499994,160,0xFF,0xFF
68.428956874999997,160,0xFF,0xFF
70.496579937500002,161,0xFF,0x07
70.496671312499998,161,0xFF,0x02
70.496762750000002,161,0xFF,0xDA
70.496853812500007,161,0xFF,0xA4
70.496960874999999,161,0xFF,0xFF
70.497057624999997,161,0xFF,0xFF
70.497154687500000,161,0xFF,0xFF
70.497252375000002,161,0xFF,0xFF
70.497349125000000,161,0xFF,0xFF
70.497446499999995,161,0xFF,0xFF
70.497543937499998,161,0xFF,0xFF
70.497641312499994,161,0xFF,0xFF
70.497738749999996,161,0xFF,0xFF
70.497836125000006,161,0xFF,0xFF
70.497933500000002,161,0xFF,0xFF
70.498029937499993,161,0xFF,0xFF
70.498126624999998,161,0xFF,0xFF
70.498223749999994,161,0xFF,0xFF
70.499695062499995,162,0xFF,0x10
70.499786437500006,162,0xFF,0x06
70.499877499999997,162,0xFF,0x01
70.499977874999999,162,0xFF,0x00
70.500069624999995,162,0xFF,0x00
70.500161000000006,162,0xFF,0x00
70.500252750000001,162,0xFF,0xA5
70.500343812500006,162,0xFF,0xAF
70.500450562500006,162,0xFF,0xFF
70.500547624999996,162,0xFF,0xFF
70.500644374999993,162,0xFF,0xFF
70.500742062499995,162,0xFF,0xFF
70.500839124999999,162,0xFF,0xFF
70.500935562500004,162,0xFF,0xFF
70.501049937499999,162,0xFF,0xFF
70.502616000000003,163,0xFF,0x08
70.502707375000000,163,0xFF,0x03
70.502798812500004,163,0xFF,0x00
70.502889874999994,163,0xFF,0x6E
70.502990249999996,163,0xFF,0x30
70.503096999999997,163,0xFF,0xFF
70.503193749999994,163,0xFF,0xFF
70.503290812499998,163,0xFF,0xFF
70.503388874999999,163,0xFF,0xFF
70.503485562500003,163,0xFF,0xFF
70.503583000000006,163,0xFF,0xFF
70.503679750000003,163,0xFF,0xFF
70.503777124999999,163,0xFF,0xFF
70.503874499999995,163,0xFF,0xFF
70.503971937499998,163,0xFF,0xFF
70.504069312499993,163,0xFF,0xFF
70.504166687500003,163,0xFF,0xFF
70.504264125000006,163,0xFF,0xFF
70.504361500000002,163,0xFF,0xFF
70.504458937500004,163,0xFF,0xFF
70.504556312500000,163,0xFF,0xFF
70.504653687499996,163,0xFF,0xFF
70.504751124999999,163,0xFF,0xFF
70.504848499999994,163,0xFF,0xFF
70.504945937499997,163,0xFF,0xFF
70.506044000000003,163,0xFF,0xFF
70.506141374999999,163,0xFF,0xFF
70.506238749999994,163,0xFF,0xFF
70.506336187499997,163,0xFF,0xFF
70.506433562500007,163,0xFF,0xFF
70.506530624999996,163,0xFF,0xFF
70.506628062499999,163,0xFF,0xFF
70.506725437499995,163,0xFF,0xFF
70.506822812500005,163,0xFF,0xFF
70.506920249999993,163,0xFF,0xFF
70.507017625000003,163,0xFF,0xFF
70.507114062499994,163,0xFF,0xFF
70.507211437500004,163,0xFF,0xFF
70.507308812500000,163,0xFF,0xFF
70.507406250000003,163,0xFF,0xFF
70.507520624999998,163,0xFF,0xFF
70.507618062500001,163,0xFF,0xFF
70.507715437499996,163,0xFF,0xFF
70.507812812500006,163,0xFF,0xFF
70.507910249999995,163,0xFF,0xFF
70.508007625000005,163,0xFF,0xFF
70.508104062499996,163,0xFF,0xFF
70.508201124999999,163,0xFF,0xFF
70.508298499999995,163,0xFF,0xFF
70.508395875000005,163,0xFF,0xFF
70.508492625000002,163,0xFF,0xFF
70.508589000000001,163,0xFF,0xFF
70.513300874999999,164,0xFF,0x05
70.513392249999995,164,0xFF,0x13
70.513492687500005,164,0xFF,0xD5
70.513601750000007,164,0xFF,0xC3
70.513692812499997,164,0xFF,0x10
70.513784500000000,164,0xFF,0xEE
70.513875562500004,164,0xFF,0x45
70.513967312500000,164,0xFF,0xF7
70.514058687499997,164,0xFF,0x23
70.514150437500007,164,0xFF,0x00
70.514241499999997,164,0xFF,0x0B
70.514333250000007,164,0xFF,0x11
70.514424312499997,164,0xFF,0x06
70.514533374999999,164,0xFF,0x80
70.514624749999996,164,0xFF,0x04
70.514716125000007,164,0xFF,0x12
70.514807562499996,164,0xFF,0x01
70.514898937500007,164,0xFF,0xF0
70.515990000000002,164,0xFF,0x08
70.516081749999998,164,0xFF,0x3A
70.516172812500002,164,0xFF,0x0E
70.516279874999995,164,0xFF,0xFF
70.516376625000007,164,0xFF,0xFF
70.516473312499997,164,0xFF,0xFF
70.516597437499996,164,0xFF,0xFF
70.516694125000001,164,0xFF,0xFF
70.516790874999998,164,0xFF,0xFF
70.516904937500001,164,0xFF,0xFF
70.523661187499997,165,0xFF,0x07
70.523752562499993,165,0xFF,0x02
70.523852625000004,165,0xFF,0xDA
70.523944000000000,165,0xFF,0xA4
70.524050750000001,165,0xFF,0xFF
70.524147812500004,165,0xFF,0xFF
70.524244874999994,165,0xFF,0xFF
70.524342625000003,165,0xFF,0xFF
70.524439375000000,165,0xFF,0xFF
70.524536749999996,165,0xFF,0xFF
70.524633499999993,165,0xFF,0xFF
70.524730875000003,165,0xFF,0xFF
70.524828249999999,165,0xFF,0xFF
70.524925687500001,165,0xFF,0xFF
70.526022749999996,165,0xFF,0xFF
70.526120125000006,165,0xFF,0xFF
70.526217562499994,165,0xFF,0xFF
70.526314937500004,165,0xFF,0xFF
70.526411374999995,165,0xFF,0xFF
70.526508437499999,165,0xFF,0xFF
70.527966062499999,166,0xFF,0x10
70.528057437499996,166,0xFF,0x06
70.528149187500006,166,0xFF,0x00
70.528249250000002,166,0xFF,0x00
70.528340312500006,166,0xFF,0x0B
70.528432062500002,166,0xFF,0x00
70.528523125000007,166,0xFF,0xEB
70.528614500000003,166,0xFF,0x05
70.528721250000004,166,0xFF,0xFF
70.528817937499994,166,0xFF,0xFF
70.528914687500006,166,0xFF,0xFF
70.529012437500000,166,0xFF,0xFF
70.529109187499998,166,0xFF,0xFF
70.529205875000002,166,0xFF,0xFF
70.529319999999998,166,0xFF,0xFF
70.838389812499997,167,0xFF,0x0E
70.838489874999993,167,0xFF,0x0B
70.838581250000004,167,0xFF,0x01
70.838672312499995,167,0xFF,0x00
70.838764062500005,167,0xFF,0x00
70.838855437500001,167,0xFF,0x00
70.838973499999994,167,0xFF,0x00
70.839064562499999,167,0xFF,0x00
70.839156000000003,167,0xFF,0x00
70.839247374999999,167,0xFF,0x00
70.839338749999996,167,0xFF,0x00
70.839430187500000,167,0xFF,0xD2
70.839521562499996,167,0xFF,0x97
70.839628312499997,167,0xFF,0xFF
70.839725062499994,167,0xFF,0xFF
70.839821749999999,167,0xFF,0xFF
70.839919499999993,167,0xFF,0xFF
70.840016250000005,167,0xFF,0xFF
70.840112937499995,167,0xFF,0xFF
70.840227062500006,167,0xFF,0xFF
70.841938499999998,168,0xFF,0x07
70.842029937500001,168,0xFF,0x02
70.842121312499998,168,0xFF,0xDA
70.842212375000003,168,0xFF,0xA4
70.842319437499995,168,0xFF,0xFF
70.842416187500007,168,0xFF,0xFF
70.842512937500004,168,0xFF,0xFF
70.842610625000006,168,0xFF,0xFF
70.842707375000003,168,0xFF,0xFF
70.842804749999999,168,0xFF,0xFF
70.842902187500002,168,0xFF,0xFF
70.842999562499998,168,0xFF,0xFF
70.843097000000000,168,0xFF,0xFF
70.843194374999996,168,0xFF,0xFF
70.843291750000006,168,0xFF,0xFF
70.843389187499994,168,0xFF,0xFF
70.843485562500007,168,0xFF,0xFF
70.843582624999996,168,0xFF,0xFF
70.844963562499998,169,0xFF,0x10
70.845054937499995,169,0xFF,0x06
70.845146687500005,169,0xFF,0xFF
70.845237749999995,169,0xFF,0x0F
70.845329500000005,169,0xFF,0x00
70.846417875000000,169,0xFF,0x00
70.846508937500005,169,0xFF,0x83
70.846600312500001,169,0xFF,0xBE
70.846707062500002,169,0xFF,0xFF
70.846803812499999,169,0xFF,0xFF
70.846900500000004,169,0xFF,0xFF
70.846998249999999,169,0xFF,0xFF
70.847094999999996,169,0xFF,0xFF
70.847191749999993,169,0xFF,0xFF
70.847305812499997,169,0xFF,0xFF
70.848667375000005,170,0xFF,0x0E
70.848758750000002,170,0xFF,0x0B
70.848850187500005,170,0xFF,0x01
70.848941562500002,170,0xFF,0x00
70.849032625000007,170,0xFF,0x00
70.849124000000003,170,0xFF,0x00
70.849215749999999,170,0xFF,0x00
70.849307124999996,170,0xFF,0x00
70.849398875000006,170,0xFF,0x00
70.849489937499996,170,0xFF,0x00
70.849581687500006,170,0xFF,0x00
70.849672749999996,170,0xFF,0xD2
70.849764124999993,170,0xFF,0x97
70.849870874999993,170,0xFF,0xFF
70.849967562499998,170,0xFF,0xFF
70.850064312499995,170,0xFF,0xFF
70.850162374999996,170,0xFF,0xFF
70.850259124999994,170,0xFF,0xFF
70.850355875000005,170,0xFF,0xFF
70.850469937499994,170,0xFF,0xFF
84.015226937500003,171,0xFF,0x07
84.015274437499997,171,0xFF,0x02
84.015322499999996,171,0xFF,0xDA
84.015370000000004,171,0xFF,0xA4
84.015426062499998,171,0xFF,0xFF
84.015470062500000,171,0xFF,0xFF
84.015514624999994,171,0xFF,0xFF
84.015559624999995,171,0xFF,0xFF
84.015604187500003,171,0xFF,0xFF
84.015648187500005,171,0xFF,0xFF
84.015692749999999,171,0xFF,0xFF
84.015737250000001,171,0xFF,0xFF
84.015781812499995,171,0xFF,0xFF
84.015826312499996,171,0xFF,0xFF
84.015870875000005,171,0xFF,0xFF
84.015915375000006,171,0xFF,0xFF
84.015959937500000,171,0xFF,0xFF
84.016009437500003,171,0xFF,0xFF
84.017065125000002,172,0xFF,0x10
84.017112687500003,172,0xFF,0x06
84.017160687499995,172,0xFF,0xFF
84.017208749999995,172,0xFF,0x0F
84.017256250000003,172,0xFF,0x00
84.017304312500002,172,0xFF,0x00
84.017351875000003,172,0xFF,0x83
84.017399874999995,172,0xFF,0xBE
84.017455437500004,172,0xFF,0xFF
84.017499937500006,172,0xFF,0xFF
84.017544500000000,172,0xFF,0xFF
84.017589000000001,172,0xFF,0xFF
84.017633562499995,172,0xFF,0xFF
84.017764124999999,172,0xFF,0xFF
84.017830187499996,172,0xFF,0xFF
84.020042125000003,173,0xFF,0x09
84.020089687500004,173,0xFF,0x02
84.020137687499997,173,0xFF,0xD5
84.020185749999996,173,0xFF,0x87
84.020241249999998,173,0xFF,0xFF
84.020285312499993,173,0xFF,0xFF
84.020329812499995,173,0xFF,0xFF
84.020374875000002,173,0xFF,0xFF
84.020419375000003,173,0xFF,0xFF
84.020463937499997,173,0xFF,0xFF
84.020507937500000,173,0xFF,0xFF
84.020552499999994,173,0xFF,0xFF
84.020596999999995,173,0xFF,0xFF
84.020641562500003,173,0xFF,0xFF
84.020686062500005,173,0xFF,0xFF
84.020730562500006,173,0xFF,0xFF
84.020775125000000,173,0xFF,0xFF
84.020819125000003,173,0xFF,0xFF
84.020863687499997,173,0xFF,0xFF
84.020908187499998,173,0xFF,0xFF
84.020952750000006,173,0xFF,0xFF
84.020997249999994,173,0xFF,0xFF
84.021046812500003,173,0xFF,0xFF
103.336807687499999,174,0xFF,0x0C
103.336855687500005,174,0xFF,0x13
103.336903750000005,174,0xFF,0x01
103.336951249999998,174,0xFF,0x00
103.336999312499998,174,0xFF,0x00
103.337047374999997,174,0xFF,0x00
103.337191937499995,174,0xFF,0x00
103.337239499999995,174,0xFF,0x00
103.337287500000002,174,0xFF,0x00
103.337335562500002,174,0xFF,0x00
103.337383062499995,174,0xFF,0x00
103.337431124999995,174,0xFF,0x00
103.337478625000003,174,0xFF,0x00
103.337526687500002,174,0xFF,0x00
103.337574687499995,174,0xFF,0x00
103.337622249999995,174,0xFF,0x00
103.337670250000002,174,0xFF,0x00
103.337718312500002,174,0xFF,0x00
103.337765812499995,174,0xFF,0x00
103.337813874999995,174,0xFF,0x2F
103.337861375000003,174,0xFF,0x89
103.337917437499996,174,0xFF,0xFF
103.337961437499999,174,0xFF,0xFF
103.338005999999993,174,0xFF,0xFF
103.338055999999995,174,0xFF,0xFF
103.338100562500003,174,0xFF,0xFF
103.338145062500004,174,0xFF,0xFF
103.338211125000001,174,0xFF,0xFF
103.339601562499993,175,0xFF,0x08
103.339649562500000,175,0xFF,0x03
103.339697624999999,175,0xFF,0x00
103.339745124999993,175,0xFF,0x6E
103.339793187500007,175,0xFF,0x30
103.339848687499995,175,0xFF,0xFF
103.339893250000003,175,0xFF,0xFF
103.339937250000006,175,0xFF,0xFF
103.339982312499998,175,0xFF,0xFF
103.340026812500000,175,0xFF,0xFF
103.340071312500001,175,0xFF,0xFF
103.340115374999996,175,0xFF,0xFF
103.340159874999998,175,0xFF,0xFF
103.340204437500006,175,0xFF,0xFF
103.340248937499993,175,0xFF,0xFF
103.340293500000001,175,0xFF,0xFF
103.340338000000003,175,0xFF,0xFF
103.340382562499997,175,0xFF,0xFF
103.340427062499998,175,0xFF,0xFF
103.340476624999994,175,0xFF,0xFF
103.340521124999995,175,0xFF,0xFF
103.340565687500003,175,0xFF,0xFF
103.340610187500005,175,0xFF,0xFF
103.340654749999999,175,0xFF,0xFF
103.340699250000000,175,0xFF,0xFF
103.340743812499994,175,0xFF,0xFF
103.340788312499996,175,0xFF,0xFF
103.340832875000004,175,0xFF,0xFF
103.340876875000006,175,0xFF,0xFF
103.340921374999994,175,0xFF,0xFF
103.340965937500002,175,0xFF,0xFF
103.341010437500003,175,0xFF,0xFF
103.341054999999997,175,0xFF,0xFF
103.341099499999999,175,0xFF,0xFF
103.341144062500007,175,0xFF,0xFF
103.341188562499994,175,0xFF,0xFF
103.341238125000004,175,0xFF,0xFF
103.341282625000005,175,0xFF,0xFF
103.341327187499999,175,0xFF,0xFF
103.341371687500001,175,0xFF,0xFF
103.341421749999995,175,0xFF,0xFF
103.341466249999996,175,0xFF,0xFF
103.341510312500006,175,0xFF,0xFF
103.341554812499993,175,0xFF,0xFF
103.341599375000001,175,0xFF,0xFF
103.341643875000003,175,0xFF,0xFF
103.341688437499997,175,0xFF,0xFF
103.341732937499998,175,0xFF,0xFF
103.341777500000006,175,0xFF,0xFF
103.341821999999993,175,0xFF,0xFF
103.341866499999995,175,0xFF,0xFF
103.341916062500005,175,0xFF,0xFF
103.357897625000007,176,0xFF,0x03
103.357945187499993,176,0xFF,0x1C
103.357993187500000,176,0xFF,0x01
103.358041249999999,176,0xFF,0x17
103.358088749999993,176,0xFF,0x00
103.358136812500007,176,0xFF,0x00
103.358184312500001,176,0xFF,0x00
103.358232375000000,176,0xFF,0x07
103.358280375000007,176,0xFF,0x07
103.358327937499993,176,0xFF,0x00
103.358375937500000,176,0xFF,0x00
103.358423500000001,176,0xFF,0x02
103.358471499999993,176,0xFF,0x23
103.358519562500007,176,0xFF,0x10
103.358567062500001,176,0xFF,0x11
103.358615125000000,176,0xFF,0x82
103.358662624999994,176,0xFF,0x06
103.359078937500001,176,0xFF,0xF7
103.359126937499994,176,0xFF,0x23
103.359174499999995,176,0xFF,0x00
103.359222500000001,176,0xFF,0xD5
103.359270062500002,176,0xFF,0xC3
103.359318062499995,176,0xFF,0x10
103.359366124999994,176,0xFF,0xEE
103.359413625000002,176,0xFF,0x45
103.359461687500001,176,0xFF,0xF7
103.359509187499995,176,0xFF,0x23
103.359557249999995,176,0xFF,0x00
103.359604750000003,176,0xFF,0x07
103.359652812500002,176,0xFF,0x85
103.359708312500004,176,0xFF,0xFF
103.359752874999998,176,0xFF,0xFF
103.359797374999999,176,0xFF,0xFF
103.359841937499993,176,0xFF,0xFF
103.359886437499995,176,0xFF,0xFF
103.359931000000003,176,0xFF,0xFF
103.359997000000007,176,0xFF,0xFF
105.398260562499999,177,0xFF,0x07
105.398308562500006,177,0xFF,0x02
105.398356125000007,177,0xFF,0xDA
105.398436187499996,177,0xFF,0xA4
105.398492187499997,177,0xFF,0xFF
105.398536250000006,177,0xFF,0xFF
105.398580749999994,177,0xFF,0xFF
105.398625812500001,177,0xFF,0xFF
105.398670312500002,177,0xFF,0xFF
105.398714374999997,177,0xFF,0xFF
105.398758874999999,177,0xFF,0xFF
105.398803437500007,177,0xFF,0xFF
105.398853437499994,177,0xFF,0xFF
105.398898000000003,177,0xFF,0xFF
105.398942000000005,177,0xFF,0xFF
105.398986500000007,177,0xFF,0xFF
105.399031062500001,177,0xFF,0xFF
105.399086124999997,177,0xFF,0xFF
105.400172312500004,178,0xFF,0x10
105.400219875000005,178,0xFF,0x06
105.400267874999997,178,0xFF,0x01
105.400315937499997,178,0xFF,0x00
105.400395937499994,178,0xFF,0x00
105.400443499999994,178,0xFF,0x00
105.400491500000001,178,0xFF,0xA5
105.400539562500001,178,0xFF,0xAF
105.400595062500003,178,0xFF,0xFF
105.400639624999997,178,0xFF,0xFF
105.400990375000006,178,0xFF,0xFF
105.401035375000006,178,0xFF,0xFF
105.401079937500000,178,0xFF,0xFF
105.401129437500003,178,0xFF,0xFF
105.401195500000000,178,0xFF,0xFF
105.402589937499997,179,0xFF,0x08
105.402637437500005,179,0xFF,0x03
105.402685500000004,179,0xFF,0x00
105.402733499999997,179,0xFF,0x6E
105.402781062499997,179,0xFF,0x30
105.402837062499998,179,0xFF,0xFF
105.402881124999993,179,0xFF,0xFF
105.402925624999995,179,0xFF,0xFF
105.402970687500002,179,0xFF,0xFF
105.403015187500003,179,0xFF,0xFF
105.403059249999998,179,0xFF,0xFF
105.403103750000000,179,0xFF,0xFF
105.403148250000001,179,0xFF,0xFF
105.403192812499995,179,0xFF,0xFF
105.403237312499996,179,0xFF,0xFF
105.403281875000005,179,0xFF,0xFF
105.403326375000006,179,0xFF,0xFF
105.403402937500005,179,0xFF,0xFF
105.403447499999999,179,0xFF,0xFF
105.403492000000000,179,0xFF,0xFF
105.403536562499994,179,0xFF,0xFF
105.403581062499995,179,0xFF,0xFF
105.403625625000004,179,0xFF,0xFF
105.403670125000005,179,0xFF,0xFF
105.403720187499999,179,0xFF,0xFF
105.403764187500002,179,0xFF,0xFF
105.403808687500003,179,0xFF,0xFF
105.403853249999997,179,0xFF,0xFF
105.403897749999999,179,0xFF,0xFF
105.403947812499993,179,0xFF,0xFF
105.403992312499994,179,0xFF,0xFF
105.404036375000004,179,0xFF,0xFF
105.404080875000005,179,0xFF,0xFF
105.404125437499999,179,0xFF,0xFF
105.404175437500001,179,0xFF,0xFF
105.404219999999995,179,0xFF,0xFF
105.404264499999996,179,0xFF,0xFF
105.404309062500005,179,0xFF,0xFF
105.404353562500006,179,0xFF,0xFF
105.404398125000000,179,0xFF,0xFF
105.404458625000004,179,0xFF,0xFF
105.404502687499999,179,0xFF,0xFF
105.404547187500000,179,0xFF,0xFF
105.404591749999994,179,0xFF,0xFF
105.404636249999996,179,0xFF,0xFF
105.404680812500004,179,0xFF,0xFF
105.404725312500005,179,0xFF,0xFF
105.404775375000000,179,0xFF,0xFF
105.404819375000002,179,0xFF,0xFF
105.404863937499996,179,0xFF,0xFF
105.404913937499998,179,0xFF,0xFF
105.404963499999994,179,0xFF,0xFF
105.406725124999994,180,0xFF,0x14
105.406773187499994,180,0xFF,0x1A
105.406826187500002,180,0xFF,0xD5
105.406874250000001,180,0xFF,0xC3
105.406927249999995,180,0xFF,0x10
105.406975312499995,180,0xFF,0xEE
105.407028374999996,180,0xFF,0x45
105.407076375000003,180,0xFF,0xF7
105.407123937500003,180,0xFF,0x23
105.407171937499996,180,0xFF,0x00
105.407219499999997,180,0xFF,0x13
105.407267500000003,180,0xFF,0x55
105.407315562500003,180,0xFF,0xBB
105.407363062499996,180,0xFF,0x96
105.407411124999996,180,0xFF,0x53
105.407491125000007,180,0xFF,0xF9
105.407538687499994,180,0xFF,0x58
105.407586687500000,180,0xFF,0xE3
105.407634250000001,180,0xFF,0x2A
105.407687812500001,180,0xFF,0x60
105.407735312499995,180,0xFF,0x74
105.407788874999994,180,0xFF,0xE8
105.407836375000002,180,0xFF,0x2B
105.407889437500003,180,0xFF,0x19
105.407937437499996,180,0xFF,0x93
105.407985499999995,180,0xFF,0x78
105.408033000000003,180,0xFF,0x37
105.408081062500003,180,0xFF,0xFA
105.408136562500005,180,0xFF,0xFF
105.408181124999999,180,0xFF,0xFF
105.408225125000001,180,0xFF,0xFF
105.408270187499994,180,0xFF,0xFF
105.408319687499997,180,0xFF,0xFF
105.408364250000005,180,0xFF,0xFF
105.408430249999995,180,0xFF,0xFF
105.509879374999997,181,0xFF,0x05
105.509927437499996,181,0xFF,0x14
105.509980437500005,181,0xFF,0xD5
105.510028500000004,181,0xFF,0xC3
105.510081499999998,181,0xFF,0x10
105.510129562499998,181,0xFF,0xEE
105.510177562500004,181,0xFF,0x45
105.510225125000005,181,0xFF,0xF7
105.510273124999998,181,0xFF,0x23
105.510320687499998,181,0xFF,0x00
105.510368687500005,181,0xFF,0x02
105.510416250000006,181,0xFF,0x11
105.510464249999998,181,0xFF,0x07
105.510517312499999,181,0xFF,0xA3
105.510565374999999,181,0xFF,0x4C
105.510618375000007,181,0xFF,0x46
105.510666437500007,181,0xFF,0x75
105.510719437500001,181,0xFF,0xFE
105.510767500000000,181,0xFF,0x5A
105.510814999999994,181,0xFF,0x92
105.510879062499995,181,0xFF,0xBD
105.510927062500002,181,0xFF,0x96
105.510982624999997,181,0xFF,0xFF
105.511027124999998,181,0xFF,0xFF
105.511071687500007,181,0xFF,0xFF
105.511116187499994,181,0xFF,0xFF
105.511166250000002,181,0xFF,0xFF
105.511210750000004,181,0xFF,0xFF
105.511276312500001,181,0xFF,0xFF
107.361012375000001,182,0xFF,0x07
107.361060437500001,182,0xFF,0x02
107.361108437499993,182,0xFF,0xDA
107.361155999999994,182,0xFF,0xA4
107.361211562500003,182,0xFF,0xFF
107.361256062500004,182,0xFF,0xFF
107.361300624999998,182,0xFF,0xFF
107.361345125000000,182,0xFF,0xFF
107.361389625000001,182,0xFF,0xFF
107.361434187499995,182,0xFF,0xFF
107.361478687499996,182,0xFF,0xFF
107.361523250000005,182,0xFF,0xFF
107.361567750000006,182,0xFF,0xFF
107.361612312500000,182,0xFF,0xFF
107.361656812500001,182,0xFF,0xFF
107.361700874999997,182,0xFF,0xFF
107.361745374999998,182,0xFF,0xFF
107.361795437500007,182,0xFF,0xFF
107.361839937499994,182,0xFF,0xFF
107.361889500000004,182,0xFF,0xFF
107.362968687500000,183,0xFF,0x10
107.363016750000000,183,0xFF,0x06
107.363064249999994,183,0xFF,0x00
107.363112312499993,183,0xFF,0x00
107.363160312500000,183,0xFF,0x02
107.363207875000001,183,0xFF,0x00
107.363255874999993,183,0xFF,0x73
107.363303437499994,183,0xFF,0xBF
107.363359437499994,183,0xFF,0xFF
107.363403500000004,183,0xFF,0xFF
107.363448000000005,183,0xFF,0xFF
107.363493062499998,183,0xFF,0xFF
107.363537062500001,183,0xFF,0xFF
107.363581624999995,183,0xFF,0xFF
107.363647624999999,183,0xFF,0xFF
107.369545062499995,184,0xFF,0x05
107.369592562500003,184,0xFF,0x13
107.369640625000002,184,0xFF,0xD5
107.369693624999996,184,0xFF,0xC3
107.369741687499996,184,0xFF,0x10
107.369789687500003,184,0xFF,0xEE
107.369837250000003,184,0xFF,0x45
107.369885249999996,184,0xFF,0xF7
107.369954312499999,184,0xFF,0x23
107.370002374999999,184,0xFF,0x00
107.370049875000007,184,0xFF,0x03
107.370097937500006,184,0xFF,0x11
107.370145937499998,184,0xFF,0x06
107.370193499999999,184,0xFF,0xA3
107.370247000000006,184,0xFF,0xCD
107.370294562500007,184,0xFF,0x46
107.370342562499999,184,0xFF,0x64
107.370390125000000,184,0xFF,0xF9
107.370438125000007,184,0xFF,0xB1
107.370485687499993,184,0xFF,0xD2
107.370533687500000,184,0xFF,0x04
107.370589249999995,184,0xFF,0xFF
107.370633749999996,184,0xFF,0xFF
107.370678312500004,184,0xFF,0xFF
107.370722812500006,184,0xFF,0xFF
107.370767375000000,184,0xFF,0xFF
107.370811875000001,184,0xFF,0xFF
107.370877937499998,184,0xFF,0xFF
107.378700624999993,185,0xFF,0x07
107.378748125000001,185,0xFF,0x02
107.378796187500001,185,0xFF,0xDA
107.378843687499995,185,0xFF,0xA4
107.378899750000002,185,0xFF,0xFF
107.378976249999994,185,0xFF,0xFF
107.379020812500002,185,0xFF,0xFF
107.379065812500002,185,0xFF,0xFF
107.379109874999997,185,0xFF,0xFF
107.379154374999999,185,0xFF,0xFF
107.379198937500007,185,0xFF,0xFF
107.379243437499994,185,0xFF,0xFF
107.379288000000003,185,0xFF,0xFF
107.379332500000004,185,0xFF,0xFF
107.379377062499998,185,0xFF,0xFF
107.379421562499999,185,0xFF,0xFF
107.379466124999993,185,0xFF,0xFF
107.379515624999996,185,0xFF,0xFF
107.379560187500005,185,0xFF,0xFF
107.379610187500006,185,0xFF,0xFF
107.380689437499996,186,0xFF,0x10
107.380737437500002,186,0xFF,0x06
107.380785000000003,186,0xFF,0x00
107.380832999999996,186,0xFF,0x00
107.380881062499995,186,0xFF,0x03
107.380928562500003,186,0xFF,0x00
107.380976625000002,186,0xFF,0x42
107.381035124999997,186,0xFF,0x8C
107.381090687500006,186,0xFF,0xFF
107.381135187500007,186,0xFF,0xFF
107.381179750000001,186,0xFF,0xFF
107.381224250000002,186,0xFF,0xFF
107.381268812499997,186,0xFF,0xFF
107.381313312499998,186,0xFF,0xFF
107.381379374999995,186,0xFF,0xFF
107.443299812500001,187,0xFF,0x07
107.443347375000002,187,0xFF,0x02
107.443395374999994,187,0xFF,0xDA
107.443448437499995,187,0xFF,0xA4
107.443504437499996,187,0xFF,0xFF
107.443548500000006,187,0xFF,0xFF
107.443593000000007,187,0xFF,0xFF
107.443638062500000,187,0xFF,0xFF
107.443682562500001,187,0xFF,0xFF
107.443726624999996,187,0xFF,0xFF
107.443771124999998,187,0xFF,0xFF
107.443815624999999,187,0xFF,0xFF
107.443860187499993,187,0xFF,0xFF
107.443904687499995,187,0xFF,0xFF
107.443949250000003,187,0xFF,0xFF
107.443999250000005,187,0xFF,0xFF
107.444043812499999,187,0xFF,0xFF
107.444093312500002,187,0xFF,0xFF
107.445557312500000,188,0xFF,0x10
107.445605312500007,188,0xFF,0x06
107.445652874999993,188,0xFF,0x08
107.445706375000000,188,0xFF,0x00
107.445753937500001,188,0xFF,0x00
107.445801937499994,188,0xFF,0x00
107.445849499999994,188,0xFF,0xD2
107.445897562499994,188,0xFF,0x5C
107.445953062499996,188,0xFF,0xFF
107.445997625000004,188,0xFF,0xFF
107.446042125000005,188,0xFF,0xFF
107.446086625000007,188,0xFF,0xFF
107.446136687500001,188,0xFF,0xFF
107.446181187500002,188,0xFF,0xFF
107.446246750000000,188,0xFF,0xFF
107.447264437499996,189,0xFF,0x06
107.447312437500003,189,0xFF,0x02
107.447360000000003,189,0xFF,0xEB
107.447407999999996,189,0xFF,0x97
107.447463562500005,189,0xFF,0xFF
107.447508124999999,189,0xFF,0xFF
107.447552625000000,189,0xFF,0xFF
107.447597125000001,189,0xFF,0xFF
107.447641687499996,189,0xFF,0xFF
107.447686187499997,189,0xFF,0xFF
107.447730750000005,189,0xFF,0xFF
107.447775250000007,189,0xFF,0xFF
107.447824812500002,189,0xFF,0xFF
107.447869312500004,189,0xFF,0xFF
107.447913874999998,189,0xFF,0xFF
107.447958374999999,189,0xFF,0xFF
107.448002937499993,189,0xFF,0xFF
107.448052937499995,189,0xFF,0xFF
107.448097500000003,189,0xFF,0xFF
107.448141500000006,189,0xFF,0xFF
107.448186062500000,189,0xFF,0xFF
107.448230562500001,189,0xFF,0xFF
107.448307124999999,189,0xFF,0xFF
107.448351625000001,189,0xFF,0xFF
107.448396187499995,189,0xFF,0xFF
107.448440687499996,189,0xFF,0xFF
107.448485250000004,189,0xFF,0xFF
107.448529750000006,189,0xFF,0xFF
107.448574312500000,189,0xFF,0xFF
107.448624312500002,189,0xFF,0xFF
107.448668374999997,189,0xFF,0xFF
107.448712874999998,189,0xFF,0xFF
107.448757437500007,189,0xFF,0xFF
107.448801937499994,189,0xFF,0xFF
107.448852000000002,189,0xFF,0xFF
107.448896500000004,189,0xFF,0xFF
107.448940562499999,189,0xFF,0xFF
107.448985062500000,189,0xFF,0xFF
107.449029624999994,189,0xFF,0xFF
107.449079624999996,189,0xFF,0xFF
107.449124187500004,189,0xFF,0xFF
107.449168187500007,189,0xFF,0xFF
107.449212750000001,189,0xFF,0xFF
107.449257250000002,189,0xFF,0xFF
107.449307312499997,189,0xFF,0xFF
107.450380999999993,190,0xFF,0x10
107.450429000000000,190,0xFF,0x06
107.450477062499999,190,0xFF,0x08
107.450524562499993,190,0xFF,0x00
107.450572625000007,190,0xFF,0x00
107.450620624999999,190,0xFF,0x11
107.450668187500000,190,0xFF,0xC2
107.450716187500007,190,0xFF,0x5E
107.450771750000001,190,0xFF,0xFF
107.450816312499995,190,0xFF,0xFF
107.450860812499997,190,0xFF,0xFF
107.450905312499998,190,0xFF,0xFF
107.450949875000006,190,0xFF,0xFF
107.450994374999993,190,0xFF,0xFF
107.451059937500006,190,0xFF,0xFF
107.458578937499993,191,0xFF,0x05
107.458626437500001,191,0xFF,0x13
107.458674500000001,191,0xFF,0xD5
107.458722499999993,191,0xFF,0xC3
107.458770062499994,191,0xFF,0x10
107.458818062500001,191,0xFF,0xEE
107.458871125000002,191,0xFF,0x45
107.458919124999994,191,0xFF,0xF7
107.458972187499995,191,0xFF,0x23
107.459020187500002,191,0xFF,0x00
107.459073250000003,191,0xFF,0x04
107.459121249999995,191,0xFF,0x11
107.459168812499996,191,0xFF,0x06
107.459216812500003,191,0xFF,0xA3
107.459264375000004,191,0xFF,0xCE
107.459333937500006,191,0xFF,0x43
107.459381937499998,191,0xFF,0x75
107.459429499999999,191,0xFF,0x5D
107.459477500000006,191,0xFF,0x04
107.459525062500006,191,0xFF,0x79
107.459573062499999,191,0xFF,0xB5
107.459628624999993,191,0xFF,0xFF
107.459673124999995,191,0xFF,0xFF
107.459717687500003,191,0xFF,0xFF
107.459762187500004,191,0xFF,0xFF
107.459806749999998,191,0xFF,0xFF
107.459851250000000,191,0xFF,0xFF
107.459917312499996,191,0xFF,0xFF
107.466730312500005,192,0xFF,0x07
107.466778312499997,192,0xFF,0x02
107.466826374999997,192,0xFF,0xDA
107.466873875000005,192,0xFF,0xA4
107.466929937499998,192,0xFF,0xFF
107.466973937500001,192,0xFF,0xFF
107.467018499999995,192,0xFF,0xFF
107.467063499999995,192,0xFF,0xFF
107.467107562500004,192,0xFF,0xFF
107.467152062500006,192,0xFF,0xFF
107.467196625000000,192,0xFF,0xFF
107.467241125000001,192,0xFF,0xFF
107.467285687499995,192,0xFF,0xFF
107.467351687499999,192,0xFF,0xFF
107.467396249999993,192,0xFF,0xFF
107.467440749999994,192,0xFF,0xFF
107.467485312500003,192,0xFF,0xFF
107.467529812500004,192,0xFF,0xFF
107.467574374999998,192,0xFF,0xFF
107.467623875000001,192,0xFF,0xFF
107.468703125000005,193,0xFF,0x10
107.468751124999997,193,0xFF,0x06
107.468798687499998,193,0xFF,0x00
107.468846687500005,193,0xFF,0x00
107.468894250000005,193,0xFF,0x04
107.468942249999998,193,0xFF,0x00
107.468990312499997,193,0xFF,0xD5
107.469037812500005,193,0xFF,0x15
107.469093375000000,193,0xFF,0xFF
107.469137875000001,193,0xFF,0xFF
107.469182437499995,193,0xFF,0xFF
107.469226937499997,193,0xFF,0xFF
107.469271500000005,193,0xFF,0xFF
107.469316000000006,193,0xFF,0xFF
107.469409062500006,193,0xFF,0xFF
107.539182187500003,194,0xFF,0x07
107.539229750000004,194,0xFF,0x02
107.539277749999997,194,0xFF,0xDA
107.539330812499998,194,0xFF,0xA4
107.539386812499998,194,0xFF,0xFF
107.539430874999994,194,0xFF,0xFF
107.539475374999995,194,0xFF,0xFF
107.539520437500002,194,0xFF,0xFF
107.539564937500003,194,0xFF,0xFF
107.539609499999997,194,0xFF,0xFF
107.539686062499996,194,0xFF,0xFF
107.539730562499997,194,0xFF,0xFF
107.539775125000006,194,0xFF,0xFF
107.539819625000007,194,0xFF,0xFF
107.539864187500001,194,0xFF,0xFF
107.539908187500004,194,0xFF,0xFF
107.539952687500005,194,0xFF,0xFF
107.540002749999999,194,0xFF,0xFF
107.541093000000004,195,0xFF,0x10
107.541140999999996,195,0xFF,0x06
107.541188562499997,195,0xFF,0x08
107.541236562500004,195,0xFF,0x00
107.541284625000003,195,0xFF,0x00
107.541332124999997,195,0xFF,0x00
107.541380187499996,195,0xFF,0xD2
107.541427687500004,195,0xFF,0x5C
107.541483749999998,195,0xFF,0xFF
107.541527750000000,195,0xFF,0xFF
107.541572312499994,195,0xFF,0xFF
107.541617312499994,195,0xFF,0xFF
107.541661875000003,195,0xFF,0xFF
107.541722375000006,195,0xFF,0xFF
107.541787937500004,195,0xFF,0xFF
107.542805625000000,196,0xFF,0x06
107.542853625000006,196,0xFF,0x02
107.542901187499993,196,0xFF,0xEB
107.542949187500000,196,0xFF,0x97
107.543004749999994,196,0xFF,0xFF
107.543049249999996,196,0xFF,0xFF
107.543093812500004,196,0xFF,0xFF
107.543138312500005,196,0xFF,0xFF
107.543182874999999,196,0xFF,0xFF
107.543232875000001,196,0xFF,0xFF
107.543276937499996,196,0xFF,0xFF
107.543321437499998,196,0xFF,0xFF
107.543366000000006,196,0xFF,0xFF
107.543410499999993,196,0xFF,0xFF
107.543460562500002,196,0xFF,0xFF
107.543504562500004,196,0xFF,0xFF
107.543549062500006,196,0xFF,0xFF
107.543593625000000,196,0xFF,0xFF
107.543638125000001,196,0xFF,0xFF
107.543682687499995,196,0xFF,0xFF
107.543743250000006,196,0xFF,0xFF
107.543787750000007,196,0xFF,0xFF
107.543832249999994,196,0xFF,0xFF
107.543876812500002,196,0xFF,0xFF
107.543921312500004,196,0xFF,0xFF
107.543965374999999,196,0xFF,0xFF
107.544009875000000,196,0xFF,0xFF
107.544059937499995,196,0xFF,0xFF
107.544104437499996,196,0xFF,0xFF
107.544149000000004,196,0xFF,0xFF
107.544193500000006,196,0xFF,0xFF
107.544238062500000,196,0xFF,0xFF
107.544650812499995,196,0xFF,0xFF
107.544695375000003,196,0xFF,0xFF
107.544739375000006,196,0xFF,0xFF
107.544783937500000,196,0xFF,0xFF
107.544828437500001,196,0xFF,0xFF
107.544878499999996,196,0xFF,0xFF
107.544922499999998,196,0xFF,0xFF
107.544967000000000,196,0xFF,0xFF
107.545011562499994,196,0xFF,0xFF
107.545056062499995,196,0xFF,0xFF
107.545106125000004,196,0xFF,0xFF
107.545150625000005,196,0xFF,0xFF
107.545194687500000,196,0xFF,0xFF
107.545239187500002,196,0xFF,0xFF
107.545283749999996,196,0xFF,0xFF
107.545333749999998,196,0xFF,0xFF
107.545378312500006,196,0xFF,0xFF
107.545422312499994,196,0xFF,0xFF
107.545466875000002,196,0xFF,0xFF
107.545511375000004,196,0xFF,0xFF
107.545561437499998,196,0xFF,0xFF
107.545605437500001,196,0xFF,0xFF
107.545649999999995,196,0xFF,0xFF
107.545715999999999,196,0xFF,0xFF
107.545760562500007,196,0xFF,0xFF
107.545805062499994,196,0xFF,0xFF
107.545849625000002,196,0xFF,0xFF
107.545894125000004,196,0xFF,0xFF
107.545938187499999,196,0xFF,0xFF
107.545982687500000,196,0xFF,0xFF
107.546032749999995,196,0xFF,0xFF
107.546077249999996,196,0xFF,0xFF
107.546121812500004,196,0xFF,0xFF
107.546165812500007,196,0xFF,0xFF
107.546210375000001,196,0xFF,0xFF
107.546260375000003,196,0xFF,0xFF
107.546304937499997,196,0xFF,0xFF
107.546348937499999,196,0xFF,0xFF
107.546393499999994,196,0xFF,0xFF
107.546437999999995,196,0xFF,0xFF
107.546482562500003,196,0xFF,0xFF
107.546527062500004,196,0xFF,0xFF
107.546571562500006,196,0xFF,0xFF
107.546616125000000,196,0xFF,0xFF
107.546660625000001,196,0xFF,0xFF
107.546705187499995,196,0xFF,0xFF
107.546765750000006,196,0xFF,0xFF
107.546810249999993,196,0xFF,0xFF
107.546854249999996,196,0xFF,0xFF
107.546898812500004,196,0xFF,0xFF
107.546943312500005,196,0xFF,0xFF
107.546987874999999,196,0xFF,0xFF
107.547032375000001,196,0xFF,0xFF
107.547082437499995,196,0xFF,0xFF
107.547126937499996,196,0xFF,0xFF
107.547171500000005,196,0xFF,0xFF
107.547215499999993,196,0xFF,0xFF
107.547260062500001,196,0xFF,0xFF
107.547310062500003,196,0xFF,0xFF
107.547354624999997,196,0xFF,0xFF
107.547399124999998,196,0xFF,0xFF
107.547443187499994,196,0xFF,0xFF
107.547487687499995,196,0xFF,0xFF
107.547537750000004,196,0xFF,0xFF
107.547582250000005,196,0xFF,0xFF
107.547626812499999,196,0xFF,0xFF
107.547692312500004,196,0xFF,0xFF
107.547736874999998,196,0xFF,0xFF
107.547781375000000,196,0xFF,0xFF
107.547825937499994,196,0xFF,0xFF
107.547870437499995,196,0xFF,0xFF
107.547915000000003,196,0xFF,0xFF
107.547959500000005,196,0xFF,0xFF
107.548009562499999,196,0xFF,0xFF
107.548053562500002,196,0xFF,0xFF
107.548098124999996,196,0xFF,0xFF
107.548142624999997,196,0xFF,0xFF
107.548187187500005,196,0xFF,0xFF
107.548237187500007,196,0xFF,0xFF
107.548281750000001,196,0xFF,0xFF
107.548325750000004,196,0xFF,0xFF
107.548370250000005,196,0xFF,0xFF
107.548414812499999,196,0xFF,0xFF
107.548464812500001,196,0xFF,0xFF
107.548509374999995,196,0xFF,0xFF
107.548553874999996,196,0xFF,0xFF
107.548597937500006,196,0xFF,0xFF
107.548642437500007,196,0xFF,0xFF
107.548719500000004,196,0xFF,0xFF
107.548763562500000,196,0xFF,0xFF
107.548808062500001,196,0xFF,0xFF
107.548852624999995,196,0xFF,0xFF
107.548897124999996,196,0xFF,0xFF
107.548941687500005,196,0xFF,0xFF
107.548986187500006,196,0xFF,0xFF
107.549030687499993,196,0xFF,0xFF
107.549080250000003,196,0xFF,0xFF
107.550265062500003,197,0xFF,0x10
107.550312562499997,197,0xFF,0x06
107.550360624999996,197,0xFF,0x08
107.550408125000004,197,0xFF,0x00
107.550456187500004,197,0xFF,0x00
107.550504187499996,197,0xFF,0x12
107.550551749999997,197,0xFF,0xA1
107.550599750000003,197,0xFF,0x6E
107.550655312499998,197,0xFF,0xFF
107.550699812500000,197,0xFF,0xFF
107.550743874999995,197,0xFF,0xFF
107.550804874999997,197,0xFF,0xFF
107.550849437500005,197,0xFF,0xFF
107.550893937500007,197,0xFF,0xFF
107.550959500000005,197,0xFF,0xFF
107.561496437499997,198,0xFF,0x05
107.561544499999997,198,0xFF,0x1F
107.561592000000005,198,0xFF,0xD5
107.561640062500004,198,0xFF,0xC3
107.561687562499998,198,0xFF,0x10
107.561768125000000,198,0xFF,0xEE
107.561815687500001,198,0xFF,0x45
107.561863687499994,198,0xFF,0xF7
107.561911249999994,198,0xFF,0x23
107.561959250000001,198,0xFF,0x00
107.562006812500002,198,0xFF,0x05
107.562060312499995,198,0xFF,0x11
107.562107874999995,198,0xFF,0x12
107.562161375000002,198,0xFF,0xA3
107.562208937500003,198,0xFF,0xCF
107.562289500000006,198,0xFF,0x41
107.562337499999998,198,0xFF,0x6B
107.562385062499999,198,0xFF,0xFC
107.562433062500006,198,0xFF,0xBE
107.562480625000006,198,0xFF,0x3B
107.562528624999999,198,0xFF,0xEC
107.562576187499999,198,0xFF,0x69
107.562624187500006,198,0xFF,0x74
107.562677249999993,198,0xFF,0xF0
107.562725250000000,198,0xFF,0xD4
107.562772812500000,198,0xFF,0x5B
107.562831312499995,198,0xFF,0x32
107.562879374999994,198,0xFF,0x74
107.562927375000001,198,0xFF,0x58
107.562974937500002,198,0xFF,0xC8
107.563022937499994,198,0xFF,0x84
107.563070499999995,198,0xFF,0xC8
107.563118500000002,198,0xFF,0x21
107.563174062499996,198,0xFF,0xFF
107.563218562499998,198,0xFF,0xFF
107.563263125000006,198,0xFF,0xFF
107.563307624999993,198,0xFF,0xFF
107.563352187500001,198,0xFF,0xFF
107.563396687500003,198,0xFF,0xFF
107.563467750000001,198,0xFF,0xFF
107.569802437500002,199,0xFF,0x07
107.569850000000002,199,0xFF,0x02
107.569897999999995,199,0xFF,0xDA
107.569946062499994,199,0xFF,0xA4
107.570001562499996,199,0xFF,0xFF
107.570046125000005,199,0xFF,0xFF
107.570090124999993,199,0xFF,0xFF
107.570135187500000,199,0xFF,0xFF
107.570184687500003,199,0xFF,0xFF
107.570229249999997,199,0xFF,0xFF
107.570273749999998,199,0xFF,0xFF
107.570318312500007,199,0xFF,0xFF
107.570362812499994,199,0xFF,0xFF
107.570412375000004,199,0xFF,0xFF
107.570456875000005,199,0xFF,0xFF
107.570501437499999,199,0xFF,0xFF
107.570545937500000,199,0xFF,0xFF
107.570590437500002,199,0xFF,0xFF
107.570634999999996,199,0xFF,0xFF
107.570684499999999,199,0xFF,0xFF
107.571764250000001,200,0xFF,0x10
107.571833312500004,200,0xFF,0x06
107.571881312499997,200,0xFF,0x00
107.571929374999996,200,0xFF,0x00
107.571976875000004,200,0xFF,0x05
107.572024937500004,200,0xFF,0x00
107.572072437499997,200,0xFF,0xE4
107.572125999999997,200,0xFF,0x26
107.572181499999999,200,0xFF,0xFF
107.572226062499993,200,0xFF,0xFF
107.572270562499995,200,0xFF,0xFF
107.572315125000003,200,0xFF,0xFF
107.572359625000004,200,0xFF,0xFF
107.572404187499998,200,0xFF,0xFF
107.572469687500003,200,0xFF,0xFF
107.609709312500001,201,0xFF,0x07
107.609756875000002,201,0xFF,0x02
107.609804874999995,201,0xFF,0xDA
107.609857937499996,201,0xFF,0xA4
107.609913937499996,201,0xFF,0xFF
107.609990499999995,201,0xFF,0xFF
107.610035062500003,201,0xFF,0xFF
107.610079562500005,201,0xFF,0xFF
107.610124124999999,201,0xFF,0xFF
107.610168625000000,201,0xFF,0xFF
107.610213187499994,201,0xFF,0xFF
107.610257687499995,201,0xFF,0xFF
107.610302250000004,201,0xFF,0xFF
107.610346750000005,201,0xFF,0xFF
107.610391250000006,201,0xFF,0xFF
107.610435312500002,201,0xFF,0xFF
107.610479812500003,201,0xFF,0xFF
107.610529874999997,201,0xFF,0xFF
107.611620062499995,202,0xFF,0x10
107.611668124999994,202,0xFF,0x06
107.611715625000002,202,0xFF,0x08
107.611763687500002,202,0xFF,0x00
107.611811687499994,202,0xFF,0x00
107.611859249999995,202,0xFF,0x00
107.611907312499994,202,0xFF,0xD2
107.611954812500002,202,0xFF,0x5C
107.612032374999998,202,0xFF,0xFF
107.612076375000001,202,0xFF,0xFF
107.612120937499995,202,0xFF,0xFF
107.612165937499995,202,0xFF,0xFF
107.612215500000005,202,0xFF,0xFF
107.612260000000006,202,0xFF,0xFF
107.612326062500003,202,0xFF,0xFF
107.613343749999999,203,0xFF,0x06
107.613391250000006,203,0xFF,0x02
107.613439312500006,203,0xFF,0xEB
107.613486812500000,203,0xFF,0x97
107.613542874999993,203,0xFF,0xFF
107.613586874999996,203,0xFF,0xFF
107.613631437500004,203,0xFF,0xFF
107.613676437500004,203,0xFF,0xFF
107.613720999999998,203,0xFF,0xFF
107.613765000000001,203,0xFF,0xFF
107.613809562499995,203,0xFF,0xFF
107.613854062499996,203,0xFF,0xFF
107.613898625000004,203,0xFF,0xFF
107.613943125000006,203,0xFF,0xFF
107.614019687500004,203,0xFF,0xFF
107.614064187500006,203,0xFF,0xFF
107.614108750000000,203,0xFF,0xFF
107.614153250000001,203,0xFF,0xFF
107.614197812499995,203,0xFF,0xFF
107.614242312499997,203,0xFF,0xFF
107.614286375000006,203,0xFF,0xFF
107.614336374999993,203,0xFF,0xFF
107.614746687500002,203,0xFF,0xFF
107.614791187500003,203,0xFF,0xFF
107.614835187500006,203,0xFF,0xFF
107.614885250000000,203,0xFF,0xFF
107.614929750000002,203,0xFF,0xFF
107.614974312499996,203,0xFF,0xFF
107.615040375000007,203,0xFF,0xFF
107.615084874999994,203,0xFF,0xFF
107.615128937500003,203,0xFF,0xFF
107.615173437500005,203,0xFF,0xFF
107.615217999999999,203,0xFF,0xFF
107.615262500000000,203,0xFF,0xFF
107.615307000000001,203,0xFF,0xFF
107.615356562499997,203,0xFF,0xFF
107.615401062499998,203,0xFF,0xFF
107.615445625000007,203,0xFF,0xFF
107.615490124999994,203,0xFF,0xFF
107.615534687500002,203,0xFF,0xFF
107.615584687500004,203,0xFF,0xFF
107.615628749999999,203,0xFF,0xFF
107.615673250000000,203,0xFF,0xFF
107.615717812499994,203,0xFF,0xFF
107.615762312499996,203,0xFF,0xFF
107.615812375000004,203,0xFF,0xFF
107.615856875000006,203,0xFF,0xFF
107.615900937500001,203,0xFF,0xFF
107.615945437500002,203,0xFF,0xFF
107.615989999999996,203,0xFF,0xFF
107.616034499999998,203,0xFF,0xFF
107.616095062499994,203,0xFF,0xFF
107.616139562499995,203,0xFF,0xFF
107.616184125000004,203,0xFF,0xFF
107.616228125000006,203,0xFF,0xFF
107.616272687500000,203,0xFF,0xFF
107.616322687500002,203,0xFF,0xFF
107.617412437499993,204,0xFF,0x10
107.617460437500000,204,0xFF,0x06
107.617508000000001,204,0xFF,0x08
107.617555999999993,204,0xFF,0x00
107.617604062500007,204,0xFF,0x00
107.617651562500001,204,0xFF,0x13
107.617699625000000,204,0xFF,0x80
107.617752624999994,204,0xFF,0x7E
107.617808187500003,204,0xFF,0xFF
107.617852687500005,204,0xFF,0xFF
107.617897249999999,204,0xFF,0xFF
107.617941750000000,204,0xFF,0xFF
107.618007812499997,204,0xFF,0xFF
107.618052312499998,204,0xFF,0xFF
107.618118374999995,204,0xFF,0xFF
107.626018125000002,205,0xFF,0x05
107.626065624999995,205,0xFF,0x14
107.626113687499995,205,0xFF,0xD5
107.626161687500002,205,0xFF,0xC3
107.626209250000002,205,0xFF,0x10
107.626257249999995,205,0xFF,0xEE
107.626304812499995,205,0xFF,0x45
107.626352812500002,205,0xFF,0xF7
107.626400375000003,205,0xFF,0x23
107.626448374999995,205,0xFF,0x00
107.626496437499995,205,0xFF,0x06
107.626543937500003,205,0xFF,0x11
107.626592000000002,205,0xFF,0x07
107.626639499999996,205,0xFF,0xA3
107.626693062499996,205,0xFF,0x48
107.626740562500004,205,0xFF,0x46
107.626794125000004,205,0xFF,0x75
107.626841624999997,205,0xFF,0xFF
107.626889687499997,205,0xFF,0x80
107.626937187500005,205,0xFF,0x42
107.626985250000004,205,0xFF,0x88
107.627049312500006,205,0xFF,0x3B
107.627104812499994,205,0xFF,0xFF
107.627149375000002,205,0xFF,0xFF
107.627193375000004,205,0xFF,0xFF
107.627238437499997,205,0xFF,0xFF
107.627282937499999,205,0xFF,0xFF
107.627332499999994,205,0xFF,0xFF
107.627398499999998,205,0xFF,0xFF
107.633437499999999,206,0xFF,0x07
107.633485062500000,206,0xFF,0x02
107.633533062500007,206,0xFF,0xDA
107.633580624999993,206,0xFF,0xA4
107.633636624999994,206,0xFF,0xFF
107.633680687500004,206,0xFF,0xFF
107.633725187500005,206,0xFF,0xFF
107.633770249999998,206,0xFF,0xFF
107.633814749999999,206,0xFF,0xFF
107.633858812499994,206,0xFF,0xFF
107.633903312499996,206,0xFF,0xFF
107.633947875000004,206,0xFF,0xFF
107.633992375000005,206,0xFF,0xFF
107.634036937499999,206,0xFF,0xFF
107.634081437500001,206,0xFF,0xFF
107.634125937500002,206,0xFF,0xFF
107.634186499999998,206,0xFF,0xFF
107.634231062500007,206,0xFF,0xFF
107.634280562499995,206,0xFF,0xFF
107.634330625000004,206,0xFF,0xFF
107.635784562500007,207,0xFF,0x10
107.635838125000006,207,0xFF,0x06
107.635885625000000,207,0xFF,0x00
107.635933687500000,207,0xFF,0x00
107.635981687500006,207,0xFF,0x06
107.636029250000007,207,0xFF,0x00
107.636098750000002,207,0xFF,0xB7
107.636146812500002,207,0xFF,0x73
107.636202312500004,207,0xFF,0xFF
107.636246374999999,207,0xFF,0xFF
107.636290875000000,207,0xFF,0xFF
107.636335937499993,207,0xFF,0xFF
107.636385437499996,207,0xFF,0xFF
107.636430000000004,207,0xFF,0xFF
107.636496062500001,207,0xFF,0xFF
108.693923062500005,208,0xFF,0x01
108.693976062499999,208,0xFF,0x02
108.694024124999999,208,0xFF,0x7C
108.694071625000007,208,0xFF,0x0E
108.694127687500000,208,0xFF,0xFF
108.694171687500003,208,0xFF,0xFF
108.694216249999997,208,0xFF,0xFF
108.694261249999997,208,0xFF,0xFF
108.694305812500005,208,0xFF,0xFF
108.694349812499993,208,0xFF,0xFF
108.694415875000004,208,0xFF,0xFF
109.998638000000000,209,0xFF,0x07
109.998686062499999,209,0xFF,0x02
109.998734062500006,209,0xFF,0xDA
109.998781625000007,209,0xFF,0xA4
109.998837624999993,209,0xFF,0xFF
109.998881687500003,209,0xFF,0xFF
109.998926187500004,209,0xFF,0xFF
109.998971249999997,209,0xFF,0xFF
109.999015249999999,209,0xFF,0xFF
109.999059812499993,209,0xFF,0xFF
109.999104312499995,209,0xFF,0xFF
109.999148875000003,209,0xFF,0xFF
109.999193375000004,209,0xFF,0xFF
109.999237937499998,209,0xFF,0xFF
109.999282437500000,209,0xFF,0xFF
109.999326999999994,209,0xFF,0xFF
109.999376499999997,209,0xFF,0xFF
109.999426562500005,209,0xFF,0xFF
110.000507749999997,210,0xFF,0x10
110.000555750000004,210,0xFF,0x06
110.000603812500003,210,0xFF,0x10
110.000651312499997,210,0xFF,0x00
110.000699374999996,210,0xFF,0x00
110.000746875000004,210,0xFF,0x00
110.000794937500004,210,0xFF,0xB6
110.000842500000005,210,0xFF,0xC2
110.000898500000005,210,0xFF,0xFF
110.000942562500001,210,0xFF,0xFF
110.000987062500002,210,0xFF,0xFF
110.001032124999995,210,0xFF,0xFF
110.001076624999996,210,0xFF,0xFF
110.001120624999999,210,0xFF,0xFF
110.001186687499995,210,0xFF,0xFF
110.010598937500006,211,0xFF,0x07
110.010646937499999,211,0xFF,0x02
110.010694500000000,211,0xFF,0xDA
110.010742500000006,211,0xFF,0xA4
110.010798062500001,211,0xFF,0xFF
110.010842562500002,211,0xFF,0xFF
110.010886624999998,211,0xFF,0xFF
110.010931624999998,211,0xFF,0xFF
110.010976187500006,211,0xFF,0xFF
110.011020687499993,211,0xFF,0xFF
110.011064687499996,211,0xFF,0xFF
110.011109250000004,211,0xFF,0xFF
110.011153750000005,211,0xFF,0xFF
110.011198312499999,211,0xFF,0xFF
110.011242812500001,211,0xFF,0xFF
110.011287374999995,211,0xFF,0xFF
110.011331874999996,211,0xFF,0xFF
110.011381437500006,211,0xFF,0xFF
110.012437625000004,212,0xFF,0x10
110.012485124999998,212,0xFF,0x06
110.012533187499997,212,0xFF,0xFF
110.012580687500005,212,0xFF,0x0F
110.012628750000005,212,0xFF,0x00
110.012676312500005,212,0xFF,0x00
110.012724312499998,212,0xFF,0x83
110.012772374999997,212,0xFF,0xBE
110.012827874999999,212,0xFF,0xFF
110.012872437499993,212,0xFF,0xFF
110.012916437499996,212,0xFF,0xFF
110.012961500000003,212,0xFF,0xFF
110.013006000000004,212,0xFF,0xFF
110.013050500000006,212,0xFF,0xFF
110.013116062500004,212,0xFF,0xFF
110.014164750000006,213,0xFF,0x0E
110.014212812500006,213,0xFF,0x0B
110.014260312499999,213,0xFF,0x01
110.014308374999999,213,0xFF,0x00
110.014356375000006,213,0xFF,0x00
110.014403937500006,213,0xFF,0x00
110.014451937499999,213,0xFF,0x00
110.014499499999999,213,0xFF,0x00
110.014553000000006,213,0xFF,0x00
110.014600562499993,213,0xFF,0x00
110.014648562500000,213,0xFF,0x00
110.014696125000000,213,0xFF,0xD2
110.014744125000007,213,0xFF,0x97
110.014799687500002,213,0xFF,0xFF
110.014844187500003,213,0xFF,0xFF
110.014888749999997,213,0xFF,0xFF
110.014933249999999,213,0xFF,0xFF
110.014977812500007,213,0xFF,0xFF
110.015027812499994,213,0xFF,0xFF
110.015093375000006,213,0xFF,0xFF
110.158651687499997,214,0xFF,0x0C
110.158699187500005,214,0xFF,0x13
110.158747250000005,214,0xFF,0x01
110.158795249999997,214,0xFF,0x00
110.158842812499998,214,0xFF,0x00
110.158890812500005,214,0xFF,0x00
110.158938375000005,214,0xFF,0x00
110.158986374999998,214,0xFF,0x00
110.159034437499997,214,0xFF,0x00
110.159081937500005,214,0xFF,0x00
110.159130000000005,214,0xFF,0x00
110.159177499999998,214,0xFF,0x00
110.159225562499998,214,0xFF,0x00
110.159273562500005,214,0xFF,0x00
110.159321125000005,214,0xFF,0x00
110.159369124999998,214,0xFF,0x00
110.159416687499998,214,0xFF,0x00
110.159464687500005,214,0xFF,0x00
110.159512250000006,214,0xFF,0x00
110.159560249999998,214,0xFF,0x2F
110.159608312499998,214,0xFF,0x89
110.159663812500000,214,0xFF,0xFF
110.159707874999995,214,0xFF,0xFF
110.159752374999997,214,0xFF,0xFF
110.159797437500004,214,0xFF,0xFF
110.159841937500005,214,0xFF,0xFF
110.159886000000000,214,0xFF,0xFF
110.159952062499997,214,0xFF,0xFF
110.160969187500001,215,0xFF,0x08
110.161016750000002,215,0xFF,0x03
110.161064749999994,215,0xFF,0x00
110.161112312499995,215,0xFF,0x6E
110.161160312500002,215,0xFF,0x30
110.161215874999996,215,0xFF,0xFF
110.161260374999998,215,0xFF,0xFF
110.161304937500006,215,0xFF,0xFF
110.161349937500006,215,0xFF,0xFF
110.161394000000001,215,0xFF,0xFF
110.161438500000003,215,0xFF,0xFF
110.161483062499997,215,0xFF,0xFF
110.161527562499998,215,0xFF,0xFF
110.161572125000006,215,0xFF,0xFF
110.161616624999994,215,0xFF,0xFF
110.161661187500002,215,0xFF,0xFF
110.161705687500003,215,0xFF,0xFF
110.161750249999997,215,0xFF,0xFF
110.161794250000000,215,0xFF,0xFF
110.161838750000001,215,0xFF,0xFF
110.161883312499995,215,0xFF,0xFF
110.161927812499997,215,0xFF,0xFF
110.161972375000005,215,0xFF,0xFF
110.162016875000006,215,0xFF,0xFF
110.162061437500000,215,0xFF,0xFF
110.162105937500002,215,0xFF,0xFF
110.162155499999997,215,0xFF,0xFF
110.162199999999999,215,0xFF,0xFF
110.162244562500007,215,0xFF,0xFF
110.162289062499994,215,0xFF,0xFF
110.162333625000002,215,0xFF,0xFF
110.162378125000004,215,0xFF,0xFF
110.162422687499998,215,0xFF,0xFF
110.162467187499999,215,0xFF,0xFF
110.162516749999995,215,0xFF,0xFF
