Time [s],Packet ID,MOSI,MISO
6.756707000000000,0,0xFF,0x0C
6.756755000000000,0,0xFF,0x13
6.756803062500000,0,0xFF,0x01
6.756850562500000,0,0xFF,0x00
6.756898625000000,0,0xFF,0x00
6.756946125000000,0,0xFF,0x00
6.756994187500000,0,0xFF,0x00
6.757042187500000,0,0xFF,0x00
6.757089750000000,0,0xFF,0x00
6.757137750000000,0,0xFF,0x00
6.757185312500000,0,0xFF,0x00
6.757233312500000,0,0xFF,0x00
6.757280875000000,0,0xFF,0x00
6.757328875000000,0,0xFF,0x00
6.757376937500000,0,0xFF,0x00
6.757424437500000,0,0xFF,0x00
6.757472500000000,0,0xFF,0x00
6.757520062500000,0,0xFF,0x00
6.757568062500000,0,0xFF,0x00
6.757615625000000,0,0xFF,0x2F
6.757663625000000,0,0xFF,0x89
6.757719187500000,0,0xFF,0xFF
6.757763687500000,0,0xFF,0xFF
6.757808250000000,0,0xFF,0xFF
6.758227000000000,0,0xFF,0xFF
6.758271562500000,0,0xFF,0xFF
6.758315562500000,0,0xFF,0xFF
6.758381625000000,0,0xFF,0xFF
6.759398812500000,1,0xFF,0x08
6.759446375000000,1,0xFF,0x03
6.759488875000000,1,0xFF,0x00
6.759531437500000,1,0xFF,0x6E
6.759573937500000,1,0xFF,0x30
6.759618500000000,1,0xFF,0xFF
6.759663000000000,1,0xFF,0xFF
6.759707500000000,1,0xFF,0xFF
6.759752062500000,1,0xFF,0xFF
6.759796062500000,1,0xFF,0xFF
6.759840625000000,1,0xFF,0xFF
6.760030250000000,1,0xFF,0xFF
6.760074312500000,1,0xFF,0xFF
6.760118812500000,1,0xFF,0xFF
6.760163312500000,1,0xFF,0xFF
6.764170062500000,2,0xFF,0x08
6.764218125000000,2,0xFF,0x03
6.764265625000000,2,0xFF,0x00
6.764313687500000,2,0xFF,0x6E
6.764361250000000,2,0xFF,0x30
6.764417250000000,2,0xFF,0xFF
6.764461812500000,2,0xFF,0xFF
6.764505812500000,2,0xFF,0xFF
6.764550875000000,2,0xFF,0xFF
6.764595375000000,2,0xFF,0xFF
6.764639937500000,2,0xFF,0xFF
6.764683937500000,2,0xFF,0xFF
6.764728500000000,2,0xFF,0xFF
6.764773000000000,2,0xFF,0xFF
6.764817562500000,2,0xFF,0xFF
6.764862062500000,2,0xFF,0xFF
6.764906562500000,2,0xFF,0xFF
6.764951125000000,2,0xFF,0xFF
6.764995625000000,2,0xFF,0xFF
6.765040187500000,2,0xFF,0xFF
6.765084187500000,2,0xFF,0xFF
6.765128750000000,2,0xFF,0xFF
6.765173250000000,2,0xFF,0xFF
6.765217812500000,2,0xFF,0xFF
6.765262312500000,2,0xFF,0xFF
6.765306875000000,2,0xFF,0xFF
6.765351375000000,2,0xFF,0xFF
6.765395937500000,2,0xFF,0xFF
6.765439937500000,2,0xFF,0xFF
6.765484500000000,2,0xFF,0xFF
6.765529000000000,2,0xFF,0xFF
6.765573562500000,2,0xFF,0xFF
6.765618062500000,2,0xFF,0xFF
6.765662625000000,2,0xFF,0xFF
6.765712625000000,2,0xFF,0xFF
6.781796687500000,3,0xFF,0x03
6.781844187500000,3,0xFF,0x1C
6.781892250000000,3,0xFF,0x01
6.781940250000000,3,0xFF,0x17
6.781987812500000,3,0xFF,0x00
6.782035812500000,3,0xFF,0x00
6.782083375000000,3,0xFF,0x00
6.782131375000000,3,0xFF,0x07
6.782178937500000,3,0xFF,0x07
6.782226937500000,3,0xFF,0x00
6.782275000000000,3,0xFF,0x00
6.782322500000000,3,0xFF,0x02
6.782370562500000,3,0xFF,0x23
6.782418062500000,3,0xFF,0x10
6.782466125000000,3,0xFF,0x11
6.782513687500000,3,0xFF,0x82
6.782561687500000,3,0xFF,0x06
6.782609750000000,3,0xFF,0xF7
6.782657250000000,3,0xFF,0x23
6.782705312500000,3,0xFF,0x00
6.782752812500000,3,0xFF,0xD5
6.782800875000000,3,0xFF,0xC3
6.782848375000000,3,0xFF,0x10
6.782896437500000,3,0xFF,0xEE
6.782944437500000,3,0xFF,0x45
6.782992000000000,3,0xFF,0xF7
6.783045500000000,3,0xFF,0x23
6.783093062500000,3,0xFF,0x00
6.783141062500000,3,0xFF,0x07
6.783188625000000,3,0xFF,0x85
6.783244687500000,3,0xFF,0xFF
6.783288687500000,3,0xFF,0xFF
6.783333187500000,3,0xFF,0xFF
6.783378250000000,3,0xFF,0xFF
6.783422750000000,3,0xFF,0xFF
6.783466812500000,3,0xFF,0xFF
6.783532875000000,3,0xFF,0xFF
9.092938250000000,4,0xFF,0x07
9.092985812500000,4,0xFF,0x02
9.093033875000000,4,0xFF,0xDA
9.093081874999999,4,0xFF,0xA4
9.093137437499999,4,0xFF,0xFF
9.093181937500001,4,0xFF,0xFF
9.093226000000000,4,0xFF,0xFF
9.093271000000000,4,0xFF,0xFF
9.093315562500001,4,0xFF,0xFF
9.093359562500000,4,0xFF,0xFF
9.093404124999999,4,0xFF,0xFF
9.093448625000001,4,0xFF,0xFF
9.093493187500000,4,0xFF,0xFF
9.093537687500000,4,0xFF,0xFF
9.093582250000001,4,0xFF,0xFF
9.093626750000000,4,0xFF,0xFF
9.093671312500000,4,0xFF,0xFF
9.093720812500001,4,0xFF,0xFF
9.094806562500001,5,0xFF,0x10
9.094860125000000,5,0xFF,0x06
9.094907624999999,5,0xFF,0x01
9.094955687500001,5,0xFF,0x00
9.095014187500000,5,0xFF,0x00
9.095062250000000,5,0xFF,0x00
9.095109750000001,5,0xFF,0xA5
9.095157812500000,5,0xFF,0xAF
9.095213312500000,5,0xFF,0xFF
9.095257875000000,5,0xFF,0xFF
9.095307375000001,5,0xFF,0xFF
9.095352437500001,5,0xFF,0xFF
9.095396937500000,5,0xFF,0xFF
9.095440999999999,5,0xFF,0xFF
9.095507062499999,5,0xFF,0xFF
9.096526750000001,6,0xFF,0x08
9.096574750000000,6,0xFF,0x03
9.096622812500000,6,0xFF,0x00
9.096670312500001,6,0xFF,0x6E
9.097035562500000,6,0xFF,0x30
9.097091624999999,6,0xFF,0xFF
9.097146687500000,6,0xFF,0xFF
9.097191187500000,6,0xFF,0xFF
9.097236250000000,6,0xFF,0xFF
9.097280250000001,6,0xFF,0xFF
9.097324812500000,6,0xFF,0xFF
9.097369312500000,6,0xFF,0xFF
9.097413875000001,6,0xFF,0xFF
9.097458375000000,6,0xFF,0xFF
9.097502937500000,6,0xFF,0xFF
9.097547437499999,6,0xFF,0xFF
9.097591937500001,6,0xFF,0xFF
9.097636000000000,6,0xFF,0xFF
9.097686062499999,6,0xFF,0xFF
9.097730562500001,6,0xFF,0xFF
9.097775062500000,6,0xFF,0xFF
9.097819625000000,6,0xFF,0xFF
9.097864124999999,6,0xFF,0xFF
9.097913687500000,6,0xFF,0xFF
9.097958187500000,6,0xFF,0xFF
9.098002749999999,6,0xFF,0xFF
9.098068812499999,6,0xFF,0xFF
9.098113312500001,6,0xFF,0xFF
9.098157875000000,6,0xFF,0xFF
9.098202375000000,6,0xFF,0xFF
9.098246437500000,6,0xFF,0xFF
9.098290937500000,6,0xFF,0xFF
9.098335499999999,6,0xFF,0xFF
9.098385499999999,6,0xFF,0xFF
9.098430062500000,6,0xFF,0xFF
9.098474062499999,6,0xFF,0xFF
9.098518625000001,6,0xFF,0xFF
9.098563125000000,6,0xFF,0xFF
9.098613187500000,6,0xFF,0xFF
9.098657687499999,6,0xFF,0xFF
9.098701750000000,6,0xFF,0xFF
9.098746250000000,6,0xFF,0xFF
9.098790812500001,6,0xFF,0xFF
9.098840812500001,6,0xFF,0xFF
9.098885375000000,6,0xFF,0xFF
9.098929875000000,6,0xFF,0xFF
9.098973937500000,6,0xFF,0xFF
9.099018437500000,6,0xFF,0xFF
9.099095500000001,6,0xFF,0xFF
9.099139500000000,6,0xFF,0xFF
9.099184062499999,6,0xFF,0xFF
9.099234062500001,6,0xFF,0xFF
9.101369062500000,7,0xFF,0x14
9.101417062499999,7,0xFF,0x1A
9.101464625000000,7,0xFF,0xD5
9.101512625000000,7,0xFF,0xC3
9.101560687499999,7,0xFF,0x10
9.101608250000000,7,0xFF,0xEE
9.101661750000000,7,0xFF,0x45
9.101709312500001,7,0xFF,0xF7
9.101757312500000,7,0xFF,0x23
9.101804874999999,7,0xFF,0x00
9.101852875000001,7,0xFF,0x6C
9.101900437499999,7,0xFF,0xFD
9.101948437500001,7,0xFF,0xCB
9.102023000000001,7,0xFF,0xFA
9.102071062500000,7,0xFF,0x93
9.102119062500000,7,0xFF,0xA2
9.102166625000001,7,0xFF,0x4D
9.102214625000000,7,0xFF,0x9F
9.102262187499999,7,0xFF,0xE5
9.102310187500001,7,0xFF,0x52
9.102357749999999,7,0xFF,0xE1
9.102405750000001,7,0xFF,0xEE
9.102453812500000,7,0xFF,0x3B
9.102501312499999,7,0xFF,0x5E
9.102549375000001,7,0xFF,0x5D
9.102596875000000,7,0xFF,0x80
9.102650437499999,7,0xFF,0xCB
9.102697937500000,7,0xFF,0x0A
9.102753500000000,7,0xFF,0xFF
9.102798062500000,7,0xFF,0xFF
9.102842562499999,7,0xFF,0xFF
9.102887624999999,7,0xFF,0xFF
9.102931625000000,7,0xFF,0xFF
9.102976125000000,7,0xFF,0xFF
9.103042187500000,7,0xFF,0xFF
9.204875500000000,8,0xFF,0x05
9.204923000000001,8,0xFF,0x14
9.204976062500000,8,0xFF,0xD5
9.205024062500000,8,0xFF,0xC3
9.205072124999999,8,0xFF,0x10
9.205119625000000,8,0xFF,0xEE
9.205167687499999,8,0xFF,0x45
9.205215187500000,8,0xFF,0xF7
9.205263250000000,8,0xFF,0x23
9.205311312499999,8,0xFF,0x00
9.205358812500000,8,0xFF,0x02
9.205412375000000,8,0xFF,0x11
9.205459875000001,8,0xFF,0x07
9.205507937500000,8,0xFF,0xA3
9.205566437500000,8,0xFF,0xDF
9.205614499999999,8,0xFF,0x7A
9.205662000000000,8,0xFF,0xB4
9.205710062500000,8,0xFF,0x91
9.205757562500001,8,0xFF,0xDB
9.205805625000000,8,0xFF,0xEE
9.205858687499999,8,0xFF,0xC4
9.205906687500001,8,0xFF,0xF4
9.205967749999999,8,0xFF,0xFF
9.206011750000000,8,0xFF,0xFF
9.206061812500000,8,0xFF,0xFF
9.206106812500000,8,0xFF,0xFF
9.206150875000001,8,0xFF,0xFF
9.206195375000000,8,0xFF,0xFF
9.206261437500000,8,0xFF,0xFF
11.056772812500000,9,0xFF,0x07
11.056820374999999,9,0xFF,0x02
11.056868375000001,9,0xFF,0xDA
11.056915937499999,9,0xFF,0xA4
11.056971937500000,9,0xFF,0xFF
11.057016000000001,9,0xFF,0xFF
11.057060500000000,9,0xFF,0xFF
11.057105562500000,9,0xFF,0xFF
11.057149562499999,9,0xFF,0xFF
11.057194125000001,9,0xFF,0xFF
11.057238625000000,9,0xFF,0xFF
11.057283187499999,9,0xFF,0xFF
11.057327687500001,9,0xFF,0xFF
11.057372250000000,9,0xFF,0xFF
11.057416750000000,9,0xFF,0xFF
11.057466312500001,9,0xFF,0xFF
11.057510812500000,9,0xFF,0xFF
11.057555375000000,9,0xFF,0xFF
11.057631937500000,9,0xFF,0xFF
11.057681937500000,9,0xFF,0xFF
11.058761187500000,10,0xFF,0x10
11.058808687499999,10,0xFF,0x06
11.058856750000000,10,0xFF,0x00
11.058904750000000,10,0xFF,0x00
11.058952312500001,10,0xFF,0x02
11.059000375000000,10,0xFF,0x00
11.059048375000000,10,0xFF,0x73
11.059095937500000,10,0xFF,0xBF
11.059151437500001,10,0xFF,0xFF
11.059196000000000,10,0xFF,0xFF
11.059240500000000,10,0xFF,0xFF
11.059285562500000,10,0xFF,0xFF
11.059329562500000,10,0xFF,0xFF
11.059379625000000,10,0xFF,0xFF
11.059445625000000,10,0xFF,0xFF
11.064923875000000,11,0xFF,0x05
11.064971937499999,11,0xFF,0x13
11.065025000000000,11,0xFF,0xD5
11.065073000000000,11,0xFF,0xC3
11.065120562500001,11,0xFF,0x10
11.065168562500000,11,0xFF,0xEE
11.065216124999999,11,0xFF,0x45
11.065264125000001,11,0xFF,0xF7
11.065311687499999,11,0xFF,0x23
11.065359687500001,11,0xFF,0x00
11.065407750000000,11,0xFF,0x03
11.065460750000000,11,0xFF,0x11
11.065508812499999,11,0xFF,0x06
11.065556312500000,11,0xFF,0xA3
11.065614875000000,11,0xFF,0x5E
11.065662874999999,11,0xFF,0x7A
11.065710437500000,11,0xFF,0xA5
11.065758499999999,11,0xFF,0x96
11.065806500000001,11,0xFF,0x30
11.065854062500000,11,0xFF,0x2B
11.065902062499999,11,0xFF,0x24
11.065957624999999,11,0xFF,0xFF
11.066002125000001,11,0xFF,0xFF
11.066046187500000,11,0xFF,0xFF
11.066091187500000,11,0xFF,0xFF
11.066135750000001,11,0xFF,0xFF
11.066180250000000,11,0xFF,0xFF
11.066251312500000,11,0xFF,0xFF
11.074485937500000,12,0xFF,0x07
11.074534000000000,12,0xFF,0x02
11.074608562500000,12,0xFF,0xDA
11.074656562500000,12,0xFF,0xA4
11.074712125000000,12,0xFF,0xFF
11.074756624999999,12,0xFF,0xFF
11.074800687500000,12,0xFF,0xFF
11.074845687500000,12,0xFF,0xFF
11.074895750000000,12,0xFF,0xFF
11.074939750000000,12,0xFF,0xFF
11.074984312500000,12,0xFF,0xFF
11.075028812499999,12,0xFF,0xFF
11.075073375000001,12,0xFF,0xFF
11.075123375000000,12,0xFF,0xFF
11.075167937500000,12,0xFF,0xFF
11.075212437499999,12,0xFF,0xFF
11.075257000000001,12,0xFF,0xFF
11.075301000000000,12,0xFF,0xFF
11.075345562500001,12,0xFF,0xFF
11.075395562500001,12,0xFF,0xFF
11.076474812500001,13,0xFF,0x10
11.076522812500000,13,0xFF,0x06
11.076570374999999,13,0xFF,0x00
11.076645437500000,13,0xFF,0x00
11.076692937500001,13,0xFF,0x03
11.076741000000000,13,0xFF,0x00
11.076789000000000,13,0xFF,0x42
11.076836562500000,13,0xFF,0x8C
11.076892125000001,13,0xFF,0xFF
11.076936625000000,13,0xFF,0xFF
11.076981125000000,13,0xFF,0xFF
11.077026187500000,13,0xFF,0xFF
11.077070187500000,13,0xFF,0xFF
11.077114750000000,13,0xFF,0xFF
11.077180812500000,13,0xFF,0xFF
11.136286249999999,14,0xFF,0x07
11.136333812500000,14,0xFF,0x02
11.136381812500000,14,0xFF,0xDA
11.136434875000001,14,0xFF,0xA4
11.136490937500000,14,0xFF,0xFF
11.136534937500000,14,0xFF,0xFF
11.136579500000000,14,0xFF,0xFF
11.136624500000000,14,0xFF,0xFF
11.136669062499999,14,0xFF,0xFF
11.136713062500000,14,0xFF,0xFF
11.136757625000000,14,0xFF,0xFF
11.136802125000001,14,0xFF,0xFF
11.136846625000000,14,0xFF,0xFF
11.136912687500001,14,0xFF,0xFF
11.136957250000000,14,0xFF,0xFF
11.137001250000001,14,0xFF,0xFF
11.137045812500000,14,0xFF,0xFF
11.137095812500000,14,0xFF,0xFF
11.138219125000001,15,0xFF,0x10
11.138266625000000,15,0xFF,0x06
11.138314687499999,15,0xFF,0x08
11.138362687500001,15,0xFF,0x00
11.138410250000000,15,0xFF,0x00
11.138458249999999,15,0xFF,0x00
11.138505812500000,15,0xFF,0xD2
11.138553812500000,15,0xFF,0x5C
11.138609375000000,15,0xFF,0xFF
11.138653874999999,15,0xFF,0xFF
11.138698437500000,15,0xFF,0xFF
11.138742937500000,15,0xFF,0xFF
11.138787499999999,15,0xFF,0xFF
11.138832000000001,15,0xFF,0xFF
11.138924562500000,15,0xFF,0xFF
11.139942250000001,16,0xFF,0x06
11.139990312500000,16,0xFF,0x02
11.140037812499999,16,0xFF,0xEB
11.140085875000000,16,0xFF,0x97
11.140141437500001,16,0xFF,0xFF
11.140185937500000,16,0xFF,0xFF
11.140230499999999,16,0xFF,0xFF
11.140275000000001,16,0xFF,0xFF
11.140319562500000,16,0xFF,0xFF
11.140364062500000,16,0xFF,0xFF
11.140408562499999,16,0xFF,0xFF
11.140453125000001,16,0xFF,0xFF
11.140497625000000,16,0xFF,0xFF
11.140541687500001,16,0xFF,0xFF
11.140586187500000,16,0xFF,0xFF
11.140630750000000,16,0xFF,0xFF
11.140675249999999,16,0xFF,0xFF
11.140719812500000,16,0xFF,0xFF
11.140769812500000,16,0xFF,0xFF
11.140813874999999,16,0xFF,0xFF
11.140858375000001,16,0xFF,0xFF
11.140924437500001,16,0xFF,0xFF
11.140969000000000,16,0xFF,0xFF
11.141013500000000,16,0xFF,0xFF
11.141058062500001,16,0xFF,0xFF
11.141102062500000,16,0xFF,0xFF
11.141146624999999,16,0xFF,0xFF
11.141191125000001,16,0xFF,0xFF
11.141241187500000,16,0xFF,0xFF
11.141285687500000,16,0xFF,0xFF
11.141330249999999,16,0xFF,0xFF
11.141374250000000,16,0xFF,0xFF
11.141418812500000,16,0xFF,0xFF
11.141468812499999,16,0xFF,0xFF
11.141513375000001,16,0xFF,0xFF
11.141557375000000,16,0xFF,0xFF
11.141601937500001,16,0xFF,0xFF
11.141646437500000,16,0xFF,0xFF
11.141696500000000,16,0xFF,0xFF
11.141740499999999,16,0xFF,0xFF
11.141785062500000,16,0xFF,0xFF
11.141829562500000,16,0xFF,0xFF
11.141874124999999,16,0xFF,0xFF
11.141918625000001,16,0xFF,0xFF
11.141984687500001,16,0xFF,0xFF
11.143058937499999,17,0xFF,0x10
11.143106437500000,17,0xFF,0x06
11.143154500000000,17,0xFF,0x08
11.143207500000001,17,0xFF,0x00
11.143255562500000,17,0xFF,0x00
11.143308562500000,17,0xFF,0x02
11.143356624999999,17,0xFF,0x90
11.143409625000000,17,0xFF,0x7C
11.143465187500000,17,0xFF,0xFF
11.143509687500000,17,0xFF,0xFF
11.143554249999999,17,0xFF,0xFF
11.143599249999999,17,0xFF,0xFF
11.143643312500000,17,0xFF,0xFF
11.144061625000001,17,0xFF,0xFF
11.144127624999999,17,0xFF,0xFF
11.150574562499999,18,0xFF,0x05
11.150622562500001,18,0xFF,0x13
11.150675625000000,18,0xFF,0xD5
11.150723624999999,18,0xFF,0xC3
11.150776687500001,18,0xFF,0x10
11.150824750000000,18,0xFF,0xEE
11.150872250000001,18,0xFF,0x45
11.150936312500001,18,0xFF,0xF7
11.150984312500000,18,0xFF,0x23
11.151031874999999,18,0xFF,0x00
11.151079875000001,18,0xFF,0x04
11.151127437500000,18,0xFF,0x11
11.151175437499999,18,0xFF,0x06
11.151228500000000,18,0xFF,0xA3
11.151276562500000,18,0xFF,0x5D
11.151329562500001,18,0xFF,0x7F
11.151377625000000,18,0xFF,0xB4
11.151425124999999,18,0xFF,0x32
11.151473187500001,18,0xFF,0x85
11.151521187500000,18,0xFF,0x80
11.151568749999999,18,0xFF,0x95
11.151624249999999,18,0xFF,0xFF
11.151668812500001,18,0xFF,0xFF
11.151713312500000,18,0xFF,0xFF
11.151758375000000,18,0xFF,0xFF
11.151802375000001,18,0xFF,0xFF
11.151846937500000,18,0xFF,0xFF
11.151913000000000,18,0xFF,0xFF
11.158263812500000,19,0xFF,0x07
11.158311875000001,19,0xFF,0x02
11.158359875000000,19,0xFF,0xDA
11.158407437499999,19,0xFF,0xA4
11.158462937500000,19,0xFF,0xFF
11.158507500000001,19,0xFF,0xFF
11.158552000000000,19,0xFF,0xFF
11.158596562500000,19,0xFF,0xFF
11.158641062499999,19,0xFF,0xFF
11.158685625000000,19,0xFF,0xFF
11.158730125000000,19,0xFF,0xFF
11.158774687499999,19,0xFF,0xFF
11.158819187500001,19,0xFF,0xFF
11.158863750000000,19,0xFF,0xFF
11.158908250000000,19,0xFF,0xFF
11.158952812500001,19,0xFF,0xFF
11.159013312500001,19,0xFF,0xFF
11.159057875000000,19,0xFF,0xFF
11.159107875000000,19,0xFF,0xFF
11.159157437499999,19,0xFF,0xFF
11.160237187500000,20,0xFF,0x10
11.160284687500001,20,0xFF,0x06
11.160332750000000,20,0xFF,0x00
11.160380249999999,20,0xFF,0x00
11.160428312500001,20,0xFF,0x04
11.160476312500000,20,0xFF,0x00
11.160523875000001,20,0xFF,0xD5
11.160571875000000,20,0xFF,0x15
11.160627437500001,20,0xFF,0xFF
11.160671937500000,20,0xFF,0xFF
11.160716499999999,20,0xFF,0xFF
11.160761000000001,20,0xFF,0xFF
11.160805562500000,20,0xFF,0xFF
11.160850062500000,20,0xFF,0xFF
11.160915624999999,20,0xFF,0xFF
11.229426562500000,21,0xFF,0x07
11.229474062500000,21,0xFF,0x02
11.229522125000001,21,0xFF,0xDA
11.229575187500000,21,0xFF,0xA4
11.229630687500000,21,0xFF,0xFF
11.229675250000000,21,0xFF,0xFF
11.229719749999999,21,0xFF,0xFF
11.229764812499999,21,0xFF,0xFF
11.229808812500000,21,0xFF,0xFF
11.229853374999999,21,0xFF,0xFF
11.229897875000001,21,0xFF,0xFF
11.229942437500000,21,0xFF,0xFF
11.229986937500000,21,0xFF,0xFF
11.230031500000001,21,0xFF,0xFF
11.230076000000000,21,0xFF,0xFF
11.230126062500000,21,0xFF,0xFF
11.230170562500000,21,0xFF,0xFF
11.230220125000001,21,0xFF,0xFF
11.231310375000000,22,0xFF,0x10
11.231358374999999,22,0xFF,0x06
11.231406437500000,22,0xFF,0x08
11.231453937500000,22,0xFF,0x00
11.231502000000001,22,0xFF,0x00
11.231549500000000,22,0xFF,0x00
11.231597562499999,22,0xFF,0xD2
11.231645062500000,22,0xFF,0x5C
11.231701125000001,22,0xFF,0xFF
11.231745125000000,22,0xFF,0xFF
11.231789687499999,22,0xFF,0xFF
11.231834687499999,22,0xFF,0xFF
11.231879250000000,22,0xFF,0xFF
11.231928750000000,22,0xFF,0xFF
11.231994812500000,22,0xFF,0xFF
11.233012499999999,23,0xFF,0x06
11.233060062500000,23,0xFF,0x02
11.233108062499999,23,0xFF,0xEB
11.233155625000000,23,0xFF,0x97
11.233211624999999,23,0xFF,0xFF
11.233293687500000,23,0xFF,0xFF
11.233337750000000,23,0xFF,0xFF
11.233382750000001,23,0xFF,0xFF
11.233427312500000,23,0xFF,0xFF
11.233476812499999,23,0xFF,0xFF
11.233521375000000,23,0xFF,0xFF
11.233565875000000,23,0xFF,0xFF
11.233610437499999,23,0xFF,0xFF
11.233654937500001,23,0xFF,0xFF
11.233704500000000,23,0xFF,0xFF
11.233749000000000,23,0xFF,0xFF
11.234167312500000,23,0xFF,0xFF
11.234211812500000,23,0xFF,0xFF
11.234288875000001,23,0xFF,0xFF
11.234332937500000,23,0xFF,0xFF
11.234377437499999,23,0xFF,0xFF
11.234422000000000,23,0xFF,0xFF
11.234466500000000,23,0xFF,0xFF
11.234511062499999,23,0xFF,0xFF
11.234555562500001,23,0xFF,0xFF
11.234605125000000,23,0xFF,0xFF
11.234649624999999,23,0xFF,0xFF
11.234694187500001,23,0xFF,0xFF
11.234738687500000,23,0xFF,0xFF
11.234783250000000,23,0xFF,0xFF
11.234833249999999,23,0xFF,0xFF
11.234877812500001,23,0xFF,0xFF
11.234922312500000,23,0xFF,0xFF
11.234966375000001,23,0xFF,0xFF
11.235010875000000,23,0xFF,0xFF
11.235060937500000,23,0xFF,0xFF
11.235105437500000,23,0xFF,0xFF
11.235150000000001,23,0xFF,0xFF
11.235194500000000,23,0xFF,0xFF
11.235239062500000,23,0xFF,0xFF
11.235315562500000,23,0xFF,0xFF
11.235360125000000,23,0xFF,0xFF
11.235404624999999,23,0xFF,0xFF
11.235449187500000,23,0xFF,0xFF
11.235493687500000,23,0xFF,0xFF
11.235538249999999,23,0xFF,0xFF
11.235582750000001,23,0xFF,0xFF
11.235632312500000,23,0xFF,0xFF
11.235676812499999,23,0xFF,0xFF
11.235721375000001,23,0xFF,0xFF
11.235765875000000,23,0xFF,0xFF
11.235810437500000,23,0xFF,0xFF
11.235860437500000,23,0xFF,0xFF
11.235904500000000,23,0xFF,0xFF
11.235949000000000,23,0xFF,0xFF
11.235993562499999,23,0xFF,0xFF
11.236038062500000,23,0xFF,0xFF
11.236087625000000,23,0xFF,0xFF
11.236132124999999,23,0xFF,0xFF
11.236176687500000,23,0xFF,0xFF
11.236221187500000,23,0xFF,0xFF
11.236265749999999,23,0xFF,0xFF
11.236347812500000,23,0xFF,0xFF
11.236392312500000,23,0xFF,0xFF
11.236436875000001,23,0xFF,0xFF
11.236481375000000,23,0xFF,0xFF
11.236525937500000,23,0xFF,0xFF
11.236570437499999,23,0xFF,0xFF
11.236615000000000,23,0xFF,0xFF
11.236664500000000,23,0xFF,0xFF
11.236709062499999,23,0xFF,0xFF
11.236753562500001,23,0xFF,0xFF
11.236798125000000,23,0xFF,0xFF
11.236842625000000,23,0xFF,0xFF
11.236887187500001,23,0xFF,0xFF
11.236931687500000,23,0xFF,0xFF
11.236976250000000,23,0xFF,0xFF
11.237020749999999,23,0xFF,0xFF
11.237064812500000,23,0xFF,0xFF
11.237114812500000,23,0xFF,0xFF
11.237159374999999,23,0xFF,0xFF
11.237203875000001,23,0xFF,0xFF
11.237248437500000,23,0xFF,0xFF
11.237292937499999,23,0xFF,0xFF
11.237337500000001,23,0xFF,0xFF
11.237398000000001,23,0xFF,0xFF
11.237442562500000,23,0xFF,0xFF
11.237487062500000,23,0xFF,0xFF
11.237531625000001,23,0xFF,0xFF
11.237576125000000,23,0xFF,0xFF
11.237620187499999,23,0xFF,0xFF
11.237664687500001,23,0xFF,0xFF
11.237714750000000,23,0xFF,0xFF
11.237759250000000,23,0xFF,0xFF
11.237803812499999,23,0xFF,0xFF
11.237848312500001,23,0xFF,0xFF
11.237892374999999,23,0xFF,0xFF
11.237942374999999,23,0xFF,0xFF
11.237986937500001,23,0xFF,0xFF
11.238031437500000,23,0xFF,0xFF
11.238076000000000,23,0xFF,0xFF
11.238120500000001,23,0xFF,0xFF
11.238170062500000,23,0xFF,0xFF
11.238214562500000,23,0xFF,0xFF
11.238259125000001,23,0xFF,0xFF
11.238325124999999,23,0xFF,0xFF
11.238369687500001,23,0xFF,0xFF
11.238414187500000,23,0xFF,0xFF
11.238458749999999,23,0xFF,0xFF
11.238502750000000,23,0xFF,0xFF
11.238547312500000,23,0xFF,0xFF
11.238591812499999,23,0xFF,0xFF
11.238641875000001,23,0xFF,0xFF
11.238685875000000,23,0xFF,0xFF
11.238730437499999,23,0xFF,0xFF
11.238774937500001,23,0xFF,0xFF
11.238819500000000,23,0xFF,0xFF
11.238902062499999,23,0xFF,0xFF
11.238946062500000,23,0xFF,0xFF
11.238990625000000,23,0xFF,0xFF
11.239035124999999,23,0xFF,0xFF
11.239079687500000,23,0xFF,0xFF
11.239124187500000,23,0xFF,0xFF
11.239173750000001,23,0xFF,0xFF
11.239218250000000,23,0xFF,0xFF
11.239262812500000,23,0xFF,0xFF
11.239328812500000,23,0xFF,0xFF
11.239373375000000,23,0xFF,0xFF
11.239422875000001,23,0xFF,0xFF
11.240607687500001,24,0xFF,0x10
11.240655250000000,24,0xFF,0x06
11.240703249999999,24,0xFF,0x08
11.240750812500000,24,0xFF,0x00
11.240798812500000,24,0xFF,0x00
11.240846875000001,24,0xFF,0x03
11.240894437500000,24,0xFF,0xB1
11.240942437499999,24,0xFF,0x6C
11.240997999999999,24,0xFF,0xFF
11.241042500000001,24,0xFF,0xFF
11.241087062500000,24,0xFF,0xFF
11.241131562500000,24,0xFF,0xFF
11.241176125000001,24,0xFF,0xFF
11.241220625000000,24,0xFF,0xFF
11.241286187500000,24,0xFF,0xFF
11.251494687499999,25,0xFF,0x05
11.251542687500001,25,0xFF,0x1F
11.251590750000000,25,0xFF,0xD5
11.251638249999999,25,0xFF,0xC3
11.251686312500000,25,0xFF,0x10
11.251739312500000,25,0xFF,0xEE
11.251787374999999,25,0xFF,0x45
11.251834875000000,25,0xFF,0xF7
11.251882937500000,25,0xFF,0x23
11.251930937499999,25,0xFF,0x00
11.251978500000000,25,0xFF,0x05
11.252026499999999,25,0xFF,0x11
11.252074062500000,25,0xFF,0x12
11.252122125000000,25,0xFF,0xA3
11.252175125000001,25,0xFF,0x5C
11.252223187500000,25,0xFF,0x7D
11.252276187500000,25,0xFF,0xAA
11.252324249999999,25,0xFF,0x93
11.252371750000000,25,0xFF,0x3F
11.252430312500000,25,0xFF,0x47
11.252478312499999,25,0xFF,0x7C
11.252525875000000,25,0xFF,0x4D
11.252573875000000,25,0xFF,0x1C
11.252621937500001,25,0xFF,0xF2
11.252669500000000,25,0xFF,0x20
11.252717499999999,25,0xFF,0x01
11.252765062500000,25,0xFF,0xDA
11.252813062500000,25,0xFF,0x08
11.252861125000001,25,0xFF,0x01
11.252908625000000,25,0xFF,0xAE
11.252956687499999,25,0xFF,0x56
11.253004187500000,25,0xFF,0xCA
11.253052250000000,25,0xFF,0x25
11.253107750000000,25,0xFF,0xFF
11.253157812500000,25,0xFF,0xFF
11.253202312499999,25,0xFF,0xFF
11.253246875000000,25,0xFF,0xFF
11.253291375000000,25,0xFF,0xFF
11.253335937499999,25,0xFF,0xFF
11.253428500000000,25,0xFF,0xFF
11.259749312500000,26,0xFF,0x07
11.259797375000000,26,0xFF,0x02
11.259845374999999,26,0xFF,0xDA
11.259892937500000,26,0xFF,0xA4
11.259948937500001,26,0xFF,0xFF
11.259993000000000,26,0xFF,0xFF
11.260037499999999,26,0xFF,0xFF
11.260082562499999,26,0xFF,0xFF
11.260127062500001,26,0xFF,0xFF
11.260171625000000,26,0xFF,0xFF
11.260215625000001,26,0xFF,0xFF
11.260260187500000,26,0xFF,0xFF
11.260304687500000,26,0xFF,0xFF
11.260349250000001,26,0xFF,0xFF
11.260393750000000,26,0xFF,0xFF
11.260438312500000,26,0xFF,0xFF
11.260498812500000,26,0xFF,0xFF
11.260543374999999,26,0xFF,0xFF
11.260593374999999,26,0xFF,0xFF
11.260642937500000,26,0xFF,0xFF
11.261722187500000,27,0xFF,0x10
11.261770187500000,27,0xFF,0x06
11.261818249999999,27,0xFF,0x00
11.261865750000000,27,0xFF,0x00
11.261913812500000,27,0xFF,0x05
11.261961312500000,27,0xFF,0x00
11.262009375000000,27,0xFF,0xE4
11.262056875000001,27,0xFF,0x26
11.262112937500000,27,0xFF,0xFF
11.262156937500000,27,0xFF,0xFF
11.262201500000000,27,0xFF,0xFF
11.262246500000000,27,0xFF,0xFF
11.262291062499999,27,0xFF,0xFF
11.262335062500000,27,0xFF,0xFF
11.262428125000000,27,0xFF,0xFF
11.306084562500001,28,0xFF,0x07
11.306132062500000,28,0xFF,0x02
11.306180124999999,28,0xFF,0xDA
11.306233125000000,28,0xFF,0xA4
11.306289187499999,28,0xFF,0xFF
11.306333250000000,28,0xFF,0xFF
11.306377749999999,28,0xFF,0xFF
11.306422749999999,28,0xFF,0xFF
11.306466812500000,28,0xFF,0xFF
11.306511312500000,28,0xFF,0xFF
11.306588375000000,28,0xFF,0xFF
11.306632937500000,28,0xFF,0xFF
11.306676937500001,28,0xFF,0xFF
11.306721500000000,28,0xFF,0xFF
11.306766000000000,28,0xFF,0xFF
11.306810562500001,28,0xFF,0xFF
11.306855062500000,28,0xFF,0xFF
11.306905125000000,28,0xFF,0xFF
11.307995375000001,29,0xFF,0x10
11.308043375000000,29,0xFF,0x06
11.308090937499999,29,0xFF,0x08
11.308138937500001,29,0xFF,0x00
11.308187000000000,29,0xFF,0x00
11.308234499999999,29,0xFF,0x00
11.308282562500001,29,0xFF,0xD2
11.308330062500000,29,0xFF,0x5C
11.308386125000000,29,0xFF,0xFF
11.308430124999999,29,0xFF,0xFF
11.308474687500000,29,0xFF,0xFF
11.308519687500000,29,0xFF,0xFF
11.308563749999999,29,0xFF,0xFF
11.308624812500000,29,0xFF,0xFF
11.308690312500000,29,0xFF,0xFF
11.309708000000001,30,0xFF,0x06
11.309756062500000,30,0xFF,0x02
11.309803625000001,30,0xFF,0xEB
11.309851625000000,30,0xFF,0x97
11.309907187500000,30,0xFF,0xFF
11.309951687500000,30,0xFF,0xFF
11.309996249999999,30,0xFF,0xFF
11.310040750000001,30,0xFF,0xFF
11.310085312500000,30,0xFF,0xFF
11.310135312500000,30,0xFF,0xFF
11.310179874999999,30,0xFF,0xFF
11.310223875000000,30,0xFF,0xFF
11.310268437500000,30,0xFF,0xFF
11.310312937500001,30,0xFF,0xFF
11.310363000000001,30,0xFF,0xFF
11.310407500000000,30,0xFF,0xFF
11.310452062500000,30,0xFF,0xFF
11.310496562499999,30,0xFF,0xFF
11.310540625000000,30,0xFF,0xFF
11.310585124999999,30,0xFF,0xFF
11.310645687499999,30,0xFF,0xFF
11.310690187500001,30,0xFF,0xFF
11.310734750000000,30,0xFF,0xFF
11.310779250000000,30,0xFF,0xFF
11.310823812500001,30,0xFF,0xFF
11.310868312500000,30,0xFF,0xFF
11.310912875000000,30,0xFF,0xFF
11.310962375000001,30,0xFF,0xFF
11.311006937500000,30,0xFF,0xFF
11.311051437500000,30,0xFF,0xFF
11.311095999999999,30,0xFF,0xFF
11.311140500000000,30,0xFF,0xFF
11.311190562500000,30,0xFF,0xFF
11.311234562499999,30,0xFF,0xFF
11.311279125000000,30,0xFF,0xFF
11.311323625000000,30,0xFF,0xFF
11.311368187499999,30,0xFF,0xFF
11.311418187499999,30,0xFF,0xFF
11.311462250000000,30,0xFF,0xFF
11.311506749999999,30,0xFF,0xFF
11.311551312500001,30,0xFF,0xFF
11.311595812500000,30,0xFF,0xFF
11.311672375000001,30,0xFF,0xFF
11.311716875000000,30,0xFF,0xFF
11.311761437500000,30,0xFF,0xFF
11.311805937500001,30,0xFF,0xFF
11.311850500000000,30,0xFF,0xFF
11.311895000000000,30,0xFF,0xFF
11.311939562499999,30,0xFF,0xFF
11.311989562500001,30,0xFF,0xFF
11.312033625000000,30,0xFF,0xFF
11.312078124999999,30,0xFF,0xFF
11.312122687500000,30,0xFF,0xFF
11.312167187500000,30,0xFF,0xFF
11.312217250000000,30,0xFF,0xFF
11.312261749999999,30,0xFF,0xFF
11.312311312500000,30,0xFF,0xFF
11.313401062500001,31,0xFF,0x10
11.313449062500000,31,0xFF,0x06
11.313497125000000,31,0xFF,0x08
11.313544625000000,31,0xFF,0x00
11.313592687500000,31,0xFF,0x00
11.313640250000001,31,0xFF,0x04
11.313715250000000,31,0xFF,0x56
11.313762812500000,31,0xFF,0x1C
11.313818312500000,31,0xFF,0xFF
11.313862875000000,31,0xFF,0xFF
11.314281187500001,31,0xFF,0xFF
11.314331687499999,31,0xFF,0xFF
11.314375750000000,31,0xFF,0xFF
11.314420250000000,31,0xFF,0xFF
11.314486312500000,31,0xFF,0xFF
11.322518812500000,32,0xFF,0x05
11.322566812500000,32,0xFF,0x1F
11.322614874999999,32,0xFF,0xD5
11.322662375000000,32,0xFF,0xC3
11.322742437500001,32,0xFF,0x10
11.322790500000000,32,0xFF,0xEE
11.322838000000001,32,0xFF,0x45
11.322886062500000,32,0xFF,0xF7
11.322934062500000,32,0xFF,0x23
11.322981625000001,32,0xFF,0x00
11.323035125000001,32,0xFF,0x06
11.323082687499999,32,0xFF,0x11
11.323135750000000,32,0xFF,0x12
11.323183750000000,32,0xFF,0xA3
11.323231812500000,32,0xFF,0x5B
11.323279312500000,32,0xFF,0x7D
11.323327375000000,32,0xFF,0xA2
11.323374875000001,32,0xFF,0x93
11.323422937500000,32,0xFF,0x3F
11.323470437499999,32,0xFF,0x47
11.323518500000000,32,0xFF,0x7C
11.323571500000000,32,0xFF,0x4D
11.323619562499999,32,0xFF,0x1C
11.323667062500000,32,0xFF,0xF2
11.323725625000000,32,0xFF,0x20
11.323773687499999,32,0xFF,0x01
11.323821687500001,32,0xFF,0xDA
11.323869250000000,32,0xFF,0x08
11.324291000000001,32,0xFF,0x01
11.324344062500000,32,0xFF,0xDD
11.324392062499999,32,0xFF,0x03
11.324445125000000,32,0xFF,0x40
11.324493125000000,32,0xFF,0x49
11.324554187500000,32,0xFF,0xFF
11.324598750000000,32,0xFF,0xFF
11.324643249999999,32,0xFF,0xFF
11.324698812499999,32,0xFF,0xFF
11.324743312500001,32,0xFF,0xFF
11.324787875000000,32,0xFF,0xFF
11.324853375000000,32,0xFF,0xFF
11.331406875000001,33,0xFF,0x07
11.331454937500000,33,0xFF,0x02
11.331502937500000,33,0xFF,0xDA
11.331550500000001,33,0xFF,0xA4
11.331606499999999,33,0xFF,0xFF
11.331650562500000,33,0xFF,0xFF
11.331695062500000,33,0xFF,0xFF
11.331740125000000,33,0xFF,0xFF
11.331800625000000,33,0xFF,0xFF
11.331844687500000,33,0xFF,0xFF
11.331889187500000,33,0xFF,0xFF
11.331933749999999,33,0xFF,0xFF
11.331978250000001,33,0xFF,0xFF
11.332022812500000,33,0xFF,0xFF
11.332067312500000,33,0xFF,0xFF
11.332116875000001,33,0xFF,0xFF
11.332161375000000,33,0xFF,0xFF
11.332205937499999,33,0xFF,0xFF
11.332250437500001,33,0xFF,0xFF
11.332300000000000,33,0xFF,0xFF
11.333379750000001,34,0xFF,0x10
11.333427250000000,34,0xFF,0x06
11.333475312499999,34,0xFF,0x00
11.333522812500000,34,0xFF,0x00
11.333570874999999,34,0xFF,0x06
11.333618375000000,34,0xFF,0x00
11.333666437500000,34,0xFF,0xB7
11.333741000000000,34,0xFF,0x73
11.333797000000001,34,0xFF,0xFF
11.333841062499999,34,0xFF,0xFF
11.333885562500001,34,0xFF,0xFF
11.334305375000000,34,0xFF,0xFF
11.334354875000001,34,0xFF,0xFF
11.334399437500000,34,0xFF,0xFF
11.334465500000000,34,0xFF,0xFF
11.393253250000001,35,0xFF,0x07
11.393300750000000,35,0xFF,0x02
11.393348812499999,35,0xFF,0xDA
11.393401812500001,35,0xFF,0xA4
11.393457874999999,35,0xFF,0xFF
11.393501875000000,35,0xFF,0xFF
11.393546437500000,35,0xFF,0xFF
11.393591437500000,35,0xFF,0xFF
11.393636000000001,35,0xFF,0xFF
11.393680000000000,35,0xFF,0xFF
11.393724562499999,35,0xFF,0xFF
11.393769062500001,35,0xFF,0xFF
11.393813625000000,35,0xFF,0xFF
11.393858125000000,35,0xFF,0xFF
11.393902687500001,35,0xFF,0xFF
11.393947187500000,35,0xFF,0xFF
11.394387000000000,35,0xFF,0xFF
11.394436562499999,35,0xFF,0xFF
11.395527312500001,36,0xFF,0x10
11.395574812500000,36,0xFF,0x06
11.395622875000001,36,0xFF,0x08
11.395670875000000,36,0xFF,0x00
11.395718437499999,36,0xFF,0x00
11.395766437500001,36,0xFF,0x00
11.395814000000000,36,0xFF,0xD2
11.395861999999999,36,0xFF,0x5C
11.395917562499999,36,0xFF,0xFF
11.395994125000000,36,0xFF,0xFF
11.396038624999999,36,0xFF,0xFF
11.396083687499999,36,0xFF,0xFF
11.396128187500000,36,0xFF,0xFF
11.396172249999999,36,0xFF,0xFF
11.396238250000000,36,0xFF,0xFF
11.397256000000000,37,0xFF,0x06
11.397303500000000,37,0xFF,0x02
11.397351562500001,37,0xFF,0xEB
11.397404562500000,37,0xFF,0x97
11.397460625000001,37,0xFF,0xFF
11.397510125000000,37,0xFF,0xFF
11.397554687500000,37,0xFF,0xFF
11.397599687500000,37,0xFF,0xFF
11.397643750000000,37,0xFF,0xFF
11.397688250000000,37,0xFF,0xFF
11.397732812499999,37,0xFF,0xFF
11.397777312500001,37,0xFF,0xFF
11.397821875000000,37,0xFF,0xFF
11.397866375000000,37,0xFF,0xFF
11.397910437500000,37,0xFF,0xFF
11.397987499999999,37,0xFF,0xFF
11.398032000000001,37,0xFF,0xFF
11.398076062499999,37,0xFF,0xFF
11.398120562500001,37,0xFF,0xFF
11.398165125000000,37,0xFF,0xFF
11.398209625000000,37,0xFF,0xFF
11.398254187499999,37,0xFF,0xFF
11.398304187500001,37,0xFF,0xFF
11.398348250000000,37,0xFF,0xFF
11.398392749999999,37,0xFF,0xFF
11.398437312500000,37,0xFF,0xFF
11.398481812500000,37,0xFF,0xFF
11.398531875000000,37,0xFF,0xFF
11.398576374999999,37,0xFF,0xFF
11.398620437500000,37,0xFF,0xFF
11.398664937500000,37,0xFF,0xFF
11.398709500000001,37,0xFF,0xFF
11.398759500000001,37,0xFF,0xFF
11.398804062500000,37,0xFF,0xFF
11.398848062500001,37,0xFF,0xFF
11.398892625000000,37,0xFF,0xFF
11.398942625000000,37,0xFF,0xFF
11.400006375000000,38,0xFF,0x10
11.400053874999999,38,0xFF,0x06
11.400101937500001,38,0xFF,0x08
11.400149937500000,38,0xFF,0x00
11.400197500000001,38,0xFF,0x00
11.400245500000000,38,0xFF,0x05
11.400293062499999,38,0xFF,0x77
11.400341062500001,38,0xFF,0x0C
11.400396625000001,38,0xFF,0xFF
11.400441125000000,38,0xFF,0xFF
11.400491187500000,38,0xFF,0xFF
11.400535687500000,38,0xFF,0xFF
11.400580250000001,38,0xFF,0xFF
11.400624750000000,38,0xFF,0xFF
11.400690312500000,38,0xFF,0xFF
11.542633000000000,39,0xFF,0x07
11.542680562499999,39,0xFF,0x02
11.542728562500001,39,0xFF,0xDA
11.542781625000000,39,0xFF,0xA4
11.542837687500000,39,0xFF,0xFF
11.542881687500000,39,0xFF,0xFF
11.542926250000001,39,0xFF,0xFF
11.542971250000001,39,0xFF,0xFF
11.543015312500000,39,0xFF,0xFF
11.543059812499999,39,0xFF,0xFF
11.543104312500001,39,0xFF,0xFF
11.543148875000000,39,0xFF,0xFF
11.543193375000000,39,0xFF,0xFF
11.543237937500001,39,0xFF,0xFF
11.543282437500000,39,0xFF,0xFF
11.543332500000000,39,0xFF,0xFF
11.543376500000001,39,0xFF,0xFF
11.543426562500001,39,0xFF,0xFF
11.544890562499999,40,0xFF,0x10
11.544938625000000,40,0xFF,0x06
11.544986625000000,40,0xFF,0x08
11.545039687499999,40,0xFF,0x00
11.545087187500000,40,0xFF,0x00
11.545135250000000,40,0xFF,0x00
11.545183249999999,40,0xFF,0xD2
11.545230812500000,40,0xFF,0x5C
11.545286312500000,40,0xFF,0xFF
11.545330874999999,40,0xFF,0xFF
11.545375375000001,40,0xFF,0xFF
11.545420437500001,40,0xFF,0xFF
11.545469937500000,40,0xFF,0xFF
11.545514499999999,40,0xFF,0xFF
11.545586062500000,40,0xFF,0xFF
11.546603250000000,41,0xFF,0x06
11.546651250000000,41,0xFF,0x02
11.546704312499999,41,0xFF,0xEB
11.546752312500001,41,0xFF,0x97
11.546813374999999,41,0xFF,0xFF
11.546857937500000,41,0xFF,0xFF
11.546907437500000,41,0xFF,0xFF
11.546952500000000,41,0xFF,0xFF
11.546996999999999,41,0xFF,0xFF
11.547041062500000,41,0xFF,0xFF
11.547085562500000,41,0xFF,0xFF
11.547135624999999,41,0xFF,0xFF
11.547180125000001,41,0xFF,0xFF
11.547224187499999,41,0xFF,0xFF
11.547268687500001,41,0xFF,0xFF
11.547313250000000,41,0xFF,0xFF
11.547363250000000,41,0xFF,0xFF
11.547407812499999,41,0xFF,0xFF
11.547452312500001,41,0xFF,0xFF
11.547496875000000,41,0xFF,0xFF
11.547541375000000,41,0xFF,0xFF
11.547590937500001,41,0xFF,0xFF
11.547635437500000,41,0xFF,0xFF
11.547680000000000,41,0xFF,0xFF
11.547746000000000,41,0xFF,0xFF
11.547790562499999,41,0xFF,0xFF
11.547835062500001,41,0xFF,0xFF
11.547879625000000,41,0xFF,0xFF
11.547924125000000,41,0xFF,0xFF
11.547968687499999,41,0xFF,0xFF
11.548013187500000,41,0xFF,0xFF
11.548062750000000,41,0xFF,0xFF
11.548107249999999,41,0xFF,0xFF
11.548151812500000,41,0xFF,0xFF
11.548196312500000,41,0xFF,0xFF
11.548240874999999,41,0xFF,0xFF
11.548290375000001,41,0xFF,0xFF
11.549354125000001,42,0xFF,0x10
11.549402125000000,42,0xFF,0x06
11.549449687499999,42,0xFF,0x08
11.549497687500001,42,0xFF,0x00
11.549550750000000,42,0xFF,0x00
11.549598812499999,42,0xFF,0x06
11.549646312500000,42,0xFF,0x14
11.549705375000000,42,0xFF,0x3C
11.549760875000000,42,0xFF,0xFF
11.549805437500000,42,0xFF,0xFF
11.549849437500001,42,0xFF,0xFF
11.549894500000001,42,0xFF,0xFF
11.549939000000000,42,0xFF,0xFF
11.549983562500000,42,0xFF,0xFF
11.550049124999999,42,0xFF,0xFF
11.571545312500000,43,0xFF,0x07
11.571592875000000,43,0xFF,0x02
11.571640875000000,43,0xFF,0xDA
11.571688937499999,43,0xFF,0xA4
11.571744437500000,43,0xFF,0xFF
11.571809999999999,43,0xFF,0xFF
11.571854500000001,43,0xFF,0xFF
11.571899562500001,43,0xFF,0xFF
11.571944062500000,43,0xFF,0xFF
11.571993624999999,43,0xFF,0xFF
11.572038125000001,43,0xFF,0xFF
11.572082687500000,43,0xFF,0xFF
11.572127187500000,43,0xFF,0xFF
11.572171750000001,43,0xFF,0xFF
11.572221250000000,43,0xFF,0xFF
11.572265812500000,43,0xFF,0xFF
11.572310312500001,43,0xFF,0xFF
11.572359875000000,43,0xFF,0xFF
11.573450625000000,44,0xFF,0x10
11.573498624999999,44,0xFF,0x06
11.573546187500000,44,0xFF,0x08
11.573594187499999,44,0xFF,0x00
11.573642250000001,44,0xFF,0x00
11.573695312500000,44,0xFF,0x00
11.573742812500001,44,0xFF,0xD2
11.573790875000000,44,0xFF,0x5C
11.573851875000001,44,0xFF,0xFF
11.573896437500000,44,0xFF,0xFF
11.573940937500000,44,0xFF,0xFF
11.573985499999999,44,0xFF,0xFF
11.574035500000001,44,0xFF,0xFF
11.574080062500000,44,0xFF,0xFF
11.574145562500000,44,0xFF,0xFF
11.575537062500000,45,0xFF,0x06
11.575590562500000,45,0xFF,0x02
11.575638124999999,45,0xFF,0xEB
11.575691624999999,45,0xFF,0x97
11.575747187499999,45,0xFF,0xFF
11.575823750000000,45,0xFF,0xFF
11.575868249999999,45,0xFF,0xFF
11.575913312500001,45,0xFF,0xFF
11.575957312500000,45,0xFF,0xFF
11.576001874999999,45,0xFF,0xFF
11.576046375000001,45,0xFF,0xFF
11.576090937500000,45,0xFF,0xFF
11.576135437500000,45,0xFF,0xFF
11.576180000000001,45,0xFF,0xFF
11.576224500000000,45,0xFF,0xFF
11.576269062500000,45,0xFF,0xFF
11.576313562499999,45,0xFF,0xFF
11.576363125000000,45,0xFF,0xFF
11.576407625000000,45,0xFF,0xFF
11.576452187499999,45,0xFF,0xFF
11.576496687500001,45,0xFF,0xFF
11.576541250000000,45,0xFF,0xFF
11.576590749999999,45,0xFF,0xFF
11.576635312500001,45,0xFF,0xFF
11.576679812500000,45,0xFF,0xFF
11.576724375000000,45,0xFF,0xFF
11.576768875000001,45,0xFF,0xFF
11.576845437499999,45,0xFF,0xFF
11.576890000000001,45,0xFF,0xFF
11.576934500000000,45,0xFF,0xFF
11.576979062500000,45,0xFF,0xFF
11.577023062500000,45,0xFF,0xFF
11.577067562500000,45,0xFF,0xFF
11.577112124999999,45,0xFF,0xFF
11.577162187500001,45,0xFF,0xFF
11.577206687500000,45,0xFF,0xFF
11.577251187500000,45,0xFF,0xFF
11.577295250000001,45,0xFF,0xFF
11.577339750000000,45,0xFF,0xFF
11.577389812500000,45,0xFF,0xFF
11.577434374999999,45,0xFF,0xFF
11.577478375000000,45,0xFF,0xFF
11.577522875000000,45,0xFF,0xFF
11.577567437500001,45,0xFF,0xFF
11.577611937500000,45,0xFF,0xFF
11.577661500000000,45,0xFF,0xFF
11.578737250000000,46,0xFF,0x10
11.578784750000001,46,0xFF,0x06
11.578832812500000,46,0xFF,0x08
11.578880812500000,46,0xFF,0x00
11.578928375000000,46,0xFF,0x00
11.578976375000000,46,0xFF,0x07
11.579023937500001,46,0xFF,0x35
11.579071937500000,46,0xFF,0x2C
11.579133000000001,46,0xFF,0xFF
11.579177562500000,46,0xFF,0xFF
11.579227062499999,46,0xFF,0xFF
11.579272124999999,46,0xFF,0xFF
11.579316625000001,46,0xFF,0xFF
11.579361187500000,46,0xFF,0xFF
11.579426687500000,46,0xFF,0xFF
11.587745375000001,47,0xFF,0x05
11.587793437500000,47,0xFF,0x15
11.587852000000000,47,0xFF,0xD5
11.587899999999999,47,0xFF,0xC3
11.587947562500000,47,0xFF,0x10
11.587995562500000,47,0xFF,0xEE
11.588043125000000,47,0xFF,0x45
11.588091125000000,47,0xFF,0xF7
11.588139187499999,47,0xFF,0x23
11.588186687500000,47,0xFF,0x00
11.588234750000000,47,0xFF,0x07
11.588282250000001,47,0xFF,0x11
11.588330312500000,47,0xFF,0x08
11.588378312500000,47,0xFF,0xA3
11.588425875000000,47,0xFF,0x5A
11.588478875000000,47,0xFF,0x7E
11.588526937499999,47,0xFF,0x58
11.588580000000000,47,0xFF,0x6E
11.588628000000000,47,0xFF,0x3B
11.588675562500001,47,0xFF,0x0E
11.588723562500000,47,0xFF,0xC2
11.588771625000000,47,0xFF,0x84
11.588835124999999,47,0xFF,0x29
11.588891187500000,47,0xFF,0xFF
11.588935187500001,47,0xFF,0xFF
11.588979750000000,47,0xFF,0xFF
11.589024750000000,47,0xFF,0xFF
11.589069312499999,47,0xFF,0xFF
11.589113312500000,47,0xFF,0xFF
11.589179375000001,47,0xFF,0xFF
11.596781062500000,48,0xFF,0x07
11.596850125000000,48,0xFF,0x02
11.596898187500001,48,0xFF,0xDA
11.596946187500000,48,0xFF,0xA4
11.597001750000000,48,0xFF,0xFF
11.597046250000000,48,0xFF,0xFF
11.597090812499999,48,0xFF,0xFF
11.597140812499999,48,0xFF,0xFF
11.597185375000000,48,0xFF,0xFF
11.597229875000000,48,0xFF,0xFF
11.597274437499999,48,0xFF,0xFF
11.597318937500001,48,0xFF,0xFF
11.597368500000000,48,0xFF,0xFF
11.597413000000000,48,0xFF,0xFF
11.597457562500001,48,0xFF,0xFF
11.597502062500000,48,0xFF,0xFF
11.597546625000000,48,0xFF,0xFF
11.597596125000001,48,0xFF,0xFF
11.597640687500000,48,0xFF,0xFF
11.597690687500000,48,0xFF,0xFF
11.598769937500000,49,0xFF,0x10
11.598818000000000,49,0xFF,0x06
11.598892562500000,49,0xFF,0x00
11.598940562499999,49,0xFF,0x00
11.598988125000000,49,0xFF,0x07
11.599036125000000,49,0xFF,0x00
11.599083687500000,49,0xFF,0x86
11.599131687500000,49,0xFF,0x40
11.599187250000000,49,0xFF,0xFF
11.599231750000000,49,0xFF,0xFF
11.599276312500001,49,0xFF,0xFF
11.599320812500000,49,0xFF,0xFF
11.599365375000000,49,0xFF,0xFF
11.599409874999999,49,0xFF,0xFF
11.599475437500001,49,0xFF,0xFF
11.651762750000000,50,0xFF,0x07
11.651810250000000,50,0xFF,0x02
11.651858312500000,50,0xFF,0xDA
11.651911312499999,50,0xFF,0xA4
11.651967375000000,50,0xFF,0xFF
11.652011375000001,50,0xFF,0xFF
11.652055937500000,50,0xFF,0xFF
11.652100937500000,50,0xFF,0xFF
11.652161500000000,50,0xFF,0xFF
11.652206062499999,50,0xFF,0xFF
11.652250562500001,50,0xFF,0xFF
11.652294625000000,50,0xFF,0xFF
11.652339124999999,50,0xFF,0xFF
11.652383687500000,50,0xFF,0xFF
11.652428187500000,50,0xFF,0xFF
11.652478250000000,50,0xFF,0xFF
11.652522749999999,50,0xFF,0xFF
11.652572312500000,50,0xFF,0xFF
11.653662562499999,51,0xFF,0x10
11.653710562500001,51,0xFF,0x06
11.653758625000000,51,0xFF,0x08
11.653806124999999,51,0xFF,0x00
11.653854187500000,51,0xFF,0x00
11.653901687499999,51,0xFF,0x00
11.653949750000001,51,0xFF,0xD2
11.653997250000000,51,0xFF,0x5C
11.654053312500000,51,0xFF,0xFF
11.654102812500000,51,0xFF,0xFF
11.654147375000001,51,0xFF,0xFF
11.654192374999999,51,0xFF,0xFF
11.654236437500000,51,0xFF,0xFF
11.654280937499999,51,0xFF,0xFF
11.654347000000000,51,0xFF,0xFF
11.655736437500000,52,0xFF,0x06
11.655784499999999,52,0xFF,0x02
11.655832500000001,52,0xFF,0xEB
11.655880062500000,52,0xFF,0x97
11.655936062500000,52,0xFF,0xFF
11.655980124999999,52,0xFF,0xFF
11.656024625000001,52,0xFF,0xFF
11.656069687500000,52,0xFF,0xFF
11.656130250000000,52,0xFF,0xFF
11.656174249999999,52,0xFF,0xFF
11.656218812500001,52,0xFF,0xFF
11.656263312500000,52,0xFF,0xFF
11.656307812500000,52,0xFF,0xFF
11.656352375000001,52,0xFF,0xFF
11.656396875000000,52,0xFF,0xFF
11.656446937500000,52,0xFF,0xFF
11.656490937499999,52,0xFF,0xFF
11.656535500000000,52,0xFF,0xFF
11.656580000000000,52,0xFF,0xFF
11.656624562499999,52,0xFF,0xFF
11.656674625000001,52,0xFF,0xFF
11.656718625000000,52,0xFF,0xFF
11.656763124999999,52,0xFF,0xFF
11.656807687500001,52,0xFF,0xFF
11.656852187500000,52,0xFF,0xFF
11.656902250000000,52,0xFF,0xFF
11.656946749999999,52,0xFF,0xFF
11.656990812500000,52,0xFF,0xFF
11.657035312500000,52,0xFF,0xFF
11.657079875000001,52,0xFF,0xFF
11.657156937500000,52,0xFF,0xFF
11.657200937500001,52,0xFF,0xFF
11.657245500000000,52,0xFF,0xFF
11.657290000000000,52,0xFF,0xFF
11.657334562500001,52,0xFF,0xFF
11.657379062500000,52,0xFF,0xFF
11.657423625000000,52,0xFF,0xFF
11.657473625000000,52,0xFF,0xFF
11.657517687500000,52,0xFF,0xFF
11.657562187500000,52,0xFF,0xFF
11.657606749999999,52,0xFF,0xFF
11.657651250000001,52,0xFF,0xFF
11.657701312500000,52,0xFF,0xFF
11.657745312499999,52,0xFF,0xFF
11.657789875000001,52,0xFF,0xFF
11.657834375000000,52,0xFF,0xFF
11.657878937500000,52,0xFF,0xFF
11.657928937499999,52,0xFF,0xFF
11.657973500000001,52,0xFF,0xFF
11.658018000000000,52,0xFF,0xFF
11.658062062500001,52,0xFF,0xFF
11.658106562500000,52,0xFF,0xFF
11.658151125000000,52,0xFF,0xFF
11.658211625000000,52,0xFF,0xFF
11.658256187499999,52,0xFF,0xFF
11.658300687500001,52,0xFF,0xFF
11.658345250000000,52,0xFF,0xFF
11.658389750000000,52,0xFF,0xFF
11.658434312500001,52,0xFF,0xFF
11.658478812500000,52,0xFF,0xFF
11.658528374999999,52,0xFF,0xFF
11.658572875000001,52,0xFF,0xFF
11.658617437500000,52,0xFF,0xFF
11.658661937500000,52,0xFF,0xFF
11.658706499999999,52,0xFF,0xFF
11.658751000000001,52,0xFF,0xFF
11.658795562500000,52,0xFF,0xFF
11.658840062499999,52,0xFF,0xFF
11.658884625000001,52,0xFF,0xFF
11.658928625000000,52,0xFF,0xFF
11.658978687499999,52,0xFF,0xFF
11.659023187500001,52,0xFF,0xFF
11.659067750000000,52,0xFF,0xFF
11.659133750000001,52,0xFF,0xFF
11.659177812499999,52,0xFF,0xFF
11.659222312500001,52,0xFF,0xFF
11.659266875000000,52,0xFF,0xFF
11.659311375000000,52,0xFF,0xFF
11.659355937500001,52,0xFF,0xFF
11.659400437500000,52,0xFF,0xFF
11.659450000000000,52,0xFF,0xFF
11.659494499999999,52,0xFF,0xFF
11.659539062500000,52,0xFF,0xFF
11.659583562500000,52,0xFF,0xFF
11.659628124999999,52,0xFF,0xFF
11.659678124999999,52,0xFF,0xFF
11.659722187500000,52,0xFF,0xFF
11.659766687499999,52,0xFF,0xFF
11.659811250000001,52,0xFF,0xFF
11.659855750000000,52,0xFF,0xFF
11.659905812500000,52,0xFF,0xFF
11.659950312499999,52,0xFF,0xFF
11.659994375000000,52,0xFF,0xFF
11.660038875000000,52,0xFF,0xFF
11.660083437500001,52,0xFF,0xFF
11.660127937500000,52,0xFF,0xFF
11.660188500000000,52,0xFF,0xFF
11.660233000000000,52,0xFF,0xFF
11.660277562499999,52,0xFF,0xFF
11.660322062500001,52,0xFF,0xFF
11.660366625000000,52,0xFF,0xFF
11.660410625000001,52,0xFF,0xFF
11.660455187500000,52,0xFF,0xFF
11.660505187500000,52,0xFF,0xFF
11.660549749999999,52,0xFF,0xFF
11.660594250000001,52,0xFF,0xFF
11.660638812500000,52,0xFF,0xFF
11.660683312500000,52,0xFF,0xFF
11.660732875000001,52,0xFF,0xFF
11.660777375000000,52,0xFF,0xFF
11.660821937500000,52,0xFF,0xFF
11.660866437499999,52,0xFF,0xFF
11.660911000000000,52,0xFF,0xFF
11.660960500000000,52,0xFF,0xFF
11.661005062499999,52,0xFF,0xFF
11.661049562500001,52,0xFF,0xFF
11.661094125000000,52,0xFF,0xFF
11.661138625000000,52,0xFF,0xFF
11.661215187500000,52,0xFF,0xFF
11.661259749999999,52,0xFF,0xFF
11.661304250000001,52,0xFF,0xFF
11.661348812500000,52,0xFF,0xFF
11.661393312500000,52,0xFF,0xFF
11.661437375000000,52,0xFF,0xFF
11.661481875000000,52,0xFF,0xFF
11.661531937500000,52,0xFF,0xFF
11.661576437500001,52,0xFF,0xFF
11.661621000000000,52,0xFF,0xFF
11.661664999999999,52,0xFF,0xFF
11.661709562500000,52,0xFF,0xFF
11.661754062500000,52,0xFF,0xFF
11.661804125000000,52,0xFF,0xFF
11.662992437500000,53,0xFF,0x10
11.663039937500001,53,0xFF,0x06
11.663088000000000,53,0xFF,0x08
11.663168062500000,53,0xFF,0x00
11.663216062500000,53,0xFF,0x00
11.663263625000001,53,0xFF,0x08
11.663311625000000,53,0xFF,0xDA
11.663359687500000,53,0xFF,0xDD
11.663415187500000,53,0xFF,0xFF
11.663459749999999,53,0xFF,0xFF
11.663503750000000,53,0xFF,0xFF
11.663548812500000,53,0xFF,0xFF
11.663593312500000,53,0xFF,0xFF
11.663637874999999,53,0xFF,0xFF
11.663703375000001,53,0xFF,0xFF
11.676466124999999,54,0xFF,0x07
11.676514187500000,54,0xFF,0x02
11.676562187500000,54,0xFF,0xDA
11.676615249999999,54,0xFF,0xA4
11.676670750000000,54,0xFF,0xFF
11.676715312500001,54,0xFF,0xFF
11.676759812500000,54,0xFF,0xFF
11.676804375000000,54,0xFF,0xFF
11.676848874999999,54,0xFF,0xFF
11.676893437500000,54,0xFF,0xFF
11.676937937500000,54,0xFF,0xFF
11.676982499999999,54,0xFF,0xFF
11.677027000000001,54,0xFF,0xFF
11.677071562500000,54,0xFF,0xFF
11.677115562499999,54,0xFF,0xFF
11.677160125000000,54,0xFF,0xFF
11.677226187500001,54,0xFF,0xFF
11.677276187500000,54,0xFF,0xFF
11.678366437499999,55,0xFF,0x10
11.678414500000001,55,0xFF,0x06
11.678462500000000,55,0xFF,0x08
11.678510062499999,55,0xFF,0x00
11.678558062500001,55,0xFF,0x00
11.678605624999999,55,0xFF,0x00
11.678653625000001,55,0xFF,0xD2
11.678701187500000,55,0xFF,0x5C
11.678762187500000,55,0xFF,0xFF
11.678806750000000,55,0xFF,0xFF
11.678856750000000,55,0xFF,0xFF
11.678901312500001,55,0xFF,0xFF
11.678945812500000,55,0xFF,0xFF
11.678990375000000,55,0xFF,0xFF
11.679056437500000,55,0xFF,0xFF
11.680073625000000,56,0xFF,0x06
11.680121625000000,56,0xFF,0x02
11.680169687499999,56,0xFF,0xEB
11.680228187499999,56,0xFF,0x97
11.680283749999999,56,0xFF,0xFF
11.680328312500000,56,0xFF,0xFF
11.680372312499999,56,0xFF,0xFF
11.680417374999999,56,0xFF,0xFF
11.680461875000001,56,0xFF,0xFF
11.680506375000000,56,0xFF,0xFF
11.680550437500001,56,0xFF,0xFF
11.680594937500000,56,0xFF,0xFF
11.680645000000000,56,0xFF,0xFF
11.680689500000000,56,0xFF,0xFF
11.680734062499999,56,0xFF,0xFF
11.680778062500000,56,0xFF,0xFF
11.680822624999999,56,0xFF,0xFF
11.680872624999999,56,0xFF,0xFF
11.680917187500000,56,0xFF,0xFF
11.680961187499999,56,0xFF,0xFF
11.681005750000001,56,0xFF,0xFF
11.681050250000000,56,0xFF,0xFF
11.681100312500000,56,0xFF,0xFF
11.681144812499999,56,0xFF,0xFF
11.681189375000001,56,0xFF,0xFF
11.681255437500001,56,0xFF,0xFF
11.681299937500000,56,0xFF,0xFF
11.681344500000000,56,0xFF,0xFF
11.681388500000001,56,0xFF,0xFF
11.681433062500000,56,0xFF,0xFF
11.681477562500000,56,0xFF,0xFF
11.681522125000001,56,0xFF,0xFF
11.681572125000001,56,0xFF,0xFF
11.681616187500000,56,0xFF,0xFF
11.681660687500001,56,0xFF,0xFF
11.681705250000000,56,0xFF,0xFF
11.681749750000000,56,0xFF,0xFF
11.681799812500000,56,0xFF,0xFF
